
16:56:40.361 设备发送:03 03 04 04 00 01 C5 19
16:56:41.173 设备发送:03 03 04 04 00 01 C5 19
16:56:41.998 设备发送:05 03 04 84 00 04 04 94
16:56:42.812 设备发送:05 03 04 84 00 04 04 94
16:56:43.655 设备发送:05 03 04 84 00 04 04 94
16:56:44.465 设备发送:05 03 06 84 00 04 05 2C
16:56:45.275 设备发送:05 03 06 84 00 04 05 2C
16:56:46.093 设备发送:05 03 06 84 00 04 05 2C
16:56:46.911 设备发送:05 03 04 04 00 01 C5 7F
16:56:47.734 设备发送:05 03 04 04 00 01 C5 7F
16:56:48.567 设备发送:05 03 04 04 00 01 C5 7F
16:56:49.376 设备发送:0C 03 04 84 00 04 04 0D
16:56:50.192 设备发送:0C 03 04 84 00 04 04 0D
16:56:51.022 设备发送:0C 03 04 84 00 04 04 0D
16:56:51.829 设备发送:0C 03 06 84 00 04 05 B5
16:56:52.638 设备发送:0C 03 06 84 00 04 05 B5
16:56:53.481 设备发送:0C 03 06 84 00 04 05 B5
16:56:54.288 设备发送:0C 03 04 04 00 01 C5 E6
16:56:55.117 设备发送:0C 03 04 04 00 01 C5 E6
16:56:55.924 设备发送:0C 03 04 04 00 01 C5 E6
16:56:56.765 设备发送:01 03 04 84 00 04 05 10
16:56:57.566 设备接收:01 03 08 13 85 00 00 FF D9 00 27 A1 F3
16:56:57.575 设备发送:01 03 06 84 00 04 04 A8
16:56:58.365 设备接收:01 03 08 00 00 1E B3 00 03 F0 F0 27 F7
16:56:58.406 设备发送:01 03 04 04 00 01 C4 FB
16:56:59.213 设备发送:01 03 04 04 00 01 C4 FB
16:57:00.004 设备接收:01 03 02 00 02 39 85
16:57:00.025 设备发送:02 03 04 84 00 04 05 23
16:57:00.858 设备发送:02 03 04 84 00 04 05 23
16:57:01.666 设备发送:02 03 04 84 00 04 05 23
16:57:02.512 设备发送:02 03 06 84 00 04 04 9B
16:57:03.316 设备发送:02 03 06 84 00 04 04 9B
16:57:04.117 设备发送:02 03 06 84 00 04 04 9B
16:57:04.956 设备发送:02 03 04 04 00 01 C4 C8
16:57:05.759 设备发送:02 03 04 04 00 01 C4 C8
16:57:06.610 设备发送:02 03 04 04 00 01 C4 C8
16:57:07.413 设备发送:03 03 04 84 00 04 04 F2
16:57:08.237 设备发送:03 03 04 84 00 04 04 F2
16:57:09.056 设备发送:03 03 04 84 00 04 04 F2
16:57:09.864 设备发送:03 03 06 84 00 04 05 4A
16:57:10.702 设备发送:03 03 06 84 00 04 05 4A
16:57:11.517 设备发送:03 03 06 84 00 04 05 4A
16:57:12.333 设备发送:03 03 04 04 00 01 C5 19
16:57:13.151 设备发送:03 03 04 04 00 01 C5 19
16:57:13.985 设备发送:03 03 04 04 00 01 C5 19
16:57:14.792 设备发送:05 03 04 84 00 04 04 94
16:57:15.619 设备发送:05 03 04 84 00 04 04 94
16:57:16.431 设备发送:05 03 04 84 00 04 04 94
16:57:17.262 设备发送:05 03 06 84 00 04 05 2C
16:57:18.077 设备发送:05 03 06 84 00 04 05 2C
16:57:18.910 设备发送:05 03 06 84 00 04 05 2C
16:57:19.708 设备发送:05 03 04 04 00 01 C5 7F
16:57:20.546 设备发送:05 03 04 04 00 01 C5 7F
16:57:21.361 设备发送:05 03 04 04 00 01 C5 7F
16:57:22.175 设备发送:0C 03 04 84 00 04 04 0D
16:57:22.992 设备发送:0C 03 04 84 00 04 04 0D
16:57:23.804 设备发送:0C 03 04 84 00 04 04 0D
16:57:24.641 设备发送:0C 03 06 84 00 04 05 B5
16:57:25.448 设备发送:0C 03 06 84 00 04 05 B5
16:57:26.273 设备发送:0C 03 06 84 00 04 05 B5
16:57:27.077 设备发送:0C 03 04 04 00 01 C5 E6
16:57:27.921 设备发送:0C 03 04 04 00 01 C5 E6
16:57:28.725 设备发送:0C 03 04 04 00 01 C5 E6
16:57:29.555 设备发送:01 03 04 84 00 04 05 10
16:57:30.353 设备接收:01 03 08 13 88 00 00 FF 91 06 09 FD 24
16:57:30.375 设备发送:01 03 06 84 00 04 04 A8
16:57:31.177 设备接收:01 03 08 00 00 1E B3 00 03 F0 F0 27 F7
16:57:31.190 设备发送:01 03 04 04 00 01 C4 FB
16:57:31.984 设备接收:01 03 02 50 17 29 15
16:57:32.007 设备发送:02 03 04 84 00 04 05 23
16:57:32.837 设备发送:02 03 04 84 00 04 05 23
16:57:33.655 设备发送:02 03 04 84 00 04 05 23
16:57:34.467 设备发送:02 03 06 84 00 04 04 9B
16:57:35.286 设备发送:02 03 06 84 00 04 04 9B
16:57:36.102 设备发送:02 03 06 84 00 04 04 9B
16:57:36.926 设备发送:02 03 04 04 00 01 C4 C8
16:57:37.765 设备发送:02 03 04 04 00 01 C4 C8
16:57:38.583 设备发送:02 03 04 04 00 01 C4 C8
16:57:39.384 设备发送:03 03 04 84 00 04 04 F2
16:57:40.214 设备发送:03 03 04 84 00 04 04 F2
16:57:41.017 设备发送:03 03 04 84 00 04 04 F2
16:57:41.844 设备发送:03 03 06 84 00 04 05 4A
16:57:42.673 设备发送:03 03 06 84 00 04 05 4A
16:57:43.504 设备发送:03 03 06 84 00 04 05 4A
16:57:44.315 设备发送:03 03 04 04 00 01 C5 19
16:57:45.120 设备发送:03 03 04 04 00 01 C5 19
16:57:45.956 设备发送:03 03 04 04 00 01 C5 19
16:57:46.785 设备发送:05 03 04 84 00 04 04 94
16:57:47.607 设备发送:05 03 04 84 00 04 04 94
16:57:48.412 设备发送:05 03 04 84 00 04 04 94
16:57:49.224 设备发送:05 03 06 84 00 04 05 2C
16:57:50.063 设备发送:05 03 06 84 00 04 05 2C
16:57:50.61300

