11:09:13.690 设备发送:02 03 06 84 00 04 04 9B
11:09:14.489 设备接收:D8 00 00 00 00 00 00 00 00 00 00 00 00 00 00 00 00 00 00 09 50 1B DB 00 00 00 00 00 00 00 00 00 00 00 00 00 00 00 00 00 00 F3 1A 02 03 08 00 00 20 67 00 0B BF 25 68 12
11:09:15.195 设备发送:02 03 04 04 00 01 C4 C8
11:09:15.414 设备接收:02 03 02 00 02 7D 85
11:09:15.618 设备发送:03 03 04 84 00 04 04 F2
11:09:16.136 设备接收:03 03 08 13 8B 19 D1 FF C7 19 D1 50 40
11:09:16.152 设备发送:03 03 04 8D 00 21 15 2B
11:09:16.939 设备接收:03 03 42 09 51 24 07 00 00 00 00 00 00 00 00 00 00 00 00 00 00 00 00 00 00 09 4F 24 0D 00 00 00 00 00 00 00 00 00 00 00 00 00 00 00 00 00 00 09 62 24 05 00 00 00 00 00 00 00 00 00 00 00 00 00 00 00 00 00 00 8D A7
11:09:16.954 设备发送:03 03 06 84 00 04 05 4A
11:09:17.782 设备接收:03 03 08 00 00 2F 34 00 0F 6D 82 B4 C6
11:09:17.800 设备发送:03 03 04 04 00 01 C5 19
11:09:18.582 设备接收:03 03 02 00 02 40 45
11:09:18.613 设备发送:04 03 04 84 00 04 05 45
11:09:19.392 设备接收:04 03 08 13 8B 06 46 FF F3 06 46 35 D6
11:09:19.817 设备发送:04 03 04 8D 00 21 14 9C
11:09:20.224 设备接收:04 03 42 09 30 09 00 00 00 00 00 00 00 00 00 00 00 00 00 00 00 00 00 00 00 09 39 08 DB 00 00 00 00 00 00 00 00 00 00 00 00 00 00 00 00 00 00 09 3F 09 29 00 00 00 00 00 00 00 00 00 00 00 00 00 00 00 00 00 00 7B 4C
11:09:20.273 设备发送:04 03 06 84 00 04 04 FD
11:09:21.053 设备接收:04 03 08 00 00 0A BD 00 09 7F 3A 98 8B
11:09:21.069 设备发送:04 03 04 04 00 01 C4 AE
11:09:21.885 设备接收:04 03 02 00 02 F5 85
11:09:21.900 设备发送:05 03 04 84 00 04 04 94
11:09:22.685 设备接收:05 03 08 13 8B 06 34 FF F5 06 34 69 05
11:09:22.738 设备发送:05 03 04 8D 00 21 15 4D
11:09:23.529 设备接收:05 03 42 09 32 08 CC 00 00 00 00 00 00 00 00 00 00 00 00 00 00 00 00 00 00 09 31 08 D7 00 00 00 00 00 00 00 00 00 00 00 00 00 00 00 00 00 00 09 3F 08 DA 00 00 00 00 00 00 00 00 00 00 00 00 00 00 00 00 00 00 2B AC
11:09:23.543 设备发送:05 03 06 84 00 04 05 2C
11:09:24.340 设备接收:05 03 08 00 00 0A BA 00 0D DE C2 10 64
11:09:24.361 设备发送:05 03 04 04 00 01 C5 7F
11:09:25.183 设备接收:05 03 02 00 02 C8 45
11:09:25.199 设备发送:06 03 04 84 00 04 04 A7
11:09:25.979 设备接收:06 03 08 13 8B 0C 29 FF B5 0C 2A 0D 95
11:09:25.996 设备发送:06 03 04 8D 00 21 15 7E
11:09:26.807 设备接收:06 03 42 09 33 11 28 00 00 00 00 00 00 00 00 00 00 00 00 00 00 00 00 00 00 09 40 11 26 00 00 00 00 00 00 00 00 00 00 00 00 00 00 00 00 00 00 09 45 11 27 00 00 00 00 00 00 00 00 00 00 00 00 00 00 00 00 00 00 36 C2
11:09:26.823 设备发送:06 03 06 84 00 04 05 1F
11:09:27.615 设备接收:06 03 08 00 00 14 DF 00 0C D1 CB C4 A0
11:09:27.646 设备发送:06 03 04 04 00 01 C5 4C
11:09:28.431 设备接收:06 03 02 00 02 8C 45
11:09:28.446 设备发送:07 03 04 84 00 04 05 76
11:09:29.278 设备接收:07 03 08 13 8B 0D 1D FF E0 0D 1D E9 2A
11:09:29.293 设备发送:07 03 04 8D 00 21 14 AF
11:09:30.089 设备接收:07 03 42 09 37 12 88 00 00 00 00 00 00 00 00 00 00 00 00 00 00 00 00 00 00 09 42 12 81 00 00 00 00 00 00 00 00 00 00 00 00 00 00 00 00 00 00 09 45 12 8E 00 00 00 00 00 00 00 00 00 00 00 00 00 00 00 00 00 00 32 C9
11:09:30.105 设备发送:07 03 06 84 00 04 04 CE
11:09:30.912 设备接收:07 03 08 00 00 16 4A 00 0B 10 0D AD A0
11:09:30.926 设备发送:07 03 04 04 00 01 C4 9D
11:09:31.706 设备接收:07 03 02 00 02 B1 85
11:09:31.722 设备发送:08 03 04 84 00 04 05 89
11:09:32.548 设备接收:08 03 08 13 8A 09 F8 FF C5 09 F9 96 EC
11:09:32.563 设备发送:08 03 04 8D 00 21 14 50
11:09:33.356 设备接收:08 03 42 09 37 0E 28 00 00 00 00 00 00 00 00 00 00 00 00 00 00 00 00 00 00 09 3E 0E 24 00 00 00 00 00 00 00 00 00 00 00 00 00 00 00 00 00 00 09 41 0E 47 00 00 00 00 00 00 00 00 00 00 00 00 00 00 00 00 00 00 35 C5
11:09:33.372 设备发送:08 03 06 84 00 04 04 31
11:09:34.197 设备接收:08 03 08 00 00 10 94 00 0C 8F 04 2D F6
11:09:34.212 设备发送:08 03 04 04 00 01 C4 62
11:09:35.007 设备接收:08 03 02 00 02 E5 84
11:09:35.037 设备发送:09 03 04 84 00 04 04 58
11:09:35.836 设备接收:09 03 08 13 89 0B 52 FF E5 0B 52 F9 FF
11:09:35.850 设备发送:09 03 04 8D 00 21 15 81
11:09:36.649 设备接收:09 03 42 09 3B 0F FB 00 00 00 00 00 00 00 00 00 00 00 00 00 00 00 00 00 00 09 39 0F FD 00 00 00 00 00 00 00 00 00 00 00 00 00 00 00 00 00 00 09 4B 10 11 00 00 00 00 00 00 00 00 00 00 00 00 00 00 00 00 00 00 E1 03
11:09:36.664 设备发送:09 03 06 84 00 04 05 E0
11:09:37.477 设备接收:09 03 08 00 00 12 9A 00 0E 65 CF EE 1E
11:09:37.492 设备发送:09 03 04 04 00 01 C5 B3
11:09:38.291 设备接收:09 03 02 00 02 D8 44
11:09:38.306 设备发送:0A 03 04 84 00 04 04 6B
11:09:39.102 设备接收:0A 03 08 13 89 0A BA FF C1 0A BB 17 68
11:09:39.118 设备发送:0A 03 04 8D 00 21 15 B2
11:09:39.916 设备接收:0A 03 42 09 3B 0F 29 00 00 00 00 00 00 00 00 00 00 00 00 00 00 00 00 00 00 09 3F 0F 27 00 00 00 00 00 00 00 00 00 00 00 00 00 00 00 00 00 00 09 47 0F 3C 00 00 00 00 00 00 00 00 00 00 00 00 00 00 00 00 00 00 7D 4B
11:09:39.932 设备发送:0A 03 06 84 00 04 05 D3
11:09:40.730 设备接收:0A 03 08 00 00 11 EB 00 0D 43 8A B6 F1
11:09:40.746 设备发送:0A 03 04 04 00 01 C5 80
11:09:41.573 设备接收:0A 03 02 00 02 9C 44
11:09:41.589 设备发送:0B 03 04 84 00 04 05 BA
11:09:42.385 设备接收:0B 03 08 13 8A 04 2D FF D3 04 2E 30 6D
11:09:42.401 设备发送:0B 03 04 8D 00 21 14 63
11:09:43.200 设备接收:0B 03 42 09 53 05 DD 00 00 00 00 00 00 00 00 00 00 00 00 00 00 00 00 00 00 09 4A 05 E1 00 00 00 00 00 00 00 00 00 00 00 00 00 00 00 00 00 00 09 4C 05 D3 00 00 00 00 00 00 00 00 00 00 00 00 00 00 00 00 00 00 97 94
11:09:43.215 设备发送:0B 03 06 84 00 04 04 02
11:17:10.927 设备接收:0B 03 08 00 00 06 DE 00 04 66 FF 36 5B
11:17:11.289 设备发送:0B 03 04 04 00 01 C4 51
11:17:11.463 设备接收:0B 03 02 00 02 A1 84
11:17:11.635 设备发送:0C 03 04 84 00 04 04 0D
11:17:11.776 设备接收:0C 03 08 13 89 03 4A FF D4 03 50 1E B7
11:17:11.886 设备发送:0C 03 04 8D 00 21 15 D4
11:17:12.011 设备接收:0C 03 42 09 4E 04 A3 00 00 00 00 00 00 00 00 00 00 00 00 00 00 00 00 00 00 09 49 04 A7 00 00 00 00 00 00 00 00 00 00 00 00 00 00 00 00 00 00 09 4D 04 A1 00 00 00 00 00 00 00 00 00 00 00 00 00 00 00 00 00 00 F4 62
11:17:12.121 设备发送:0C 03 06 84 00 04 05 B5
11:17:12.231 设备接收:0C 03 08 00 00 05 82 00 03 DE 99 BF FA
11:17:12.324 设备发送:0C 03 04 04 00 01 C5 E6
11:17:12.449 设备接收:0C 03 02 00 02 14 44
11:17:12.558 设备发送:01 03 04 84 00 04 05 10
11:17:12.667 设备接收:01 03 08 13 89 06 EE 00 07 06 EE 16 5A
11:17:12.776 设备发送:01 03 04 8D 00 21 14 C9
11:17:12.885 设备接收:01 03 42 09 38 09 D3 00 00 00 00 00 00 00 00 00 00 00 00 00 00 00 00 00 00 09 39 09 DC 00 00 00 00 00 00 00 00 00 00 00 00 00 00 00 00 00 00 09 3F 09 E9 00 00 00 00 00 00 00 00 00 00 00 00 00 00 00 00 00 00 0D 0C
11:17:12.995 设备发送:01 03 06 84 00 04 04 A8
11:17:13.104 设备接收:04 03 08 00 00 0B 04 00 09 7F 42 04 A3
11:17:13.229 设备发送:04 03 04 04 00 01 C4 AE
11:17:13.340 设备接收:03 03 08 00 00 32 9E 00 0F 6D D9 EE A8
11:17:13.449 设备发送:03 03 04 04 00 01 C5 19
11:17:13.542 设备接收:03 03 02 00 02 40 45
11:17:13.638 设备发送:04 03 04 84 00 04 05 45
11:17:13.745 设备接收:04 03 08 13 87 06 63 FF F1 06 63 D4 0A
11:17:13.854 设备发送:04 03 04 8D 00 21 14 9C
11:17:13.964 设备接收:04 03 42 09 35 09 25 00 00 00 00 00 00 00 00 00 00 00 00 00 00 00 00 00 00 09 3B 08 FE 00 00 00 00 00 00 00 00 00 00 00 00 00 00 00 00 00 00 09 40 09 54 00 00 00 00 00 00 00 00 00 00 00 00 00 00 00 00 00 00 50 51
11:17:14.059 设备发送:04 03 06 84 00 04 04 FD
11:17:14.637 设备接收:04 03 08 00 00 0B 93 00 09 7F 50 F1 73
11:17:14.653 设备发送:04 03 04 04 00 01 C4 AE
11:17:15.447 设备接收:04 03 02 00 02 F5 85
11:17:15.462 设备发送:05 03 04 84 00 04 04 94
11:17:16.274 设备接收:05 03 08 13 88 06 50 FF DB 06 51 8B EF
11:17:16.289 设备发送:05 03 04 8D 00 21 15 4D
11:17:17.133 设备发送:05 03 04 8D 00 21 15 4D
11:17:17.910 设备接收:05 03 42 09 38 08 F0 00 00 00 00 00 00 00 00 00 00 00 00 00 00 00 00 00 00 09 31 08 FE 00 00 00 00 00 00 00 00 00 00 00 00 00 00 00 00 00 00 09 42 08 FF 00 00 00 00 00 00 00 00 00 00 00 00 00 00 00 00 00 00 F7 16
11:17:17.957 设备发送:05 03 06 84 00 04 05 2C
11:17:18.741 设备接收:05 03 08 00 00 0B 8E 00 0D DE D7 61 BE
11:17:18.757 设备发送:05 03 04 04 00 01 C5 7F
11:17:19.551 设备接收:05 03 02 00 02 C8 45
11:17:19.598 设备发送:06 03 04 84 00 04 04 A7
11:17:20.378 设备接收:06 03 08 13 87 0C 78 FF B5 0C 79 7C 64
11:17:20.394 设备发送:06 03 04 8D 00 21 15 7E
11:17:21.204 设备接收:06 03 42 09 38 11 93 00 00 00 00 00 00 00 00 00 00 00 00 00 00 00 00 00 00 09 42 11 8F 00 00 00 00 00 00 00 00 00 00 00 00 00 00 00 00 00 00 09 48 11 8A 00 00 00 00 00 00 00 00 00 00 00 00 00 00 00 00 00 00 FF 01
11:17:21.220 设备发送:06 03 06 84 00 04 05 1F
11:17:22.029 设备接收:06 03 08 00 00 16 7F 00 0C D1 F4 05 4B
11:17:22.045 设备发送:06 03 04 04 00 01 C5 4C
11:17:22.840 设备接收:06 03 02 00 02 8C 45
11:17:22.865 设备发送:07 03 04 84 00 04 05 76
11:17:23.651 设备接收:07 03 08 13 87 0D 5C FF E0 0D 5C D9 15
11:17:23.698 设备发送:07 03 04 8D 00 21 14 AF
11:17:24.493 设备接收:07 03 42 09 3D 12 D1 00 00 00 00 00 00 00 00 00 00 00 00 00 00 00 00 00 00 09 44 12 C9 00 00 00 00 00 00 00 00 00 00 00 00 00 00 00 00 00 00 09 48 12 D5 00 00 00 00 00 00 00 00 00 00 00 00 00 00 00 00 00 00 77 A7
11:17:24.508 设备发送:07 03 06 84 00 04 04 CE
11:17:25.290 设备接收:07 03 08 00 00 18 08 00 0B 10 3A 95 57
11:17:25.306 设备发送:07 03 04 04 00 01 C4 9D
11:17:26.121 设备接收:07 03 02 00 02 B1 85
11:17:26.129 设备发送:08 03 04 84 00 04 05 89
11:17:26.930 设备接收:08 03 08 13 87 0A 30 00 10 0A 30 4A 85
11:17:26.977 设备发送:08 03 04 8D 00 21 14 50
11:17:27.775 设备接收:08 03 42 09 38 0E 63 00 00 00 00 00 00 00 00 00 00 00 00 00 00 00 00 00 00 09 41 0E 6F 00 00 00 00 00 00 00 00 00 00 00 00 00 00 00 00 00 00 09 44 0E 8E 00 00 00 00 00 00 00 00 00 00 00 00 00 00 00 00 00 00 1C 8E
11:17:27.797 设备发送:08 03 06 84 00 04 04 31
11:17:28.591 设备接收:08 03 08 00 00 11 E9 00 0C 8F 26 C0 34
11:17:28.623 设备发送:08 03 04 04 00 01 C4 62
11:17:29.403 设备接收:08 03 02 00 02 E5 84
11:17:29.419 设备发送:09 03 04 84 00 04 04 58
11:17:30.247 设备接收:09 03 08 13 87 0B A8 00 11 0B A8 3F 8E
11:17:30.262 设备发送:09 03 04 8D 00 21 15 81
11:17:31.041 设备接收:09 03 42 09 3A 10 6D 00 00 00 00 00 00 00 00 00 00 00 00 00 00 00 00 00 00 09 3A 10 6F 00 00 00 00 00 00 00 00 00 00 00 00 00 00 00 00 00 00 09 4C 10 84 00 00 00 00 00 00 00 00 00 00 00 00 00 00 00 00 00 00 6B D7
11:17:31.091 设备发送:09 03 06 84 00 04 05 E0
11:17:31.869 设备接收:09 03 08 00 00 14 1D 00 0E 65 F5 DA 75
11:17:31.885 设备发送:09 03 04 04 00 01 C5 B3
11:17:32.699 设备接收:09 03 02 00 02 D8 44
11:17:32.724 设备发送:0A 03 04 84 00 04 04 6B
11:17:33.515 设备接收:0A 03 08 13 86 0B 05 FF E8 0B 05 AC 4A
11:17:33.937 设备发送:0A 03 04 8D 00 21 15 B2
11:17:34.659 设备接收:0A 03 42 09 35 0F 95 00 00 00 00 00 00 00 00 00 00 00 00 00 00 00 00 00 00 09 43 0F 97 00 00 00 00 00 00 00 00 00 00 00 00 00 00 00 00 00 00 09 49 0F C2 00 00 00 00 00 00 00 00 00 00 00 00 00 00 00 00 00 00 28 39
11:17:35.587 设备发送:0A 03 06 84 00 04 05 D3
11:17:36.432 设备接收:0A 03 08 00 00 13 5A 00 0D 43 AF 0A D2
11:17:37.313 设备发送:0A 03 04 04 00 01 C5 80
11:17:38.017 设备接收:0A 03 02 00 02 9C 44
11:17:38.757 设备发送:0B 03 04 84 00 04 05 BA
11:17:39.461 设备接收:0B 03 08 13 86 04 54 FF D4 04 55 90 45
11:17:40.340 设备发送:0B 03 04 8D 00 21 14 63
11:17:40.355 设备接收:0B 03 42 09 4E 06 0E 00 00 00 00 00 00 00 00 00 00 00 00 00 00 00 00 00 00 09 4D 06 17 00 00 00 00 00 00 00 00 00 00 00 00 00 00 00 00 00 00 09 51 06 0A 00 00 00 00 00 00 00 00 00 00 00 00 00 00 00 00 00 00 0F AD
11:17:40.576 设备发送:0B 03 06 84 00 04 04 02
11:17:40.764 设备接收:0B 03 08 00 00 07 6E 00 04 67 0D F6 45
11:17:40.967 设备发送:0B 03 04 04 00 01 C4 51
11:17:41.171 设备接收:0B 03 02 00 02 A1 84
11:17:41.345 设备发送:0C 03 04 84 00 04 04 0D
11:17:41.522 设备接收:0C 03 08 13 86 03 67 FF D3 03 6C FC 61
11:17:41.720 设备发送:0C 03 04 8D 00 21 15 D4
11:17:41.907 设备接收:0C 03 42 09 50 04 C8 00 00 00 00 00 00 00 00 00 00 00 00 00 00 00 00 00 00 09 4C 04 CF 00 00 00 00 00 00 00 00 00 00 00 00 00 00 00 00 00 00 09 50 04 C6 00 00 00 00 00 00 00 00 00 00 00 00 00 00 00 00 00 00 10 A5
11:17:42.078 设备发送:0C 03 06 84 00 04 05 B5
11:17:42.251 设备接收:0C 03 08 00 00 05 F3 00 03 DE A4 02 20
11:17:42.467 设备发送:0C 03 04 04 00 01 C5 E6
11:17:42.656 设备接收:0C 03 02 00 02 14 44
11:17:42.860 设备发送:01 03 04 84 00 04 05 10
11:17:43.366 设备接收:01 03 08 13 86 07 01 FF ED 07 01 6C A0
11:17:43.381 设备发送:01 03 04 8D 00 21 14 C9
11:17:44.177 设备接收:01 03 42 09 3F 09 E9 00 00 00 00 00 00 00 00 00 00 00 00 00 00 00 00 00 00 09 3D 09 F4 00 00 00 00 00 00 00 00 00 00 00 00 00 00 00 00 00 00 09 42 0A 04 00 00 00 00 00 00 00 00 00 00 00 00 00 00 00 00 00 00 B5 9F
11:17:44.193 设备发送:01 03 06 84 00 04 04 A8
11:17:45.007 设备接收:01 03 08 00 00 0C 44 00 04 03 71 E4 01
11:17:45.039 设备发送:01 03 04 04 00 01 C4 FB
11:17:45.835 设备接收:01 03 02 00 02 39 85
11:17:45.850 设备发送:02 03 04 84 00 04 05 23
11:17:46.662 设备接收:02 03 08 13 86 14 2F FF D4 14 2F D4 60
11:17:46.677 设备发送:02 03 04 8D 00 21 14 FA
11:17:47.473 设备接收:02 03 42 09 4A 1C 53 00 00 00 00 00 00 00 00 00 00 00 00 00 00 00 00 00 00 09 45 1C 4A 00 00 00 00 00 00 00 00 00 00 00 00 00 00 00 00 00 00 09 50 1C 48 00 00 00 00 00 00 00 00 00 00 00 00 00 00 00 00 00 00 3A 15
11:17:47.505 设备发送:02 03 06 84 00 04 04 9B
11:17:48.286 设备接收:02 03 08 00 00 23 42 00 0B BF 6E 65 D1
11:17:48.316 设备发送:02 03 04 04 00 01 C4 C8
11:17:49.100 设备接收:02 03 02 00 02 7D 85
11:17:49.131 设备发送:03 03 04 84 00 04 04 F2
11:17:49.914 设备接收:03 03 08 13 85 1A 56 FF C3 1A 56 0A FE
11:17:49.945 设备发送:03 03 04 8D 00 21 15 2B
11:17:50.739 设备接收:03 03 42 09 55 24 BF 00 00 00 00 00 00 00 00 00 00 00 00 00 00 00 00 00 00 09 4F 24 C5 00 00 00 00 00 00 00 00 00 00 00 00 00 00 00 00 00 00 09 5F 24 BA 00 00 00 00 00 00 00 00 00 00 00 00 00 00 00 00 00 00 E6 82
11:17:50.755 设备发送:03 03 06 84 00 04 05 4A
11:17:51.551 设备接收:03 03 08 00 00 32 EC 00 0F 6D E1 D7 71
11:17:51.582 设备发送:03 03 04 04 00 01 C5 19
11:17:52.381 设备接收:03 03 02 00 02 40 45
11:17:52.413 设备发送:04 03 04 84 00 04 05 45
11:17:53.210 设备接收:04 03 08 13 86 06 76 FF F2 06 76 F8 C6
11:17:53.227 设备发送:04 03 04 8D 00 21 14 9C
11:17:54.022 设备接收:04 03 42 09 39 09 41 00 00 00 00 00 00 00 00 00 00 00 00 00 00 00 00 00 00 09 3C 09 19 00 00 00 00 00 00 00 00 00 00 00 00 00 00 00 00 00 00 09 43 09 6C 00 00 00 00 00 00 00 00 00 00 00 00 00 00 00 00 00 00 67 09
11:17:54.054 设备发送:04 03 06 84 00 04 04 FD
11:17:54.862 设备接收:04 03 08 00 00 0B A5 00 09 7F 52 B8 B6
11:17:54.878 设备发送:04 03 04 04 00 01 C4 AE
11:17:55.675 设备接收:04 03 02 00 02 F5 85
11:17:55.691 设备发送:05 03 04 84 00 04 04 94
11:17:56.518 设备接收:05 03 08 13 87 06 66 FF F6 06 66 6D 34
11:17:56.533 设备发送:05 03 04 8D 00 21 15 4D
11:17:57.314 设备接收:05 03 42 09 39 09 10 00 00 00 00 00 00 00 00 00 00 00 00 00 00 00 00 00 00 09 35 09 18 00 00 00 00 00 00 00 00 00 00 00 00 00 00 00 00 00 00 09 42 09 23 00 00 00 00 00 00 00 00 00 00 00 00 00 00 00 00 00 00 F8 75
11:17:57.329 设备发送:05 03 06 84 00 04 05 2C
11:17:58.126 设备接收:05 03 08 00 00 0B 9F 00 0D DE D9 1C 79
11:17:58.157 设备发送:05 03 04 04 00 01 C5 7F
11:17:58.953 设备接收:05 03 02 00 02 C8 45
11:17:58.984 设备发送:06 03 04 84 00 04 04 A7
11:17:59.766 设备接收:06 03 08 13 87 0C 8C FF B3 0C 8D 2C 37
11:17:59.796 设备发送:06 03 04 8D 00 21 15 7E
11:18:00.594 设备接收:06 03 42 09 3A 11 9C 00 00 00 00 00 00 00 00 00 00 00 00 00 00 00 00 00 00 09 46 11 9A 00 00 00 00 00 00 00 00 00 00 00 00 00 00 00 00 00 00 09 49 11 91 00 00 00 00 00 00 00 00 00 00 00 00 00 00 00 00 00 00 5E 4B
11:18:00.626 设备发送:06 03 06 84 00 04 05 1F
11:18:01.424 设备接收:06 03 08 00 00 16 A2 00 0C D1 F8 E9 5D
11:18:01.440 设备发送:06 03 04 04 00 01 C5 4C
11:18:02.233 设备接收:06 03 02 00 02 8C 45
11:18:02.248 设备发送:07 03 04 84 00 04 05 76
11:18:03.057 设备接收:07 03 08 13 88 0D 6E FF AC 0D 6F 9E 13
11:18:03.103 设备发送:07 03 04 8D 00 21 14 AF
11:18:03.883 设备接收:07 03 42 09 3B 12 EE 00 00 00 00 00 00 00 00 00 00 00 00 00 00 00 00 00 00 09 45 12 E4 00 00 00 00 00 00 00 00 00 00 00 00 00 00 00 00 00 00 09 48 12 F4 00 00 00 00 00 00 00 00 00 00 00 00 00 00 00 00 00 00 A3 33
11:18:03.916 设备发送:07 03 06 84 00 04 04 CE
11:18:04.707 设备接收:07 03 08 00 00 18 2E 00 0B 10 3E 9D 53
11:18:04.722 设备发送:07 03 04 04 00 01 C4 9D
11:18:05.518 设备接收:07 03 02 00 02 B1 85
11:18:05.533 设备发送:08 03 04 84 00 04 05 89
11:18:06.346 设备接收:08 03 08 13 89 0A 4A 00 11 0A 4A AC AC
11:18:06.362 设备发送:08 03 04 8D 00 21 14 50
11:18:07.173 设备接收:08 03 42 09 38 0E 87 00 00 00 00 00 00 00 00 00 00 00 00 00 00 00 00 00 00 09 45 0E 8F 00 00 00 00 00 00 00 00 00 00 00 00 00 00 00 00 00 00 09 47 0E AB 00 00 00 00 00 00 00 00 00 00 00 00 00 00 00 00 00 00 AF AA
11:18:07.189 设备发送:08 03 06 84 00 04 04 31
11:18:07.984 设备接收:08 03 08 00 00 12 06 00 0C 8F 29 55 D4
11:18:07.999 设备发送:08 03 04 04 00 01 C4 62
11:18:08.796 设备接收:08 03 02 00 02 E5 84
11:18:08.827 设备发送:09 03 04 84 00 04 04 58
11:18:09.642 设备接收:09 03 08 13 89 0B B1 00 10 0B B1 5D 86
11:18:09.658 设备发送:09 03 04 8D 00 21 15 81
11:18:10.457 设备接收:09 03 42 09 3F 10 78 00 00 00 00 00 00 00 00 00 00 00 00 00 00 00 00 00 00 09 3D 10 79 00 00 00 00 00 00 00 00 00 00 00 00 00 00 00 00 00 00 09 4E 10 8B 00 00 00 00 00 00 00 00 00 00 00 00 00 00 00 00 00 00 89 EE
11:18:10.473 设备发送:09 03 06 84 00 04 05 E0
11:18:11.256 设备接收:09 03 08 00 00 14 3E 00 0E 65 F9 1F B7
11:18:11.276 设备发送:09 03 04 04 00 01 C5 B3
11:18:12.085 设备接收:09 03 02 00 02 D8 44
11:18:12.100 设备发送:0A 03 04 84 00 04 04 6B
11:18:12.895 设备接收:0A 03 08 13 8A 0B 17 FF E7 0B 17 68 47
11:18:12.911 设备发送:0A 03 04 8D 00 21 15 B2
11:18:13.737 设备接收:0A 03 42 09 3E 0F AD 00 00 00 00 00 00 00 00 00 00 00 00 00 00 00 00 00 00 09 44 0F 9C 00 00 00 00 00 00 00 00 00 00 00 00 00 00 00 00 00 00 09 4A 0F B1 00 00 00 00 00 00 00 00 00 00 00 00 00 00 00 00 00 00 98 90
11:18:13.753 设备发送:0A 03 06 84 00 04 05 D3
11:18:14.550 设备接收:0A 03 08 00 00 13 7A 00 0D 43 B2 4B 1C
11:18:14.565 设备发送:0A 03 04 04 00 01 C5 80
11:18:15.347 设备接收:0A 03 02 00 02 9C 44
11:18:15.378 设备发送:0B 03 04 84 00 04 05 BA
11:18:16.208 设备接收:0B 03 08 13 8C 04 50 FF D3 04 51 7B 87
11:18:16.223 设备发送:0B 03 04 8D 00 21 14 63
11:18:17.007 设备接收:0B 03 42 09 57 06 0A 00 00 00 00 00 00 00 00 00 00 00 00 00 00 00 00 00 00 09 4F 06 0E 00 00 00 00 00 00 00 00 00 00 00 00 00 00 00 00 00 00 09 50 06 00 00 00 00 00 00 00 00 00 00 00 00 00 00 00 00 00 00 00 E6 B0
11:18:17.023 设备发送:0B 03 06 84 00 04 04 02
11:18:17.833 设备接收:0B 03 08 00 00 07 7A 00 04 67 0E 86 47
11:18:17.848 设备发送:0B 03 04 04 00 01 C4 51
11:18:18.651 设备接收:0B 03 02 00 02 A1 84
11:18:18.683 设备发送:0C 03 04 84 00 04 04 0D
11:18:19.477 设备接收:0C 03 08 13 8B 03 66 FF D4 03 6C AC A0
11:18:19.493 设备发送:0C 03 04 8D 00 21 15 D4
11:18:20.290 设备接收:0C 03 42 09 50 04 C6 00 00 00 00 00 00 00 00 00 00 00 00 00 00 00 00 00 00 09 4D 04 CE 00 00 00 00 00 00 00 00 00 00 00 00 00 00 00 00 00 00 09 4F 04 C5 00 00 00 00 00 00 00 00 00 00 00 00 00 00 00 00 00 00 F3 B0
11:18:20.306 设备发送:0C 03 06 84 00 04 05 B5
11:18:21.102 设备接收:0C 03 08 00 00 05 FC 00 03 DE A5 97 E1
11:18:21.118 设备发送:0C 03 04 04 00 01 C5 E6
11:18:21.916 设备接收:0C 03 02 00 02 14 44
11:18:21.963 设备发送:01 03 04 84 00 04 05 10
11:18:22.744 设备接收:01 03 08 13 8B 07 14 FF ED 07 14 7C 6C
11:18:22.776 设备发送:01 03 04 8D 00 21 14 C9
11:18:23.571 设备接收:01 03 42 09 36 0A 0D 00 00 00 00 00 00 00 00 00 00 00 00 00 00 00 00 00 00 09 37 0A 0E 00 00 00 00 00 00 00 00 00 00 00 00 00 00 00 00 00 00 09 3F 0A 1F 00 00 00 00 00 00 00 00 00 00 00 00 00 00 00 00 00 00 8D 40
11:18:23.587 设备发送:01 03 06 84 00 04 04 A8
11:18:24.381 设备接收:01 03 08 00 00 0C 58 00 04 03 73 B4 02
11:18:24.397 设备发送:01 03 04 04 00 01 C4 FB
11:18:25.197 设备接收:01 03 02 00 02 39 85
11:18:25.245 设备发送:02 03 04 84 00 04 05 23
11:18:26.021 设备接收:02 03 08 13 8B 14 50 00 1F 14 50 1D 60
11:18:26.043 设备发送:02 03 04 8D 00 21 14 FA
11:18:26.66000

