13:19:21.737 设备发送:03 03 04 04 00 01 C5 19
13:19:24.782 设备发送:03 03 05 84 00 0F 44 C9
13:19:27.775 设备发送:03 03 05 84 00 0F 44 C9
13:19:30.826 设备发送:03 03 05 84 00 0F 44 C9
13:19:33.818 设备发送:03 03 05 93 00 0F F4 CD
13:19:36.841 设备发送:03 03 05 93 00 0F F4 CD
13:19:39.857 设备发送:03 03 05 93 00 0F F4 CD
13:19:42.881 设备发送:03 03 05 A2 00 0F A5 02
13:19:45.911 设备发送:03 03 05 A2 00 0F A5 02
13:19:48.918 设备发送:03 03 05 A2 00 0F A5 02
13:19:51.946 设备发送:03 03 05 B1 00 03 54 C2
13:19:54.961 设备发送:03 03 05 B1 00 03 54 C2
13:19:57.973 设备发送:03 03 05 B1 00 03 54 C2
13:20:01.003 设备发送:03 03 04 2B 00 01 F4 D0
13:20:04.013 设备发送:03 03 04 2B 00 01 F4 D0
13:20:07.027 设备发送:03 03 04 2B 00 01 F4 D0
13:20:10.054 设备发送:03 03 04 20 00 01 85 12
13:20:13.078 设备发送:03 03 04 20 00 01 85 12
13:20:16.078 设备发送:03 03 04 20 00 01 85 12
13:20:19.129 设备发送:03 03 04 05 00 01 94 D9
13:20:22.138 设备发送:03 03 04 05 00 01 94 D9
13:20:25.141 设备发送:03 03 04 05 00 01 94 D9
13:20:28.162 设备发送:04 03 04 84 00 04 05 45
13:20:31.179 设备接收:04 03 08 13 85 0D F4 FF DD 0D F4 04 3B
13:20:31.197 设备发送:04 03 04 8D 00 05 14 87
13:20:34.204 设备接收:04 03 0A 09 14 14 07 00 00 00 00 00 00 71 A3
13:20:34.224 设备发送:04 03 04 98 00 05 05 43
13:20:37.208 设备接收:04 03 0A 09 1E 13 F5 00 00 00 00 00 00 9D 2A
13:20:37.218 设备发送:04 03 04 A3 00 05 74 8E
13:20:40.245 设备接收:04 03 0A 09 21 14 18 00 00 00 00 00 00 F4 33
13:20:40.255 设备发送:04 03 06 84 00 04 04 FD
13:20:43.254 设备接收:04 03 08 00 00 35 0A 00 0A 15 48 37 1B
13:20:43.266 设备发送:04 03 04 04 00 01 C4 AE
13:20:46.287 设备接收:04 03 02 00 02 F5 85
13:20:46.308 设备发送:04 03 05 84 00 0F 45 7E
13:20:49.296 设备发送:04 03 05 93 00 0F F5 7A
13:20:49.317 设备接收:04 03 1E 20 EC 02 FB 02 83 20 7B 01 9B 01 56 20 30 01 8C 01 46 1E 63 02 D1 02 31 1F 53 02 FB 02 64 37 2F
13:20:52.337 设备接收:04 03 1E 1E ED 03 20 02 79 1F 41 01 89 01 3A 1F BF 01 99 01 4C 05 89 00 00 00 00 05 91 00 08 00 01 C2 00
13:20:52.356 设备发送:04 03 05 A2 00 0F A4 B5
13:20:55.325 设备接收:04 03 1E 00 00 00 00 00 00 00 05 00 02 00 00 00 00 00 00 00 00 00 00 00 00 00 00 00 00 00 00 00 00 D8 36
13:20:55.336 设备发送:04 03 05 B1 00 03 55 75
13:20:58.345 设备接收:04 03 06 00 00 00 00 00 00 1E 25
13:20:58.365 设备发送:04 03 04 2B 00 01 F5 67
13:21:01.381 设备接收:04 03 02 02 DC 74 BD
13:21:01.388 设备发送:04 03 04 20 00 01 84 A5
13:21:04.406 设备接收:04 03 02 00 34 75 93
13:21:04.422 设备发送:04 03 04 05 00 01 95 6E
13:21:07.406 设备接收:04 03 02 00 00 74 44
13:21:07.428 设备发送:05 03 04 84 00 04 04 94
13:21:10.437 设备接收:05 03 08 13 85 0E 77 FF DE 0E 77 F4 7B
13:21:10.448 设备发送:05 03 04 8D 00 05 15 56
13:21:13.446 设备接收:05 03 0A 09 1C 14 A4 00 00 00 00 00 00 87 E8
13:21:13.466 设备发送:05 03 04 98 00 05 04 92
13:21:16.481 设备接收:05 03 0A 09 12 14 A7 00 00 00 00 00 00 F8 88
13:21:16.503 设备发送:05 03 04 A3 00 05 75 5F
13:21:19.505 设备接收:05 03 0A 09 29 14 B2 00 00 00 00 00 00 9B 78
13:21:19.517 设备发送:05 03 06 84 00 04 05 2C
13:21:22.537 设备接收:05 03 08 00 00 36 70 00 0E 7A CB C7 8E
13:21:22.548 设备发送:05 03 04 04 00 01 C5 7F
13:21:25.545 设备接收:05 03 02 00 02 C8 45
13:21:25.568 设备发送:05 03 05 84 00 0F 44 AF
13:21:28.585 设备接收:05 03 1E 1F 5D 02 E5 02 53 1E 9F 02 F7 02 53 1F 73 01 7D 01 33 1F 44 03 03 02 69 1F 0C 01 80 01 31 D0 D2
13:21:28.597 设备发送:05 03 05 93 00 0F F4 AB
13:21:31.597 设备接收:05 03 1E 1F 40 01 87 01 39 1E BA 01 81 01 2F 1C 20 01 92 01 22 1E A1 01 89 01 34 1E B3 01 8A 01 36 0A 7D
13:21:31.607 设备发送:05 03 05 A2 00 0F A5 64
13:21:34.619 设备接收:05 03 1E 00 00 00 00 00 00 00 00 00 02 00 00 00 00 00 00 00 00 00 00 00 00 00 00 00 00 00 00 00 00 4A 99
13:21:34.630 设备发送:05 03 05 B1 00 03 54 A4
13:21:37.624 设备接收:05 03 06 00 00 00 00 00 00 13 B5
13:21:37.646 设备发送:05 03 04 2B 00 01 F4 B6
13:21:40.665 设备接收:05 03 02 02 E6 C9 6E
13:21:40.685 设备发送:05 03 04 20 00 01 85 74
13:21:43.685 设备接收:05 03 02 00 3F 09 94
13:21:43.695 设备发送:05 03 04 05 00 01 94 BF
13:21:46.704 设备接收:05 03 02 00 00 49 84
13:21:46.716 设备发送:06 03 04 84 00 04 04 A7
13:21:49.705 设备接收:06 03 08 13 86 0D 00 FF E2 0D 00 BC DD
13:21:49.726 设备发送:06 03 04 8D 00 05 15 65
13:21:52.730 设备接收:06 03 0A 09 13 12 99 00 00 00 00 00 00 AF 32
13:21:52.749 设备发送:06 03 04 98 00 05 04 A1
13:21:55.753 设备接收:06 03 0A 09 1C 12 98 00 00 00 00 00 00 FE 02
13:21:55.765 设备发送:06 03 04 A3 00 05 75 6C
13:21:58.768 设备接收:06 03 0A 09 22 12 8F 00 00 00 00 00 00 81 62
13:21:58.791 设备发送:06 03 06 84 00 04 05 1F
13:22:01.794 设备接收:06 03 08 00 00 31 64 00 0D 61 AD 83 A4
13:22:01.814 设备发送:06 03 04 04 00 01 C5 4C
13:22:04.802 设备接收:06 03 02 00 02 8C 45
13:22:04.821 设备发送:06 03 05 84 00 0F 44 9C
13:22:07.845 设备接收:06 03 1E 1E 89 02 F2 02 4E 1F 4D 02 93 02 10 1F 0A 01 74 01 28 1F 73 01 72 01 2A 1E DA 01 7A 01 2A 9B 65
13:22:07.866 设备发送:06 03 05 93 00 0F F4 98
13:22:10.844 设备接收:06 03 1E 1E 7C 01 73 01 22 1F 04 01 82 01 32 1F 69 01 83 01 37 1D 72 01 78 01 1B 1E AF 01 80 01 2E 45 3C
13:22:10.905 设备发送:06 03 05 A2 00 0F A5 57
13:22:13.878 设备接收:06 03 1E 00 00 00 00 00 00 00 00 00 08 00 00 00 00 00 00 00 00 00 00 00 00 00 00 00 00 00 00 00 00 54 33
13:22:13.927 设备发送:06 03 05 B1 00 03 54 97
13:22:16.919 设备接收:06 03 06 00 00 00 00 00 00 07 45
13:22:16.939 设备发送:06 03 04 2B 00 01 F4 85
13:22:19.926 设备接收:06 03 02 02 E5 CD 6F
13:22:19.949 设备发送:06 03 04 20 00 01 85 47
13:22:22.959 设备接收:06 03 02 00 38 0C 56
13:22:22.980 设备发送:06 03 04 05 00 01 94 8C
13:22:25.978 设备接收:06 03 02 00 00 0D 84
13:22:25.998 设备发送:07 03 04 84 00 04 05 76
13:22:29.000 设备发送:07 03 04 8D 00 05 14 B4
13:22:29.011 设备接收:07 03 08 13 8A 0E 16 00 12 0E 16 8C C8
13:22:32.015 设备接收:07 03 0A 09 16 14 27 00 00 00 00 00 00 4C C2
13:22:32.035 设备发送:07 03 04 98 00 05 05 70
13:22:35.051 设备接收:07 03 0A 09 1B 14 26 00 00 00 00 00 00 04 92
13:22:35.069 设备发送:07 03 04 A3 00 05 74 BD
13:22:38.055 设备接收:07 03 0A 09 22 14 2D 00 00 00 00 00 00 80 03
13:22:38.075 设备发送:07 03 06 84 00 04 04 CE
13:22:41.069 设备接收:07 03 08 00 00 35 9C 00 0B AC 72 D2 01
13:22:41.090 设备发送:07 03 04 04 00 01 C4 9D
13:22:44.118 设备接收:07 03 02 00 02 B1 85
13:22:44.128 设备发送:07 03 05 84 00 0F 45 4D
13:22:47.116 设备接收:07 03 1E 1F 59 02 F9 02 62 1E EA 01 84 01 33 1E 8D 01 83 01 2F 1F 01 01 7F 01 30 20 28 01 70 01 2F A9 95
13:22:47.136 设备发送:07 03 05 93 00 0F F5 49
13:22:50.127 设备接收:07 03 1E 1F 14 01 85 01 35 1F AB 01 88 01 3E 1D 91 02 F8 02 3F 1B 7E 02 3F 01 94 1C 19 02 10 01 7B 3C C9
13:22:50.179 设备发送:07 03 05 A2 00 0F A4 86
13:22:53.169 设备接收:07 03 1E 00 00 00 00 00 00 00 00 00 05 00 00 00 00 00 00 00 00 00 00 00 00 00 00 00 00 00 00 00 00 E5 EE
13:22:53.179 设备发送:07 03 05 B1 00 03 55 46
13:22:56.191 设备接收:07 03 06 00 00 00 00 00 00 0A D5
13:22:56.212 设备发送:07 03 04 2B 00 01 F5 54
13:22:59.197 设备接收:07 03 02 02 EC 30 A9
13:22:59.218 设备发送:07 03 04 20 00 01 84 96
13:23:02.242 设备接收:07 03 02 00 39 F0 56
13:23:02.251 设备发送:07 03 04 05 00 01 95 5D
13:23:05.255 设备接收:07 03 02 00 00 30 44
13:23:05.266 设备发送:08 03 04 84 00 04 05 89
13:23:08.274 设备接收:08 03 08 13 87 0B 2B 00 0F 0B 2B 5F 0B
13:23:08.283 设备发送:08 03 04 8D 00 05 14 4B
13:23:11.318 设备发送:08 03 04 8D 00 05 14 4B
13:23:14.304 设备接收:08 03 0A 09 10 0F F9 00 00 00 00 00 00 0D DF
13:23:14.325 设备发送:08 03 04 98 00 05 05 8F
13:23:17.331 设备接收:08 03 0A 09 19 10 0E 00 00 00 00 00 00 A0 0C
13:23:17.351 设备发送:08 03 04 A3 00 05 74 42
13:23:20.353 设备接收:08 03 0A 09 1E 10 33 00 00 00 00 00 00 6A FF
13:23:20.367 设备发送:08 03 06 84 00 04 04 31
13:23:23.359 设备接收:08 03 08 00 00 2A 17 00 0D 08 70 5F 65
13:23:23.380 设备发送:08 03 04 04 00 01 C4 62
13:23:26.404 设备接收:08 03 02 00 02 E5 84
13:23:26.416 设备发送:08 03 05 84 00 0F 45 B2
13:23:29.427 设备接收:08 03 1E 21 5B 02 82 02 24 21 5E 02 65 02 0B 21 32 02 46 01 EE 05 1D 00 02 00 00 1F BE 02 72 01 FD E6 E1
13:23:29.448 设备发送:08 03 05 93 00 0F F5 B6
13:23:32.437 设备接收:08 03 1E 1F C1 02 56 01 E6 1F E6 02 47 01 DC 05 13 00 01 00 00 05 13 00 00 00 00 05 12 00 00 00 00 0D B6
13:23:32.448 设备发送:08 03 05 A2 00 0F A4 79
13:23:35.471 设备接收:08 03 1E 00 00 00 00 00 00 00 01 00 02 00 00 00 00 00 00 00 00 00 00 00 00 00 00 00 00 00 00 00 00 3A C7
13:23:35.494 设备发送:08 03 05 B1 00 03 55 B9
13:23:38.496 设备接收:08 03 06 00 00 00 00 00 00 4B 25
13:23:38.520 设备发送:08 03 04 2B 00 01 F5 AB
13:23:41.489 设备接收:08 03 02 02 E2 E5 6C
13:23:41.540 设备发送:08 03 04 20 00 01 84 69
13:23:44.523 设备接收:08 03 02 00 26 E5 9F
13:23:44.543 设备发送:08 03 04 05 00 01 95 A2
13:23:47.553 设备接收:08 03 02 00 00 64 45
13:23:47.562 设备发送:09 03 04 84 00 04 04 58
13:23:50.557 设备接收:09 03 08 13 85 0C AD FF E2 0C AD D3 ED
13:23:50.567 设备发送:09 03 04 8D 00 05 15 9A
13:23:53.587 设备接收:09 03 0A 09 19 12 37 00 00 00 00 00 00 8A 57
13:23:53.611 设备发送:09 03 04 98 00 05 04 5E
13:23:56.600 设备接收:09 03 0A 09 0D 12 31 00 00 00 00 00 00 13 57
13:23:56.621 设备发送:09 03 04 A3 00 05 75 93
13:23:59.644 设备发送:09 03 06 84 00 04 05 E0
13:23:59.653 设备接收:09 03 0A 09 25 12 3F 00 00 00 00 00 00 02 96
13:24:02.644 设备接收:09 03 08 00 00 2F C2 00 0E EF 45 2D F9
13:24:02.653 设备发送:09 03 04 04 00 01 C5 B3
13:24:05.683 设备接收:09 03 02 00 02 D8 44
13:24:05.703 设备发送:09 03 05 84 00 0F 44 63
13:24:08.704 设备接收:09 03 1E 1F 5F 02 6D 01 F2 1F 49 02 91 02 0E 1F 8E 02 5D 01 E8 1F 3E 01 2B 00 EF 1F EC 02 49 01 DE 78 55
13:24:08.725 设备发送:09 03 05 93 00 0F F4 67
13:24:11.720 设备接收:09 03 1E 1F EA 02 51 01 E4 1F C9 02 4D 01 E0 1F 19 01 2E 00 F0 05 87 00 04 00 00 05 88 00 00 00 00 74 C4
13:24:11.743 设备发送:09 03 05 A2 00 0F A5 A8
13:24:14.732 设备接收:09 03 1E 00 08 00 00 00 00 00 04 00 02 00 00 00 00 00 00 00 00 00 00 00 00 00 00 00 00 00 00 00 00 A8 66
13:24:14.753 设备发送:09 03 05 B1 00 03 54 68
13:24:17.753 设备接收:09 03 06 00 00 00 00 00 00 46 B5
13:24:17.763 设备发送:09 03 04 2B 00 01 F4 7A
13:24:20.793 设备接收:09 03 02 02 E3 19 6C
13:24:20.819 设备发送:09 03 04 20 00 01 85 B8
13:24:23.814 设备接收:09 03 02 00 30 59 91
13:24:23.836 设备发送:09 03 04 05 00 01 94 73
13:24:26.834 设备接收:09 03 02 00 00 59 85
13:24:26.845 设备发送:0A 03 04 84 00 04 04 6B
13:24:29.861 设备接收:0A 03 08 13 8A 0B F1 FF B9 0B F2 C1 C8
13:24:29.870 设备发送:0A 03 04 8D 00 05 15 A9
13:24:32.856 设备接收:0A 03 0A 09 12 11 27 00 00 00 00 00 00 AD 70
13:24:32.875 设备发送:0A 03 04 98 00 05 04 6D
13:24:35.890 设备接收:0A 03 0A 09 1A 11 22 00 00 00 00 00 00 9F B0
13:24:35.909 设备发送:0A 03 04 A3 00 05 75 A0
13:24:38.920 设备接收:0A 03 0A 09 23 11 35 00 00 00 00 00 00 C6 E0
13:24:38.933 设备发送:0A 03 06 84 00 04 05 D3
13:24:41.924 设备接收:0A 03 08 00 00 2D 71 00 0D C6 2B 48 F9
13:24:41.935 设备发送:0A 03 04 04 00 01 C5 80
13:24:44.955 设备接收:0A 03 02 00 02 9C 44
13:24:44.964 设备发送:0A 03 05 84 00 0F 44 50
13:24:47.951 设备接收:0A 03 1E 1F 4A 02 8C 02 0A 1F 9D 02 6E 01 F8 1F 9D 02 5A 01 E7 1F B6 02 61 01 EE 1F C3 02 83 02 0A 19 F1
13:24:47.971 设备发送:0A 03 05 93 00 0F F4 54
13:24:50.967 设备接收:0A 03 1E 1F A0 02 6C 01 F6 1F C2 01 32 00 F9 05 36 00 00 00 00 05 46 00 02 00 00 05 42 00 00 00 00 CC 75
13:24:50.988 设备发送:0A 03 05 A2 00 0F A5 9B
13:24:53.991 设备接收:0A 03 1E 00 0A 00 00 00 00 00 09 00 02 00 00 00 00 00 00 00 00 00 00 00 00 00 00 00 00 00 00 00 00 04 AC
13:24:54.011 设备发送:0A 03 05 B1 00 03 54 5B
13:24:57.026 设备接收:0A 03 06 00 00 00 00 00 00 52 45
13:24:57.036 设备发送:0A 03 04 2B 00 01 F4 49
13:25:00.041 设备接收:0A 03 02 02 E8 1C AB
13:25:00.061 设备发送:0A 03 04 20 00 01 85 8B
13:25:03.041 设备接收:0A 03 02 00 30 1D 91
13:25:03.063 设备发送:0A 03 04 05 00 01 94 40
13:25:06.075 设备接收:0A 03 02 00 00 1D 85
13:25:06.096 设备发送:0B 03 04 84 00 04 05 BA
13:25:09.095 设备接收:0B 03 08 13 8B 04 A0 FF CB 04 A2 8D 10
13:25:09.120 设备发送:0B 03 04 8D 00 05 14 78
13:25:12.138 设备接收:0B 03 0A 09 2D 06 8F 00 00 00 00 00 00 D3 20
13:25:12.158 设备发送:0B 03 04 98 00 05 05 BC
13:25:15.141 设备接收:0B 03 0A 09 2C 06 99 00 00 00 00 00 00 A9 71
13:25:15.162 设备发送:0B 03 04 A3 00 05 74 71
13:25:18.153 设备接收:0B 03 0A 09 2D 06 8B 00 00 00 00 00 00 96 E0
13:25:18.173 设备发送:0B 03 06 84 00 04 04 02
13:25:21.198 设备接收:0B 03 08 00 00 11 92 00 04 99 AE A4 BE
13:25:21.208 设备发送:0B 03 04 04 00 01 C4 51
13:25:24.208 设备接收:0B 03 02 00 02 A1 84
13:25:24.217 设备发送:0B 03 05 84 00 0F 45 81
13:25:27.207 设备接收:0B 03 1E 1F 81 02 51 01 DF 1D CA 01 79 01 20 1D C8 01 2F 00 E7 1D AE 01 46 00 F8 00 00 00 00 00 00 89 DB
13:25:27.266 设备发送:0B 03 05 93 00 0F F5 85
13:25:30.262 设备接收:0B 03 1E 00 00 00 00 00 00 00 00 00 00 00 00 00 00 00 00 00 00 00 00 00 00 00 00 00 00 00 00 00 00 60 B9
13:25:30.281 设备发送:0B 03 05 A2 00 0F A4 4A
13:25:33.273 设备接收:0B 03 1E 00 00 00 00 00 00 00 00 00 00 00 00 00 00 00 00 00 00 00 00 00 00 00 00 00 00 00 00 00 00 60 B9
13:25:33.285 设备发送:0B 03 05 B1 00 03 55 8A
13:25:36.288 设备接收:0B 03 06 00 00 00 00 00 00 5F D5
13:25:36.298 设备发送:0B 03 04 2B 00 01 F5 98
13:25:39.319 设备接收:0B 03 02 01 D8 21 8F
13:25:39.332 设备发送:0B 03 04 20 00 01 84 5A
13:25:42.323 设备接收:0B 03 02 00 15 E1 8A
13:25:42.341 设备发送:0B 03 04 05 00 01 95 91
13:25:45.359 设备接收:0B 03 02 00 00 20 45
13:25:45.380 设备发送:0C 03 04 84 00 04 04 0D
13:25:48.371 设备接收:0C 03 08 13 88 03 99 FF D5 03 9D 1B F0
13:25:48.392 设备发送:0C 03 04 8D 00 05 15 CF
13:25:51.393 设备接收:0C 03 0A 09 2B 05 22 00 00 00 00 00 00 CF 18
13:25:51.404 设备发送:0C 03 04 98 00 05 04 0B
13:25:54.432 设备接收:0C 03 0A 09 27 05 27 00 00 00 00 00 00 CF 18
13:25:54.452 设备发送:0C 03 04 A3 00 05 75 C6
13:25:57.443 设备接收:0C 03 0A 09 2E 05 21 00 00 00 00 00 00 C3 48
13:25:57.463 设备发送:0C 03 06 84 00 04 05 B5
13:26:00.468 设备接收:0C 03 08 00 00 0D D5 00 04 06 B7 A0 A3
13:26:00.489 设备发送:0C 03 04 04 00 01 C5 E6
13:26:03.487 设备接收:0C 03 02 00 02 14 44
13:26:03.506 设备发送:0C 03 05 84 00 0F 44 36
13:26:06.512 设备接收:0C 03 1E 1D 9B 02 5F 01 CC 1F B7 02 57 01 E6 03 6E 00 00 00 00 0D CD 00 00 00 00 00 00 00 00 00 00 32 7D
13:26:06.521 设备发送:0C 03 05 93 00 0F F4 32
13:26:09.523 设备接收:0C 03 1E 00 00 00 00 00 00 00 00 00 00 00 00 00 00 00 00 00 00 00 00 00 00 00 00 00 00 00 00 00 00 65 78
13:26:09.545 设备发送:0C 03 05 A2 00 0F A5 FD
13:26:12.551 设备接收:0C 03 1E 00 00 00 00 00 00 00 00 00 00 00 00 00 00 00 00 00 00 00 00 00 00 00 00 00 00 00 00 00 00 65 78
13:26:12.572 设备发送:0C 03 05 B1 00 03 54 3D
13:26:15.558 设备接收:0C 03 06 00 00 00 00 00 00 79 E5
13:26:15.580 设备发送:0C 03 04 2B 00 01 F4 2F
13:26:18.579 设备接收:0C 03 02 01 E0 95 9D
13:26:18.598 设备发送:0C 03 04 20 00 01 85 ED
13:26:21.625 设备接收:0C 03 02 00 1A 14 4E
13:26:21.636 设备发送:0C 03 04 05 00 01 94 26
13:26:24.633 设备接收:0C 03 02 00 00 95 85
13:26:24.653 设备发送:01 03 04 84 00 04 05 10
13:26:27.661 设备接收:01 03 08 13 89 07 C0 FF F0 07 C0 FF E7
13:26:27.671 设备发送:01 03 04 8D 00 05 14 D2
13:26:30.682 设备接收:01 03 0A 09 15 0B 23 00 00 00 00 00 00 55 78
13:26:30.702 设备发送:01 03 04 98 00 05 05 16
13:26:33.731 设备接收:01 03 0A 09 10 0B 25 00 00 00 00 00 00 0C 28
13:26:33.756 设备发送:01 03 04 A3 00 05 74 DB
13:26:36.739 设备接收:01 03 0A 09 17 0B 32 00 00 00 00 00 00 4D 19
13:26:36.754 设备发送:01 03 06 84 00 04 04 A8
13:26:39.759 设备接收:01 03 08 00 00 1E 48 00 04 53 09 CB 50
13:26:39.779 设备发送:01 03 04 04 00 01 C4 FB
13:26:42.761 设备接收:01 03 02 00 02 39 85
13:26:42.801 设备发送:01 03 05 84 00 0F 45 2B
13:26:45.789 设备接收:01 03 1E 03 8C 00 00 00 00 03 8D 00 00 00 00 1A A4 07 CA 05 50 03 86 00 01 00 00 03 80 00 00 00 00 A0 0C
13:26:45.800 设备发送:01 03 05 93 00 0F F5 2F
13:26:48.807 设备接收:01 03 1E 1D AA 03 D2 02 E7 03 76 00 00 00 00 03 80 00 00 00 00 03 7F 00 02 00 00 03 7F 00 00 00 00 6D 66
13:26:48.831 设备发送:01 03 05 A2 00 0F A4 E0
13:26:51.848 设备接收:01 03 1E 00 01 00 00 00 00 00 01 00 00 00 00 00 00 00 00 00 00 00 00 00 00 00 00 00 00 00 00 00 00 D5 27
13:26:51.858 设备发送:01 03 05 B1 00 03 55 20
13:26:54.836 设备接收:01 03 06 00 00 00 00 00 00 21 75
13:26:54.854 设备发送:01 03 04 2B 00 01 F5 32
13:26:57.859 设备接收:01 03 02 02 F3 F9 61
13:26:57.909 设备发送:01 03 04 20 00 01 84 F0
13:27:00.905 设备接收:01 03 02 00 2C B9 99
13:27:00.914 设备发送:01 03 04 05 00 01 95 3B
13:27:03.898 设备接收:01 03 02 00 00 B8 44
13:27:03.921 设备发送:02 03 04 84 00 04 05 23
13:27:06.920 设备接收:02 03 08 13 8A 15 D3 FF CE 15 D3 69 B3
13:27:06.940 设备发送:02 03 04 8D 00 05 14 E1
13:27:09.944 设备接收:02 03 0A 09 23 1F 20 00 00 00 00 00 00 1C E5
13:27:09.955 设备发送:02 03 04 98 00 05 05 25
13:27:12.983 设备接收:02 03 0A 09 1E 1F 1C 00 00 00 00 00 00 EC 77
13:27:13.000 设备发送:02 03 04 A3 00 05 74 E8
13:27:15.982 设备接收:02 03 0A 09 26 1F 17 00 00 00 00 00 00 65 76
13:27:16.003 设备发送:02 03 06 84 00 04 04 9B
13:27:18.999 设备接收:02 03 08 00 00 52 FA 00 0C A2 69 36 78
13:27:19.023 设备发送:02 03 04 04 00 01 C4 C8
13:27:22.012 设备接收:02 03 02 00 02 7D 85
13:27:22.030 设备发送:02 03 05 84 00 0F 45 18
13:27:25.061 设备接收:02 03 1E 1D 7A 07 8D 05 B3 1D E5 03 CE 02 EA 04 61 00 00 00 00 04 62 00 08 00 00 1D 4C 07 6A 05 8F 4B 5C
13:27:25.071 设备发送:02 03 05 93 00 0F F5 1C
13:27:28.055 设备接收:02 03 1E 1D 53 07 83 05 A3 1D 9D 03 C4 02 DB 04 61 00 00 00 00 04 62 00 00 00 00 04 5D 00 00 00 00 07 E3
13:27:28.075 设备发送:02 03 05 A2 00 0F A4 D3
13:27:31.101 设备接收:02 03 1E 00 00 00 00 00 00 00 00 00 05 00 00 00 00 00 00 00 00 00 00 00 00 00 00 00 00 00 00 00 00 39 EF
13:27:31.122 设备发送:02 03 05 B1 00 03 55 13
13:27:34.121 设备接收:02 03 06 00 00 00 00 00 00 35 85
13:27:34.131 设备发送:02 03 04 2B 00 01 F5 01
13:27:37.120 设备接收:02 03 02 02 ED 3D 69
13:27:37.140 设备发送:02 03 04 20 00 01 84 C3
13:27:40.145 设备接收:02 03 02 00 2E 7C 58
13:27:40.155 设备发送:02 03 04 05 00 01 95 08
13:27:43.163 设备接收:02 03 02 00 00 FC 44
13:27:43.184 设备发送:03 03 04 84 00 04 04 F2
13:27:46.194 设备接收:03 03 08 13 86 1C 91 FF 55 1C 93 AF 96
13:27:46.203 设备发送:03 03 04 8D 00 05 15 30
13:27:49.220 设备接收:03 03 0A 09 33 28 81 00 00 00 00 00 00 21 9C
13:27:49.241 设备发送:03 03 04 98 00 05 04 F4
13:27:52.225 设备接收:03 03 0A 09 2A 28 7B 00 00 00 00 00 00 DC 03
13:27:52.245 设备发送:03 03 04 A3 00 05 75 39
13:27:55.250 设备接收:03 03 0A 09 3A 28 6D 00 00 00 00 00 00 66 02
13:27:55.270 设备发送:03 03 06 84 00 04 05 4A
13:27:58.272 设备接收:03 03 08 00 00 76 36 00 10 A8 D4 23 67
13:27:58.291 设备发送:03 03 04 04 00 01 C5 19
13:28:01.281 设备接收:03 03 02 00 02 40 45
13:28:01.304 设备发送:03 03 05 84 00 0F 44 C9
13:28:04.310 设备接收:03 03 1E 1C 9C 07 6C 05 6F 1C 8C 07 6D 05 6D 1C 77 07 6C 05 68 1C 7E 07 78 05 72 1C 33 07 95 05 79 3C 46
13:28:04.330 设备发送:03 03 05 93 00 0F F4 CD
13:28:07.343 设备接收:03 03 1E 17 54 03 DE 02 4F 04 62 00 00 00 00 04 6A 00 00 00 00 04 5B 00 00 00 00 04 68 00 0B 00 01 B7 B7
13:28:07.355 设备发送:03 03 05 A2 00 0F A5 02
13:28:10.352 设备接收:03 03 1E 00 0E 00 01 00 00 00 07 00 03 00 00 00 00 00 00 00 00 00 00 00 00 00 00 00 00 00 00 00 00 2A D7
13:28:10.375 设备发送:03 03 05 B1 00 03 54 C2
13:28:13.403 设备接收:03 03 06 00 00 00 00 00 00 38 15
13:28:13.423 设备发送:03 03 04 2B 00 01 F4 D0
13:28:16.412 设备接收:03 03 02 02 E9 01 6A
13:28:16.435 设备发送:03 03 04 20 00 01 85 12
13:28:19.418 设备接收:03 03 02 00 19 00 4E
13:28:19.439 设备发送:03 03 04 05 00 01 94 D9
13:28:22.420 设备接收:03 03 02 00 00 C1 84
13:28:22.471 设备发送:04 03 04 84 00 04 05 45
13:28:25.474 设备接收:04 03 08 13 8B 0D A8 00 11 0D A8 CB E4
13:28:25.496 设备发送:04 03 04 8D 00 05 14 87
13:28:28.482 设备接收:04 03 0A 09 10 13 A6 00 00 00 00 00 00 B2 4F
13:28:28.502 设备发送:04 03 04 98 00 05 05 43
13:28:31.516 设备接收:04 03 0A 09 1A 13 8E 00 00 00 00 00 00 64 ED
13:28:31.536 设备发送:04 03 04 A3 00 05 74 8E
13:28:34.522 设备接收:04 03 0A 09 1E 13 BE 00 00 00 00 00 00 66 2E
13:28:34.543 设备发送:04 03 06 84 00 04 04 FD
13:28:37.537 设备接收:04 03 08 00 00 36 DD 00 0A 15 77 03 2A
13:28:37.559 设备发送:04 03 04 04 00 01 C4 AE
13:28:40.580 设备接收:04 03 02 00 02 F5 85
13:28:40.600 设备发送:04 03 05 84 00 0F 45 7E
13:28:43.579 设备接收:04 03 1E 20 EA 02 EF 02 79 20 7B 01 91 01 4E 20 A5 01 7F 01 40 1E B2 02 BE 02 27 1F 02 02 F3 02 57 F7 D7
13:28:43.599 设备发送:04 03 05 93 00 0F F5 7A
13:28:46.620 设备接收:04 03 1E 1E F1 03 12 02 6F 1F 45 01 7E 01 32 1F C4 01 8F 01 45 05 87 00 00 00 00 05 8E 00 0B 00 01 5C 3C
13:28:46.640 设备发送:04 03 05 A2 00 0F A4 B5
13:28:49.644 设备接收:04 03 1E 00 00 00 00 00 00 00 07 00 03 00 00 00 00 00 00 00 00 00 00 00 00 00 00 00 00 00 00 00 00 51 9E
13:28:49.663 设备发送:04 03 05 B1 00 03 55 75
13:28:52.650 设备接收:04 03 06 00 00 00 00 00 00 1E 25
13:28:52.662 设备发送:04 03 04 2B 00 01 F5 67
13:28:55.675 设备接收:04 03 02 02 DC 74 BD
13:28:55.686 设备发送:04 03 04 20 00 01 84 A5
13:28:58.708 设备接收:04 03 02 00 28 74 5A
13:28:58.718 设备发送:04 03 04 05 00 01 95 6E
13:29:01.715 设备接收:04 03 02 00 00 74 44
13:29:01.736 设备发送:05 03 04 84 00 04 04 94
13:29:04.722 设备接收:05 03 08 13 87 0E 22 FF DF 0E 23 8B 88
13:29:04.745 设备发送:05 03 04 8D 00 05 15 56
13:29:07.758 设备接收:05 03 0A 09 17 14 48 00 00 00 00 00 00 D9 16
13:29:07.770 设备发送:05 03 04 98 00 05 04 92
13:29:10.767 设备接收:05 03 0A 09 0E 14 51 00 00 00 00 00 00 F6 47
13:29:10.778 设备发送:05 03 04 A3 00 05 75 5F
13:29:13.802 设备接收:05 03 0A 09 23 14 42 00 00 00 00 00 00 15 D7
13:29:13.824 设备发送:05 03 06 84 00 04 05 2C
13:29:16.817 设备接收:05 03 08 00 00 38 52 00 0E 7A FB 3E B3
13:29:16.826 设备发送:05 03 04 04 00 01 C5 7F
13:29:19.810 设备接收:05 03 02 00 02 C8 45
13:29:19.862 设备发送:05 03 05 84 00 0F 44 AF
13:29:22.839 设备接收:05 03 1E 1F 5C 02 D4 02 45 1E F0 02 ED 02 51 1E CB 01 7E 01 2D 1F 1B 02 F8 02 5D 1F 04 01 75 01 28 B1 22
13:29:22.859 设备发送:05 03 05 93 00 0F F4 AB
13:29:25.870 设备接收:05 03 1E 1E 9D 01 8A 01 35 1F 0A 01 77 01 2A 1B 57 01 8F 01 17 1F 43 01 74 01 2A 1F 07 01 83 01 33 F3 AF
13:29:25.881 设备发送:05 03 05 A2 00 0F A5 64
13:29:28.893 设备接收:05 03 1E 00 00 00 00 00 00 00 00 00 02 00 00 00 00 00 00 00 00 00 00 00 00 00 00 00 00 00 00 00 00 4A 99
13:29:28.902 设备发送:05 03 05 B1 00 03 54 A4
13:29:31.907 设备接收:05 03 06 00 00 00 00 00 00 13 B5
13:29:31.928 设备发送:05 03 04 2B 00 01 F4 B6
13:29:34.939 设备接收:05 03 02 02 E6 C9 6E
13:29:34.949 设备发送:05 03 04 20 00 01 85 74
13:29:37.948 设备接收:05 03 02 00 3C 49 95
13:29:37.958 设备发送:05 03 04 05 00 01 94 BF
13:29:40.955 设备接收:05 03 02 00 00 49 84
13:29:41.006 设备发送:06 03 04 84 00 04 04 A7
13:29:43.995 设备接收:06 03 08 13 85 0C BA FF B3 0C BB 47 E5
13:29:44.006 设备发送:06 03 04 8D 00 05 15 65
13:29:47.007 设备接收:06 03 0A 09 12 12 39 00 00 00 00 00 00 02 A8
13:29:47.015 设备发送:06 03 04 98 00 05 04 A1
13:29:50.036 设备接收:06 03 0A 09 1C 12 30 00 00 00 00 00 00 D7 C8
13:29:50.055 设备发送:06 03 04 A3 00 05 75 6C
13:29:53.040 设备接收:06 03 0A 09 21 12 34 00 00 00 00 00 00 9E 99
13:29:53.070 设备发送:06 03 06 84 00 04 05 1F
13:29:56.078 设备接收:06 03 08 00 00 33 16 00 0D 61 D8 7B AA
13:29:56.099 设备发送:06 03 04 04 00 01 C5 4C
13:29:59.077 设备接收:06 03 02 00 02 8C 45
13:29:59.098 设备发送:06 03 05 84 00 0F 44 9C
13:30:02.115 设备接收:06 03 1E 1E 61 02 E8 02 43 1F 27 02 8B 02 07 1E BC 01 6E 01 20 1E D0 01 71 01 23 1E DB 01 75 01 26 46 39
13:30:02.136 设备发送:06 03 05 93 00 0F F4 98
13:30:05.130 设备发送:06 03 05 A2 00 0F A5 57
13:30:05.151 设备接收:06 03 1E 1E D4 01 64 01 19 1E 60 01 85 01 2F 1F 18 01 82 01 34 1D 70 01 6B 01 12 1E AD 01 76 01 25 90 57
13:30:08.160 设备接收:06 03 1E 00 00 00 00 00 00 00 00 00 07 00 00 00 00 00 00 00 00 00 00 00 00 00 00 00 00 00 00 00 00 AB CC
13:30:08.181 设备发送:06 03 05 B1 00 03 54 97
13:30:11.164 设备接收:06 03 06 00 00 00 00 00 00 07 45
13:30:11.182 设备发送:06 03 04 2B 00 01 F4 85
13:30:14.205 设备接收:06 03 02 02 E5 CD 6F
13:30:14.225 设备发送:06 03 04 20 00 01 85 47
13:30:17.207 设备接收:06 03 02 00 41 CD B4
13:30:17.229 设备发送:06 03 04 05 00 01 94 8C
13:30:20.224 设备接收:06 03 02 00 00 0D 84
13:30:20.247 设备发送:07 03 04 84 00 04 05 76
13:30:23.231 设备接收:07 03 08 13 88 0D BF FF AC 0D C0 22 7D
13:30:23.286 设备发送:07 03 04 8D 00 05 14 B4
13:30:26.256 设备接收:07 03 0A 09 15 13 AB 00 00 00 00 00 00 54 1C
13:30:26.310 设备发送:07 03 04 98 00 05 05 70
13:30:29.303 设备接收:07 03 0A 09 1C 13 A6 00 00 00 00 00 00 E2 8C
13:30:29.318 设备发送:07 03 04 A3 00 05 74 BD
13:30:32.318 设备发送:07 03 06 84 00 04 04 CE
13:30:32.338 设备接收:07 03 0A 09 1B 13 B4 00 00 00 00 00 00 F6 BD
13:30:35.351 设备接收:07 03 08 00 00 37 71 00 0B AC A1 3E 69
13:30:35.365 设备发送:07 03 04 04 00 01 C4 9D
13:30:38.338 设备接收:07 03 02 00 02 B1 85
13:30:38.388 设备发送:07 03 05 84 00 0F 45 4D
13:30:41.397 设备接收:07 03 1E 1F 8A 02 E3 02 54 1F 3A 01 7A 01 2E 1E D8 01 79 01 29 1F 0E 01 77 01 2A 1F D8 01 69 01 26 DF B6
13:30:41.408 设备发送:07 03 05 93 00 0F F5 49
13:30:44.406 设备接收:07 03 1E 1F 10 01 7B 01 2D 1F 55 01 83 01 37 1D 91 02 E6 02 31 1B 2D 02 38 01 8B 1C 6A 01 F6 01 6D B6 76
13:30:44.426 设备发送:07 03 05 A2 00 0F A4 86
13:30:47.428 设备接收:07 03 1E 00 00 00 00 00 00 00 00 00 05 00 00 00 00 00 00 00 00 00 00 00 00 00 00 00 00 00 00 00 00 E5 EE
13:30:47.458 设备发送:07 03 05 B1 00 03 55 46
13:30:50.439 设备接收:07 03 06 00 00 00 00 00 00 0A D5
13:30:50.462 设备发送:07 03 04 2B 00 01 F5 54
13:30:53.468 设备接收:07 03 02 02 EC 30 A9
13:30:53.490 设备发送:07 03 04 20 00 01 84 96
13:30:56.485 设备接收:07 03 02 00 40 31 B4
13:30:56.496 设备发送:07 03 04 05 00 01 95 5D
13:30:59.512 设备接收:07 03 02 00 00 30 44
13:30:59.531 设备发送:08 03 04 84 00 04 05 89
13:31:02.530 设备接收:08 03 08 13 88 0A D2 00 11 0A D2 9C 1A
13:31:02.550 设备发送:08 03 04 8D 00 05 14 4B
13:31:05.556 设备接收:08 03 0A 09 14 0F 9A 00 00 00 00 00 00 6C 19
13:31:05.577 设备发送:08 03 04 98 00 05 05 8F
13:31:08.553 设备接收:08 03 0A 09 18 0F B3 00 00 00 00 00 00 81 DB
13:31:08.573 设备发送:08 03 04 A3 00 05 74 42
13:31:11.589 设备接收:08 03 0A 09 18 0F D1 00 00 00 00 00 00 C2 1D
13:31:11.611 设备发送:08 03 06 84 00 04 04 31
13:31:14.587 设备接收:08 03 08 00 00 2B 88 00 0D 08 95 0B 23
13:31:14.607 设备发送:08 03 04 04 00 01 C4 62
13:31:17.608 设备接收:08 03 02 00 02 E5 84
13:31:17.668 设备发送:08 03 05 84 00 0F 45 B2
13:31:20.639 设备接收:08 03 1E 21 22 02 76 02 17 21 64 02 56 01 FF 21 66 02 32 01 E0 05 17 00 01 00 00 1F E6 02 5B 01 ED 6A F1
13:31:20.659 设备发送:08 03 05 93 00 0F F5 B6
13:31:23.668 设备接收:08 03 1E 1F C1 02 47 01 DA 1F BF 02 3B 01 D0 05 0F 00 00 00 00 05 0E 00 02 00 00 05 10 00 02 00 00 5D 6E
13:31:23.690 设备发送:08 03 05 A2 00 0F A4 79
13:31:26.695 设备接收:08 03 1E 00 00 00 00 00 00 00 01 00 03 00 00 00 00 00 00 00 00 00 00 00 00 00 00 00 00 00 00 00 00 2A 16
13:31:26.717 设备发送:08 03 05 B1 00 03 55 B9
13:31:29.733 设备接收:08 03 06 00 00 00 00 00 00 4B 25
13:31:29.743 设备发送:08 03 04 2B 00 01 F5 AB
13:31:32.739 设备接收:08 03 02 02 E2 E5 6C
13:31:32.750 设备发送:08 03 04 20 00 01 84 69
13:31:35.740 设备接收:08 03 02 00 34 65 92
13:31:35.761 设备发送:08 03 04 05 00 01 95 A2
13:31:38.789 设备接收:08 03 02 00 00 64 45
13:31:38.811 设备发送:09 03 04 84 00 04 04 58
13:31:41.814 设备接收:09 03 08 13 85 0C 59 FF B6 0C 5A 62 6E
13:31:41.835 设备发送:09 03 04 8D 00 05 15 9A
13:31:44.836 设备接收:09 03 0A 09 18 11 B7 00 00 00 00 00 00 46 1A
13:31:44.847 设备发送:09 03 04 98 00 05 04 5E
13:31:47.857 设备接收:09 03 0A 09 0E 11 B0 00 00 00 00 00 00 D6 BA
13:31:47.878 设备发送:09 03 04 A3 00 05 75 93
13:31:50.873 设备接收:09 03 0A 09 22 11 C4 00 00 00 00 00 00 2E 7C
13:31:50.894 设备发送:09 03 06 84 00 04 05 E0
13:31:53.892 设备接收:09 03 08 00 00 31 63 00 0E EF 6F 12 41
13:31:53.911 设备发送:09 03 04 04 00 01 C5 B3
13:31:56.894 设备接收:09 03 02 00 02 D8 44
13:31:56.946 设备发送:09 03 05 84 00 0F 44 63
13:31:59.921 设备接收:09 03 1E 1F 0E 02 65 01 E7 1F 4A 02 7F 02 00 1F 3C 02 53 01 DC 1F E3 01 1D 00 E9 1F 49 02 45 01 D2 26 4C
13:31:59.939 设备发送:09 03 05 93 00 0F F4 67
13:32:02.943 设备接收:09 03 1E 1F C2 02 41 01 D5 1F F2 02 3C 01 D4 1F B9 01 20 00 EA 05 82 00 02 00 00 05 84 00 01 00 00 3B CE
13:32:02.971 设备发送:09 03 05 A2 00 0F A5 A8
13:32:05.970 设备接收:09 03 1E 00 07 00 00 00 00 00 04 00 02 00 00 00 00 00 00 00 00 00 00 00 00 00 00 00 00 00 00 00 00 E8 6D
13:32:05.991 设备发送:09 03 05 B1 00 03 54 68
13:32:09.007 设备接收:09 03 06 00 00 00 00 00 00 46 B5
13:32:09.029 设备发送:09 03 04 2B 00 01 F4 7A
13:32:12.026 设备接收:09 03 02 02 E3 19 6C
13:32:12.048 设备发送:09 03 04 20 00 01 85 B8
13:32:15.030 设备接收:09 03 02 00 22 D9 9C
13:32:15.052 设备发送:09 03 04 05 00 01 94 73
13:32:18.086 设备接收:09 03 02 00 00 59 85
13:32:18.105 设备发送:0A 03 04 84 00 04 04 6B
13:32:21.100 设备接收:0A 03 08 13 89 0B 9D FF E6 0B 9D 12 FF
13:32:21.120 设备发送:0A 03 04 8D 00 05 15 A9
13:32:24.131 设备接收:0A 03 0A 09 16 10 AD 00 00 00 00 00 00 75 B4
13:32:24.151 设备发送:0A 03 04 98 00 05 04 6D
13:32:27.128 设备接收:0A 03 0A 09 17 10 B1 00 00 00 00 00 00 A5 E5
13:32:27.150 设备发送:0A 03 04 A3 00 05 75 A0
13:32:30.153 设备接收:0A 03 0A 09 1F 10 C4 00 00 00 00 00 00 E6 E2
13:32:30.163 设备发送:0A 03 06 84 00 04 05 D3
13:32:33.183 设备接收:0A 03 08 00 00 2E FC 00 0D C6 52 A5 37
13:32:33.204 设备发送:0A 03 04 04 00 01 C5 80
13:32:36.202 设备接收:0A 03 02 00 02 9C 44
13:32:36.222 设备发送:0A 03 05 84 00 0F 44 50
13:32:39.212 设备接收:0A 03 1E 1F 4D 02 7D 01 FE 1F 75 02 60 01 EA 1F C8 02 45 01 D9 1F 67 02 55 01 E0 1F C5 02 72 01 FD 95 11
13:32:39.236 设备发送:0A 03 05 93 00 0F F4 54
13:32:42.256 设备接收:0A 03 1E 1F 7C 02 65 01 EE 1F 73 01 28 00 EE 05 35 00 00 00 00 05 44 00 05 00 00 05 44 00 00 00 00 5D E1
13:32:42.277 设备发送:0A 03 05 A2 00 0F A5 9B
13:32:45.261 设备接收:0A 03 1E 00 0B 00 00 00 00 00 09 00 03 00 00 00 00 00 00 00 00 00 00 00 00 00 00 00 00 00 00 00 00 D4 7C
13:32:45.279 设备发送:0A 03 05 B1 00 03 54 5B
13:32:48.292 设备接收:0A 03 06 00 00 00 00 00 00 52 45
13:32:48.313 设备发送:0A 03 04 2B 00 01 F4 49
13:32:51.299 设备接收:0A 03 02 02 E8 1C AB
13:32:51.311 设备发送:0A 03 04 20 00 01 85 8B
13:32:54.337 设备接收:0A 03 02 00 20 1C 5D
13:32:54.358 设备发送:0A 03 04 05 00 01 94 40
13:32:57.360 设备接收:0A 03 02 00 00 1D 85
13:32:57.380 设备发送:0B 03 04 84 00 04 05 BA
13:33:00.357 设备接收:0B 03 08 13 8A 04 84 FF CB 04 85 AD CD
13:33:00.379 设备发送:0B 03 04 8D 00 05 14 78
13:33:03.387 设备接收:0B 03 0A 09 28 06 6A 00 00 00 00 00 00 58 BE
13:33:03.407 设备发送:0B 03 04 98 00 05 05 BC
13:33:06.406 设备接收:0B 03 0A 09 21 06 77 00 00 00 00 00 00 FF EF
13:33:06.416 设备发送:0B 03 04 A3 00 05 74 71
13:33:09.443 设备接收:0B 03 0A 09 28 06 60 00 00 00 00 00 00 F2 BE
13:33:09.458 设备发送:0B 03 06 84 00 04 04 02
13:33:12.465 设备接收:0B 03 08 00 00 12 2B 00 04 99 BD 78 9B
13:33:12.474 设备发送:0B 03 04 04 00 01 C4 51
13:33:15.479 设备接收:0B 03 02 00 02 A1 84
13:33:15.490 设备发送:0B 03 05 84 00 0F 45 81
13:33:18.497 设备接收:0B 03 1E 1F 30 02 43 01 CE 1D CA 01 6C 01 16 1D CB 01 2C 00 E5 1D AE 01 3B 00 EF 00 00 00 00 00 00 26 30
13:33:18.506 设备发送:0B 03 05 93 00 0F F5 85
13:33:21.521 设备接收:0B 03 1E 00 00 00 00 00 00 00 00 00 00 00 00 00 00 00 00 00 00 00 00 00 00 00 00 00 00 00 00 00 00 60 B9
13:33:21.541 设备发送:0B 03 05 A2 00 0F A4 4A
13:33:24.536 设备接收:0B 03 1E 00 00 00 00 00 00 00 00 00 00 00 00 00 00 00 00 00 00 00 00 00 00 00 00 00 00 00 00 00 00 60 B9
13:33:24.556 设备发送:0B 03 05 B1 00 03 55 8A
13:33:27.562 设备接收:0B 03 06 00 00 00 00 00 00 5F D5
13:33:27.581 设备发送:0B 03 04 2B 00 01 F5 98
13:33:30.570 设备接收:0B 03 02 01 D8 21 8F
13:33:30.579 设备发送:0B 03 04 20 00 01 84 5A
13:33:33.599 设备接收:0B 03 02 00 15 E1 8A
13:33:33.622 设备发送:0B 03 04 05 00 01 95 91
13:33:36.634 设备接收:0B 03 02 00 00 20 45
13:33:36.655 设备发送:0C 03 04 84 00 04 04 0D
13:33:39.645 设备接收:0C 03 08 13 88 03 82 FF D5 03 87 FE 39
13:33:39.664 设备发送:0C 03 04 8D 00 05 15 CF
13:33:42.658 设备发送:0C 03 04 98 00 05 04 0B
13:33:42.677 设备接收:0C 03 0A 09 26 04 FC 00 00 00 00 00 00 68 49
13:33:45.666 设备接收:0C 03 0A 09 22 05 08 00 00 00 00 00 00 2E 8A
13:33:45.710 设备发送:0C 03 04 A3 00 05 75 C6
13:33:48.706 设备接收:0C 03 0A 09 27 05 00 00 00 00 00 00 00 98 1A
13:33:48.726 设备发送:0C 03 06 84 00 04 05 B5
13:33:51.712 设备接收:0C 03 08 00 00 0E 4C 00 04 06 C2 7D 6B
13:33:51.725 设备发送:0C 03 04 04 00 01 C5 E6
13:33:54.756 设备接收:0C 03 02 00 02 14 44
13:33:54.778 设备发送:0C 03 05 84 00 0F 44 36
13:33:57.757 设备接收:0C 03 1E 1D C4 02 50 01 C3 1F 68 02 53 01 DF 06 55 00 00 00 00 0D CE 00 00 00 00 00 00 00 00 00 00 4B 65
13:33:57.776 设备发送:0C 03 05 93 00 0F F4 32
13:34:00.790 设备接收:0C 03 1E 00 00 00 00 00 00 00 00 00 00 00 00 00 00 00 00 00 00 00 00 00 00 00 00 00 00 00 00 00 00 65 78
13:34:00.802 设备发送:0C 03 05 A2 00 0F A5 FD
13:34:03.828 设备接收:0C 03 1E 00 00 00 00 00 00 00 00 00 00 00 00 00 00 00 00 00 00 00 00 00 00 00 00 00 00 00 00 00 00 65 78
13:34:03.847 设备发送:0C 03 05 B1 00 03 54 3D
13:34:06.827 设备接收:0C 03 06 00 00 00 00 00 00 79 E5
13:34:06.842 设备发送:0C 03 04 2B 00 01 F4 2F
13:34:09.852 设备接收:0C 03 02 01 E0 95 9D
13:34:09.873 设备发送:0C 03 04 20 00 01 85 ED
13:34:12.895 设备接收:0C 03 02 00 19 54 4F
13:34:12.906 设备发送:0C 03 04 05 00 01 94 26
13:34:15.913 设备接收:0C 03 02 00 00 95 85
13:34:15.933 设备发送:01 03 04 84 00 04 05 10
13:34:18.907 设备接收:01 03 08 13 88 07 9F FF D3 07 9F CA D8
13:34:18.929 设备发送:01 03 04 8D 00 05 14 D2
13:34:21.944 设备接收:01 03 0A 09 12 0A FB 00 00 00 00 00 00 EA 89
13:34:21.968 设备发送:01 03 04 98 00 05 05 16
13:34:24.946 设备接收:01 03 0A 09 11 0B 08 00 00 00 00 00 00 FC BA
13:34:24.965 设备发送:01 03 04 A3 00 05 74 DB
13:34:27.983 设备接收:01 03 0A 09 16 0B 11 00 00 00 00 00 00 52 4B
13:34:27.991 设备发送:01 03 06 84 00 04 04 A8
13:34:30.982 设备接收:01 03 08 00 00 1F 4A 00 04 53 23 32 9E
13:34:31.002 设备发送:01 03 04 04 00 01 C4 FB
13:34:34.008 设备接收:01 03 02 00 02 39 85
13:34:34.028 设备发送:01 03 05 84 00 0F 45 2B
13:34:37.017 设备接收:01 03 1E 03 88 00 00 00 00 03 89 00 00 00 00 1A 80 07 B7 05 3C 03 84 00 00 00 00 03 7D 00 00 00 00 8F 42
13:34:37.039 设备发送:01 03 05 93 00 0F F5 2F
13:34:40.050 设备接收:01 03 1E 1D A9 03 C1 02 DA 03 73 00 00 00 00 03 7C 00 00 00 00 03 7D 00 00 00 00 03 7F 00 00 00 00 EA E2
13:34:40.071 设备发送:01 03 05 A2 00 0F A4 E0
13:34:43.063 设备接收:01 03 1E 00 01 00 00 00 00 00 00 00 00 00 00 00 00 00 00 00 00 00 00 00 00 00 00 00 00 00 00 00 00 18 BB
13:34:43.085 设备发送:01 03 05 B1 00 03 55 20
13:34:46.101 设备接收:01 03 06 00 00 00 00 00 00 21 75
13:34:46.112 设备发送:01 03 04 2B 00 01 F5 32
13:34:49.100 设备接收:01 03 02 02 F3 F9 61
13:34:49.152 设备发送:01 03 04 20 00 01 84 F0
13:34:52.120 设备接收:01 03 02 00 22 38 5D
13:34:52.171 设备发送:01 03 04 05 00 01 95 3B
13:34:55.148 设备接收:01 03 02 00 00 B8 44
13:34:55.151 设备发送:02 03 04 84 00 04 05 23
13:34:58.180 设备接收:02 03 08 13 85 15 7F FF D1 15 7F 37 10
13:34:58.200 设备发送:02 03 04 8D 00 05 14 E1
13:35:01.179 设备接收:02 03 0A 09 20 1E C8 00 00 00 00 00 00 A1 D7
13:35:01.231 设备发送:02 03 04 98 00 05 05 25
13:35:04.197 设备接收:02 03 0A 09 18 1E AC 00 00 00 00 00 00 B7 D0
13:35:04.221 设备发送:02 03 04 A3 00 05 74 E8
13:35:07.238 设备接收:02 03 0A 09 25 1E A2 00 00 00 00 00 00 54 81
13:35:07.248 设备发送:02 03 06 84 00 04 04 9B
13:35:10.251 设备接收:02 03 08 00 00 55 D1 00 0C A2 B1 13 93
13:35:10.273 设备发送:02 03 04 04 00 01 C4 C8
13:35:13.284 设备接收:02 03 02 00 02 7D 85
13:35:13.313 设备发送:02 03 05 84 00 0F 45 18
13:35:16.294 设备接收:02 03 1E 1D 56 07 7B 05 9E 1D 97 03 C8 02 DE 04 5F 00 00 00 00 04 61 00 07 00 00 1D 76 07 46 05 7C 0C F3
13:35:16.319 设备发送:02 03 05 93 00 0F F5 1C
13:35:19.324 设备接收:02 03 1E 1D A3 07 4E 05 8B 1D C6 03 AA 02 CB 04 5E 00 00 00 00 04 60 00 00 00 00 04 5E 00 00 00 00 1D 1A
13:35:19.344 设备发送:02 03 05 A2 00 0F A4 D3
13:35:22.326 设备接收:02 03 1E 00 00 00 00 00 00 00 00 00 05 00 00 00 00 00 00 00 00 00 00 00 00 00 00 00 00 00 00 00 00 39 EF
13:35:22.347 设备发送:02 03 05 B1 00 03 55 13
13:35:25.352 设备接收:02 03 06 00 00 00 00 00 00 35 85
13:35:25.364 设备发送:02 03 04 2B 00 01 F5 01
13:35:28.386 设备接收:02 03 02 02 ED 3D 69
13:35:28.407 设备发送:02 03 04 20 00 01 84 C3
13:35:31.388 设备接收:02 03 02 00 2C FD 99
13:35:31.400 设备发送:02 03 04 05 00 01 95 08
13:35:34.434 设备接收:02 03 02 00 00 FC 44
13:35:34.444 设备发送:03 03 04 84 00 04 04 F2
13:35:37.442 设备接收:03 03 08 13 88 1C 12 FF C7 1C 13 A5 C5
13:35:37.463 设备发送:03 03 04 8D 00 05 15 30
13:35:40.464 设备接收:03 03 0A 09 2F 27 CB 00 00 00 00 00 00 12 D8
13:35:40.487 设备发送:03 03 04 98 00 05 04 F4
13:35:43.467 设备接收:03 03 0A 09 25 27 C0 00 00 00 00 00 00 D6 B8
13:35:43.488 设备发送:03 03 04 A3 00 05 75 39
13:35:46.511 设备接收:03 03 0A 09 3A 27 C6 00 00 00 00 00 00 3C 88
13:35:46.532 设备发送:03 03 06 84 00 04 05 4A
13:35:49.525 设备接收:03 03 08 00 00 79 EB 00 10 A9 33 8E 51
13:35:49.535 设备发送:03 03 04 04 00 01 C5 19
13:35:52.530 设备接收:03 03 02 00 02 40 45
13:35:52.541 设备发送:03 03 05 84 00 0F 44 C9
13:35:55.554 设备接收:03 03 1E 1C 78 07 54 05 57 1C 8C 07 4D 05 56 1C 9D 07 45 05 53 1C 33 07 6B 05 5B 1C 5C 07 6A 05 62 2F 64
13:35:55.575 设备发送:03 03 05 93 00 0F F4 CD
13:35:58.579 设备接收:03 03 1E 17 54 03 CF 02 46 04 61 00 00 00 00 04 68 00 00 00 00 04 5A 00 00 00 00 04 64 00 0A 00 01 F9 91
13:35:58.601 设备发送:03 03 05 A2 00 0F A5 02
13:36:01.609 设备接收:03 03 1E 00 0D 00 00 00 00 00 06 00 03 00 00 00 00 00 00 00 00 00 00 00 00 00 00 00 00 00 00 00 00 59 CB
13:36:01.619 设备发送:03 03 05 B1 00 03 54 C2
13:36:04.623 设备接收:03 03 06 00 00 00 00 00 00 38 15
13:36:04.646 设备发送:03 03 04 2B 00 01 F4 D0
13:36:07.635 设备接收:03 03 02 02 E9 01 6A
13:36:07.657 设备发送:03 03 04 20 00 01 85 12
13:36:10.642 设备接收:03 03 02 00 19 00 4E
13:36:10.654 设备发送:03 03 04 05 00 01 94 D9
13:36:13.656 设备接收:03 03 02 00 00 C1 84
13:36:13.677 设备发送:04 03 04 84 00 04 05 45
13:36:14.38800

