
13:44:09.79700
13:44:09.80300
13:44:09.80500
13:44:09.80700
13:44:09.80900
13:44:09.81200
13:44:09.81500
13:44:09.81900
13:44:09.82100
13:44:09.82600
13:44:10.211 设备发送:05 03 04 04 00 01 C5 7F
13:44:11.023 设备发送:05 03 04 04 00 01 C5 7F
13:44:11.856 设备发送:0C 03 04 84 00 04 04 0D
13:44:12.683 设备发送:0C 03 04 84 00 04 04 0D
13:44:13.510 设备接收:0C 03 08 13 86 01 93 FF DC 01 A0 7D 60
13:44:13.593 设备发送:0C 03 06 84 00 04 05 B5
13:44:14.297 设备接收:0C 03 08 00 00 09 FB 00 03 DD FE 63 E6
13:44:14.313 设备发送:0C 03 04 04 00 01 C5 E6
13:44:15.126 设备接收:0C 03 02 00 02 14 44
13:44:15.142 设备发送:05 03 04 84 00 04 04 94
13:44:15.969 设备发送:05 03 04 84 00 04 04 94
13:44:16.782 设备发送:05 03 04 84 00 04 04 94
13:44:17.595 设备发送:05 03 06 84 00 04 05 2C
13:44:18.422 设备发送:05 03 06 84 00 04 05 2C
13:44:19.232 设备发送:05 03 06 84 00 04 05 2C
13:44:20.060 设备发送:05 03 04 04 00 01 C5 7F
13:44:20.891 设备发送:05 03 04 04 00 01 C5 7F
13:44:21.704 设备发送:05 03 04 04 00 01 C5 7F
13:44:22.518 设备发送:0C 03 04 84 00 04 04 0D
13:44:23.333 设备发送:0C 03 04 84 00 04 04 0D
13:44:24.145 设备接收:0C 03 08 13 86 01 91 FF CC 01 A1 C4 A5
13:44:24.177 设备发送:0C 03 06 84 00 04 05 B5
13:44:24.988 设备接收:0C 03 08 00 00 09 FC 00 03 DD FF 17 E6
13:44:25.003 设备发送:0C 03 04 04 00 01 C5 E6
13:44:25.765 设备接收:0C 03 02 00 02 14 44
13:44:25.780 设备发送:05 03 04 84 00 04 04 94
13:44:26.622 设备发送:05 03 04 84 00 04 04 94
13:44:27.433 设备发送:05 03 04 84 00 04 04 94
13:44:28.263 设备发送:05 03 06 84 00 04 05 2C
13:44:29.074 设备发送:05 03 06 84 00 04 05 2C
13:44:29.899 设备发送:05 03 06 84 00 04 05 2C
13:44:30.708 设备发送:05 03 04 04 00 01 C5 7F
13:44:31.536 设备发送:05 03 04 04 00 01 C5 7F
13:44:32.359 设备发送:05 03 04 04 00 01 C5 7F
13:44:33.169 设备发送:0C 03 04 84 00 04 04 0D
13:44:34.009 设备发送:0C 03 04 84 00 04 04 0D
13:44:34.821 设备接收:0C 03 08 13 86 01 92 FF CD 01 A2 91 64
13:44:34.837 设备发送:0C 03 06 84 00 04 05 B5
13:44:35.607 设备接收:0C 03 08 00 00 09 FD 00 03 DD FF 2A 26
13:44:35.623 设备发送:0C 03 04 04 00 01 C5 E6
13:44:36.452 设备接收:0C 03 02 00 02 14 44
13:44:36.468 设备发送:05 03 04 84 00 04 04 94
13:44:37.282 设备发送:05 03 04 84 00 04 04 94
13:44:38.098 设备发送:05 03 04 84 00 04 04 94
13:44:38.925 设备发送:05 03 06 84 00 04 05 2C
13:44:39.736 设备发送:05 03 06 84 00 04 05 2C
13:44:40.547 设备发送:05 03 06 84 00 04 05 2C
13:44:41.385 设备发送:05 03 04 04 00 01 C5 7F
13:44:42.214 设备发送:05 03 04 04 00 01 C5 7F
13:44:43.022 设备发送:05 03 04 04 00 01 C5 7F

