10:37:19.41800
10:37:19.43000
10:37:19.43900
10:37:19.44200
10:37:19.535 设备接收:03 03 08 00 00 24 70 00 0F 2A 25 37 F8
10:37:19.546 设备发送:03 03 04 04 00 01 C5 19
10:37:20.347 设备接收:03 03 02 00 02 40 45
10:37:20.393 设备发送:05 03 04 84 00 04 04 94
10:37:21.201 设备发送:05 03 04 84 00 04 04 94
10:37:22.028 设备发送:05 03 04 84 00 04 04 94
10:37:22.841 设备发送:05 03 06 84 00 04 05 2C
10:37:23.656 设备发送:05 03 06 84 00 04 05 2C
10:37:24.466 设备发送:05 03 06 84 00 04 05 2C
10:37:25.292 设备发送:05 03 04 04 00 01 C5 7F
10:37:26.103 设备发送:05 03 04 04 00 01 C5 7F
10:37:26.944 设备发送:05 03 04 04 00 01 C5 7F
10:37:27.753 设备发送:0C 03 04 84 00 04 04 0D
10:37:28.578 设备发送:0C 03 04 84 00 04 04 0D
10:37:29.393 设备发送:0C 03 04 84 00 04 04 0D
10:37:30.224 设备发送:0C 03 06 84 00 04 05 B5
10:37:31.036 设备发送:0C 03 06 84 00 04 05 B5
10:37:31.866 设备发送:0C 03 06 84 00 04 05 B5
10:37:32.676 设备发送:0C 03 04 04 00 01 C5 E6
10:37:33.490 设备发送:0C 03 04 04 00 01 C5 E6
10:37:34.315 设备发送:0C 03 04 04 00 01 C5 E6
10:37:35.143 设备发送:01 03 04 84 00 04 05 10
10:37:35.950 设备接收:01 03 08 13 8B 06 AB 00 03 06 AB 78 67
10:37:35.966 设备发送:01 03 06 84 00 04 04 A8
10:37:36.776 设备接收:01 03 08 00 00 08 7B 00 03 F2 81 05 95
10:37:36.792 设备发送:01 03 04 04 00 01 C4 FB
10:37:37.606 设备接收:01 03 02 00 02 39 85
10:37:37.621 设备发送:02 03 04 84 00 04 05 23
10:37:38.400 设备发送:02 03 04 84 00 04 05 23
10:37:39.227 设备发送:02 03 04 84 00 04 05 23
10:37:40.051 设备发送:02 03 06 84 00 04 04 9B
10:37:40.877 设备发送:02 03 06 84 00 04 04 9B
10:37:41.687 设备接收:02 03 08 00 00 18 87 00 0B 0E 23 79 28
10:37:41.701 设备发送:02 03 04 04 00 01 C4 C8
10:37:42.516 设备发送:02 03 04 04 00 01 C4 C8
10:37:43.331 设备接收:02 03 02 00 02 7D 85
10:37:43.346 设备发送:03 03 04 84 00 04 04 F2
10:37:44.152 设备接收:03 03 08 13 8B 18 F9 FF 68 18 FA 40 39
10:37:44.167 设备发送:03 03 06 84 00 04 05 4A
10:37:44.949 设备接收:03 03 08 00 00 24 9E 00 0F 2A 2A 9F EB
10:37:44.964 设备发送:03 03 04 04 00 01 C5 19
10:37:45.773 设备接收:03 03 02 00 02 40 45
10:37:45.804 设备发送:05 03 04 84 00 04 04 94
10:37:46.615 设备发送:05 03 04 84 00 04 04 94
10:37:47.424 设备发送:05 03 04 84 00 04 04 94
10:37:48.251 设备发送:05 03 06 84 00 04 05 2C
10:37:49.093 设备发送:05 03 06 84 00 04 05 2C
10:37:49.906 设备发送:05 03 06 84 00 04 05 2C
10:37:50.720 设备发送:05 03 04 04 00 01 C5 7F
10:37:51.529 设备发送:05 03 04 04 00 01 C5 7F
10:37:52.339 设备发送:05 03 04 04 00 01 C5 7F
10:37:53.182 设备发送:0C 03 04 84 00 04 04 0D
10:37:53.990 设备发送:0C 03 04 84 00 04 04 0D
10:37:54.801 设备发送:0C 03 04 84 00 04 04 0D
10:37:55.642 设备发送:0C 03 06 84 00 04 05 B5
10:37:56.457 设备发送:0C 03 06 84 00 04 05 B5
10:37:57.266 设备发送:0C 03 06 84 00 04 05 B5
10:37:58.112 设备发送:0C 03 04 04 00 01 C5 E6
10:37:58.895 设备发送:0C 03 04 04 00 01 C5 E6
10:37:59.727 设备发送:0C 03 04 04 00 01 C5 E6
10:38:00.568 设备发送:01 03 04 84 00 04 05 10
10:38:01.380 设备发送:01 03 04 84 00 04 05 10
10:38:02.192 设备发送:01 03 04 84 00 04 05 10
10:38:03.018 设备发送:01 03 06 84 00 04 04 A8
10:38:03.827 设备接收:01 03 08 00 00 08 89 00 03 F2 82 7C 41
10:38:03.843 设备发送:01 03 04 04 00 01 C4 FB
10:38:04.625 设备接收:01 03 02 00 02 39 85
10:38:04.657 设备发送:02 03 04 84 00 04 05 23
10:38:05.484 设备发送:02 03 04 84 00 04 05 23
10:38:06.298 设备发送:02 03 04 84 00 04 05 23
10:38:07.106 设备发送:02 03 06 84 00 04 04 9B
10:38:07.947 设备发送:02 03 06 84 00 04 04 9B
10:38:08.760 设备发送:02 03 06 84 00 04 04 9B
10:38:09.570 设备发送:02 03 04 04 00 01 C4 C8
10:38:10.380 设备发送:02 03 04 04 00 01 C4 C8
10:38:11.223 设备发送:02 03 04 04 00 01 C4 C8
10:38:12.037 设备发送:03 03 04 84 00 04 04 F2
10:38:12.848 设备接收:03 03 08 13 8C 18 C9 00 25 18 C9 96 EB
10:38:12.864 设备发送:03 03 06 84 00 04 05 4A
10:38:13.645 设备接收:03 03 08 00 00 24 D2 00 0F 2A 2F 4E 26
10:38:13.661 设备发送:03 03 04 04 00 01 C5 19
10:38:14.491 设备接收:03 03 02 00 02 40 45
10:38:14.506 设备发送:05 03 04 84 00 04 04 94
10:38:15.336 设备发送:05 03 04 84 00 04 04 94
10:38:16.148 设备发送:05 03 04 84 00 04 04 94
10:38:16.959 设备发送:05 03 06 84 00 04 05 2C
10:38:17.786 设备发送:05 03 06 84 00 04 05 2C
10:38:18.597 设备发送:05 03 06 84 00 04 05 2C
10:38:19.414 设备发送:05 03 04 04 00 01 C5 7F
10:38:20.224 设备发送:05 03 04 04 00 01 C5 7F

