
15:23:35.976 设备接收:0B 03 42 09 1E 02 35 00 00 00 00 00 00 00 00 00 00 00 00 00 00 00 00 00 00 09 17 02 41 00 00 00 00 00 00 00 00 00 00 00 00 00 00 00 00 00 00 09 1A 02 32 00 00 00 00 00 00 00 00 00 00 00 00 00 00 00 00 00 00 41 84
15:23:35.985 设备发送:0B 03 06 84 00 04 04 02
15:23:36.784 设备接收:0B 03 08 00 00 14 03 00 04 90 AF 9E A6
15:23:36.803 设备发送:0B 03 04 04 00 01 C4 51
15:23:37.622 设备接收:0B 03 02 00 02 A1 84
15:23:37.638 设备发送:0C 03 04 84 00 04 04 0D
15:23:38.450 设备接收:0C 03 08 13 87 01 38 FF CD 01 4C 19 F0
15:23:38.466 设备发送:0C 03 04 8D 00 21 15 D4
15:23:39.244 设备接收:0C 03 42 09 1D 01 D2 00 00 00 00 00 00 00 00 00 00 00 00 00 00 00 00 00 00 09 18 01 D6 00 00 00 00 00 00 00 00 00 00 00 00 00 00 00 00 00 00 09 19 01 CF 00 00 00 00 00 00 00 00 00 00 00 00 00 00 00 00 00 00 00 BF
15:23:39.260 设备发送:0C 03 06 84 00 04 05 B5
15:23:40.073 设备接收:0C 03 08 00 00 10 01 00 03 FF A4 21 60
15:23:40.105 设备发送:0C 03 04 04 00 01 C5 E6
15:23:40.884 设备接收:0C 03 02 00 02 14 44
15:23:40.899 设备发送:01 03 04 84 00 04 05 10
15:23:41.713 设备接收:01 03 08 13 87 01 8C FF EF 01 8C 32 1C
15:23:41.728 设备发送:01 03 04 8D 00 21 14 C9
15:23:42.556 设备接收:01 03 42 09 0A 02 74 00 00 00 00 00 00 00 00 00 00 00 00 00 00 00 00 00 00 09 0C 02 84 00 00 00 00 00 00 00 00 00 00 00 00 00 00 00 00 00 00 09 12 02 92 00 00 00 00 00 00 00 00 00 00 00 00 00 00 00 00 00 00 5D B7
15:23:42.572 设备发送:01 03 06 84 00 04 04 A8
15:23:43.353 设备接收:01 03 08 00 00 1C 42 00 04 43 FC 9F 34
15:23:43.368 设备发送:01 03 04 04 00 01 C4 FB
15:23:44.179 设备接收:01 03 02 00 02 39 85
15:23:44.195 设备发送:02 03 04 84 00 04 05 23
15:23:45.006 设备接收:02 03 08 13 88 04 6C 00 04 04 6C 01 23
15:23:45.021 设备发送:02 03 04 8D 00 21 14 FA
15:23:45.839 设备接收:02 03 42 09 0E 06 64 00 00 00 00 00 00 00 00 00 00 00 00 00 00 00 00 00 00 09 10 06 74 00 00 00 00 00 00 00 00 00 00 00 00 00 00 00 00 00 00 09 17 06 83 00 00 00 00 00 00 00 00 00 00 00 00 00 00 00 00 00 00 47 C1
15:23:45.854 设备发送:02 03 06 84 00 04 04 9B
15:23:46.637 设备接收:02 03 08 00 00 4F 83 00 0C 78 DF 72 E9
15:23:46.655 设备发送:02 03 04 04 00 01 C4 C8
15:23:47.463 设备接收:02 03 02 00 02 7D 85
15:23:47.479 设备发送:03 03 04 84 00 04 04 F2
15:23:48.290 设备接收:03 03 08 13 87 06 27 FF F3 06 27 9F 82
15:23:48.306 设备发送:03 03 04 8D 00 21 15 2B
15:23:49.082 设备接收:03 03 42 09 12 08 E7 00 00 00 00 00 00 00 00 00 00 00 00 00 00 00 00 00 00 09 12 08 DA 00 00 00 00 00 00 00 00 00 00 00 00 00 00 00 00 00 00 09 1C 08 F8 00 00 00 00 00 00 00 00 00 00 00 00 00 00 00 00 00 00 2C 73
15:23:49.097 设备发送:03 03 06 84 00 04 05 4A
15:23:49.905 设备接收:03 03 08 00 00 6E 59 00 10 6D AB E6 06
15:23:49.921 设备发送:03 03 04 04 00 01 C5 19
15:23:50.731 设备接收:03 03 02 00 02 40 45
15:23:50.747 设备发送:04 03 04 84 00 04 05 45
15:23:51.561 设备接收:04 03 08 13 87 03 EC FF F5 03 EC 82 B5
15:23:51.592 设备发送:04 03 04 8D 00 21 14 9C
15:23:52.354 设备接收:04 03 42 09 04 05 CA 00 00 00 00 00 00 00 00 00 00 00 00 00 00 00 00 00 00 09 0C 05 B8 00 00 00 00 00 00 00 00 00 00 00 00 00 00 00 00 00 00 09 14 05 F8 00 00 00 00 00 00 00 00 00 00 00 00 00 00 00 00 00 00 81 5E
15:23:52.385 设备发送:04 03 06 84 00 04 04 FD
15:23:53.194 设备接收:04 03 08 00 00 21 C3 00 09 F9 A8 55 57
15:23:53.210 设备发送:04 03 04 04 00 01 C4 AE
15:23:54.023 设备接收:04 03 02 00 02 F5 85
15:23:54.039 设备发送:05 03 04 84 00 04 04 94
15:23:54.854 设备接收:05 03 08 13 88 04 38 00 15 04 38 7B 61
15:23:54.870 设备发送:05 03 04 8D 00 21 15 4D
15:23:55.648 设备接收:05 03 42 09 07 06 16 00 00 00 00 00 00 00 00 00 00 00 00 00 00 00 00 00 00 09 0B 06 2F 00 00 00 00 00 00 00 00 00 00 00 00 00 00 00 00 00 00 09 18 06 2A 00 00 00 00 00 00 00 00 00 00 00 00 00 00 00 00 00 00 2D 6E
15:23:55.663 设备发送:05 03 06 84 00 04 05 2C
15:23:56.488 设备接收:05 03 08 00 00 23 81 00 0E 5E 56 62 37
15:23:56.503 设备发送:05 03 04 04 00 01 C5 7F
15:23:57.315 设备接收:05 03 02 00 02 C8 45
15:23:57.330 设备发送:06 03 04 84 00 04 04 A7
15:23:58.110 设备接收:06 03 08 13 88 03 DB FF F7 03 DB 63 DF
15:23:58.125 设备发送:06 03 04 8D 00 21 15 7E
15:23:58.937 设备接收:06 03 42 09 05 05 AC 00 00 00 00 00 00 00 00 00 00 00 00 00 00 00 00 00 00 09 0D 05 9F 00 00 00 00 00 00 00 00 00 00 00 00 00 00 00 00 00 00 09 12 05 B9 00 00 00 00 00 00 00 00 00 00 00 00 00 00 00 00 00 00 00 B2
15:23:58.953 设备发送:06 03 06 84 00 04 05 1F
15:23:59.766 设备接收:06 03 08 00 00 20 7B 00 0D 47 ED 0E B7
15:23:59.782 设备发送:06 03 04 04 00 01 C5 4C
15:24:00.599 设备接收:06 03 02 00 02 8C 45
15:24:00.617 设备发送:07 03 04 84 00 04 05 76
15:24:01.380 设备接收:07 03 08 13 89 04 02 FF E0 04 03 D9 E9
15:24:01.411 设备发送:07 03 04 8D 00 21 14 AF
15:24:02.221 设备接收:07 03 42 09 08 05 E9 00 00 00 00 00 00 00 00 00 00 00 00 00 00 00 00 00 00 09 0C 05 E3 00 00 00 00 00 00 00 00 00 00 00 00 00 00 00 00 00 00 09 12 06 06 00 00 00 00 00 00 00 00 00 00 00 00 00 00 00 00 00 00 F3 33
15:24:02.236 设备发送:07 03 06 84 00 04 04 CE
15:24:03.016 设备接收:07 03 08 00 00 3B 39 00 0B 90 AB 4F AC
15:24:03.061 设备发送:07 03 04 04 00 01 C4 9D
15:24:03.872 设备接收:07 03 02 00 02 B1 85
15:24:03.888 设备发送:08 03 04 84 00 04 05 89
15:24:04.699 设备接收:08 03 08 13 89 03 8F FF E2 03 90 27 C8
15:24:04.714 设备发送:08 03 04 8D 00 21 14 50
15:24:05.527 设备接收:08 03 42 09 06 05 36 00 00 00 00 00 00 00 00 00 00 00 00 00 00 00 00 00 00 09 0A 05 48 00 00 00 00 00 00 00 00 00 00 00 00 00 00 00 00 00 00 09 11 05 6E 00 00 00 00 00 00 00 00 00 00 00 00 00 00 00 00 00 00 A4 3B
15:24:05.543 设备发送:08 03 06 84 00 04 04 31
15:24:06.327 设备接收:08 03 08 00 00 2F 60 00 0C F2 CF F9 EB
15:24:06.342 设备发送:08 03 04 04 00 01 C4 62
15:24:07.153 设备接收:08 03 02 00 02 E5 84
15:24:07.168 设备发送:09 03 04 84 00 04 04 58
15:24:07.948 设备接收:09 03 08 13 8A 04 0F FF F9 04 0F 22 02
15:24:07.995 设备发送:09 03 04 8D 00 21 15 81
15:24:08.800 设备接收:09 03 42 09 0A 05 E9 00 00 00 00 00 00 00 00 00 00 00 00 00 00 00 00 00 00 09 0B 05 F2 00 00 00 00 00 00 00 00 00 00 00 00 00 00 00 00 00 00 09 16 06 0E 00 00 00 00 00 00 00 00 00 00 00 00 00 00 00 00 00 00 4F 30
15:24:08.815 设备发送:09 03 06 84 00 04 05 E0
15:24:09.629 设备接收:09 03 08 00 00 36 4F 00 0E D6 DC D1 D5
15:24:09.647 设备发送:09 03 04 04 00 01 C5 B3
15:24:10.425 设备接收:09 03 02 00 02 D8 44
15:24:10.440 设备发送:0A 03 04 84 00 04 04 6B
15:24:11.249 设备接收:0A 03 08 13 8A 03 C9 00 0C 03 C9 06 A4
15:24:11.265 设备发送:0A 03 04 8D 00 21 15 B2
15:24:12.074 设备接收:0A 03 42 09 09 05 88 00 00 00 00 00 00 00 00 00 00 00 00 00 00 00 00 00 00 09 10 05 85 00 00 00 00 00 00 00 00 00 00 00 00 00 00 00 00 00 00 09 18 05 AC 00 00 00 00 00 00 00 00 00 00 00 00 00 00 00 00 00 00 25 45
15:24:12.090 设备发送:0A 03 06 84 00 04 05 D3
15:24:12.869 设备接收:0A 03 08 00 00 33 3C 00 0D AE F3 48 D3
15:24:12.884 设备发送:0A 03 04 04 00 01 C5 80
15:24:13.710 设备接收:0A 03 02 00 02 9C 44
15:24:13.725 设备发送:0B 03 04 84 00 04 05 BA
15:24:14.533 设备接收:0B 03 08 13 8B 01 7F FF CC 01 8D EB DB
15:24:14.549 设备发送:0B 03 04 8D 00 21 14 63
15:24:15.364 设备接收:0B 03 42 09 1B 02 34 00 00 00 00 00 00 00 00 00 00 00 00 00 00 00 00 00 00 09 17 02 40 00 00 00 00 00 00 00 00 00 00 00 00 00 00 00 00 00 00 09 1A 02 30 00 00 00 00 00 00 00 00 00 00 00 00 00 00 00 00 00 00 8C 11
15:24:15.379 设备发送:0B 03 06 84 00 04 04 02
15:24:16.174 设备接收:0B 03 08 00 00 14 07 00 04 90 AF 6F 66
15:24:16.205 设备发送:0B 03 04 04 00 01 C4 51
15:24:17.017 设备接收:0B 03 02 00 02 A1 84
15:24:17.033 设备发送:0C 03 04 84 00 04 04 0D
15:24:17.812 设备接收:0C 03 08 13 8C 01 3A FF DD 01 48 DA F6
15:24:17.843 设备发送:0C 03 04 8D 00 21 15 D4
15:24:18.655 设备接收:0C 03 42 09 1B 01 D5 00 00 00 00 00 00 00 00 00 00 00 00 00 00 00 00 00 00 09 18 01 DA 00 00 00 00 00 00 00 00 00 00 00 00 00 00 00 00 00 00 09 1B 01 D2 00 00 00 00 00 00 00 00 00 00 00 00 00 00 00 00 00 00 82 CE
15:24:18.670 设备发送:0C 03 06 84 00 04 05 B5
15:24:19.449 设备接收:0C 03 08 00 00 10 04 00 03 FF A4 ED 60
15:24:19.479 设备发送:0C 03 04 04 00 01 C5 E6
15:24:20.291 设备接收:0C 03 02 00 02 14 44
15:24:20.309 设备发送:01 03 04 84 00 04 05 10
15:24:21.100 设备接收:01 03 08 13 8B 01 8F 00 02 01 8F 5A 3C
15:24:21.116 设备发送:01 03 04 8D 00 21 14 C9
15:24:21.913 设备接收:01 03 42 09 09 02 91 00 00 00 00 00 00 00 00 00 00 00 00 00 00 00 00 00 00 09 0B 02 9C 00 00 00 00 00 00 00 00 00 00 00 00 00 00 00 00 00 00 09 0F 02 B0 00 00 00 00 00 00 00 00 00 00 00 00 00 00 00 00 00 00 87 B0
15:24:21.929 设备发送:01 03 06 84 00 04 04 A8
15:24:22.725 设备接收:01 03 08 00 00 1C 46 00 04 43 FC 6E F4
15:24:22.756 设备发送:01 03 04 04 00 01 C4 FB
15:24:23.535 设备接收:01 03 02 00 02 39 85
15:24:23.566 设备发送:02 03 04 84 00 04 05 23
15:24:24.379 设备接收:02 03 08 13 8B 04 7C 00 21 04 7C E3 E7
15:24:24.410 设备发送:02 03 04 8D 00 21 14 FA
15:24:25.191 设备接收:02 03 42 09 12 06 83 00 00 00 00 00 00 00 00 00 00 00 00 00 00 00 00 00 00 09 12 06 89 00 00 00 00 00 00 00 00 00 00 00 00 00 00 00 00 00 00 09 19 06 9D 00 00 00 00 00 00 00 00 00 00 00 00 00 00 00 00 00 00 87 6E
15:24:25.207 设备发送:02 03 06 84 00 04 04 9B
15:24:26.034 设备接收:02 03 08 00 00 4F 90 00 0C 78 E0 B7 3A
15:24:26.049 设备发送:02 03 04 04 00 01 C4 C8
15:24:26.830 设备接收:02 03 02 00 02 7D 85
15:24:26.839 设备发送:03 03 04 84 00 04 04 F2
15:24:27.656 设备接收:03 03 08 13 8B 06 48 FF F1 06 48 66 67
15:24:27.672 设备发送:03 03 04 8D 00 21 15 2B
15:24:28.32400

