
10:31:05.181 设备接收:06 03 0A 09 34 0C 52 00 00 00 00 00 00 EA 8F
10:31:05.191 设备发送:06 03 04 A3 00 05 75 6C
10:31:08.223 设备接收:06 03 0A 09 39 0C 79 00 00 00 00 00 00 29 1D
10:31:08.239 设备发送:06 03 06 84 00 04 05 1F
10:31:11.238 设备接收:06 03 08 00 00 0B 05 00 0D 80 31 73 0F
10:31:11.271 设备发送:06 03 04 04 00 01 C5 4C
10:31:14.250 设备接收:06 03 02 00 02 8C 45
10:31:14.265 设备发送:06 03 05 84 00 0F 44 9C
10:31:17.278 设备接收:06 03 1E 1E DF 01 E3 01 7D 1E 7F 01 EA 01 7F 1E C9 00 F8 00 C3 1E C4 01 02 00 CB 1E CA 01 09 00 D0 14 28
10:31:17.294 设备发送:06 03 05 93 00 0F F4 98
10:31:20.302 设备接收:06 03 1E 1E 40 00 FD 00 C4 1E 82 01 0E 00 D3 1E FD 01 13 00 DA 1E A8 00 FD 00 C6 1E 34 00 FD 00 C3 93 35
10:31:20.317 设备发送:06 03 05 A2 00 0F A5 57
10:31:23.304 设备接收:06 03 1E 00 00 00 00 00 00 00 00 00 08 00 00 00 00 00 00 00 00 00 00 00 00 00 00 00 00 00 00 00 00 54 33
10:31:23.320 设备发送:06 03 05 B1 00 03 54 97
10:31:26.342 设备接收:06 03 06 00 00 00 00 00 00 07 45
10:31:26.371 设备发送:06 03 04 2B 00 01 F4 85
10:31:29.355 设备接收:06 03 02 01 E6 8D 9E
10:31:29.369 设备发送:06 03 04 20 00 01 85 47
10:31:32.369 设备接收:06 03 02 00 3E 8C 54
10:31:32.385 设备发送:06 03 04 05 00 01 94 8C
10:31:35.402 设备接收:06 03 02 00 00 0D 84
10:31:35.421 设备发送:07 03 04 84 00 04 05 76
10:31:38.409 设备接收:07 03 08 13 84 09 6A FF CA 09 6A 80 8B
10:31:38.440 设备发送:07 03 04 8D 00 05 14 B4
10:31:41.444 设备接收:07 03 0A 09 2E 0D 64 00 00 00 00 00 00 CC A1
10:31:41.470 设备发送:07 03 04 98 00 05 05 70
10:31:44.488 设备发送:07 03 04 98 00 05 05 70
10:31:47.479 设备接收:07 03 0A 09 35 0D 5E 00 00 00 00 00 00 E8 52
10:31:47.494 设备发送:07 03 04 A3 00 05 74 BD
10:31:50.523 设备接收:07 03 0A 09 38 0D 75 00 00 00 00 00 00 2B C0
10:31:50.538 设备发送:07 03 06 84 00 04 04 CE
10:31:53.528 设备接收:07 03 08 00 00 0B D8 00 0B CD 69 4F 4B
10:31:53.544 设备发送:07 03 04 04 00 01 C4 9D
10:31:56.558 设备接收:07 03 02 00 02 B1 85
10:31:56.573 设备发送:07 03 05 84 00 0F 45 4D
10:31:59.541 设备接收:07 03 1E 1E CF 02 0C 01 9D 1E D2 01 0B 00 D2 1E 85 01 08 00 CE 1F 1E 01 02 00 CE 1F 11 00 FE 00 CA 4E D8
10:31:59.562 设备发送:07 03 05 93 00 0F F5 49
10:32:02.573 设备接收:07 03 1E 1E 18 01 10 00 D1 1E BB 01 17 00 DC 1D 13 02 0E 01 88 1B 4E 01 8C 01 15 19 F2 01 84 01 02 CA C5
10:32:02.588 设备发送:07 03 05 A2 00 0F A4 86
10:32:05.599 设备接收:07 03 1E 00 00 00 00 00 00 00 00 00 05 00 00 00 00 00 00 00 00 00 00 00 00 00 00 00 00 00 00 00 00 E5 EE
10:32:05.631 设备发送:07 03 05 B1 00 03 55 46
10:32:08.618 设备接收:07 03 06 00 00 00 00 00 00 0A D5
10:32:08.632 设备发送:07 03 04 2B 00 01 F5 54
10:32:11.632 设备接收:07 03 02 02 0C 31 21
10:32:11.648 设备发送:07 03 04 20 00 01 84 96
10:32:14.676 设备接收:07 03 02 00 37 71 92
10:32:14.691 设备发送:07 03 04 05 00 01 95 5D
10:32:17.675 设备接收:07 03 02 00 00 30 44
10:32:17.691 设备发送:08 03 04 84 00 04 05 89
10:32:20.685 设备接收:08 03 08 13 87 07 7C FF D6 07 7D 4E DA
10:32:20.701 设备发送:08 03 04 8D 00 05 14 4B
10:32:23.729 设备接收:08 03 0A 09 2C 0A A9 00 00 00 00 00 00 9C E4
10:32:23.745 设备发送:08 03 04 98 00 05 05 8F
10:32:26.739 设备接收:08 03 0A 09 31 0A BC 00 00 00 00 00 00 4D 75
10:32:26.770 设备发送:08 03 04 A3 00 05 74 42
10:32:29.766 设备接收:08 03 0A 09 38 0A DD 00 00 00 00 00 00 57 E3
10:32:29.781 设备发送:08 03 06 84 00 04 04 31
10:32:32.787 设备接收:08 03 08 00 00 09 86 00 0D 22 A8 BA D1
10:32:32.801 设备发送:08 03 04 04 00 01 C4 62
10:32:35.824 设备接收:08 03 02 00 02 E5 84
10:32:35.839 设备发送:08 03 05 84 00 0F 45 B2
10:32:38.835 设备接收:08 03 1E 20 D2 01 BE 01 77 20 E8 01 AA 01 67 20 4C 01 9B 01 54 05 04 00 03 00 00 1E CA 01 B7 01 5A F6 5B
10:32:38.849 设备发送:08 03 05 93 00 0F F5 B6
10:32:41.862 设备接收:08 03 1E 1F 5C 01 9B 01 4A 1F 2F 01 95 01 43 04 FD 00 00 00 00 04 FE 00 00 00 00 05 01 00 00 00 00 BB 78
10:32:41.878 设备发送:08 03 05 A2 00 0F A4 79
10:32:44.888 设备接收:08 03 1E 00 00 00 00 00 00 00 01 00 03 00 00 00 00 00 00 00 00 00 00 00 00 00 00 00 00 00 00 00 00 2A 16
10:32:44.904 设备发送:08 03 05 B1 00 03 55 B9
10:32:47.916 设备接收:08 03 06 00 00 00 00 00 00 4B 25
10:32:47.932 设备发送:08 03 04 2B 00 01 F5 AB
10:32:50.917 设备接收:08 03 02 02 90 65 49
10:32:50.932 设备发送:08 03 04 20 00 01 84 69
10:32:53.932 设备接收:08 03 02 00 31 A5 91
10:32:53.948 设备发送:08 03 04 05 00 01 95 A2
10:32:56.944 设备接收:08 03 02 00 00 64 45
10:32:56.975 设备发送:09 03 04 84 00 04 04 58
10:32:59.994 设备接收:09 03 08 13 8B 08 91 FF F0 08 91 CF 78
10:33:00.002 设备发送:09 03 04 8D 00 05 15 9A
10:33:02.989 设备接收:09 03 0A 09 31 0C 2B 00 00 00 00 00 00 29 17
10:33:03.020 设备发送:09 03 04 98 00 05 04 5E
10:33:06.000 设备接收:09 03 0A 09 32 0C 30 00 00 00 00 00 00 96 E6
10:33:06.032 设备发送:09 03 04 A3 00 05 75 93
10:33:09.052 设备接收:09 03 0A 09 3E 0C 54 00 00 00 00 00 00 E6 20
10:33:09.083 设备发送:09 03 06 84 00 04 05 E0
10:33:12.081 设备接收:09 03 08 00 00 0A C7 00 0F 0C EA BE 40
10:33:12.097 设备发送:09 03 04 04 00 01 C5 B3
10:33:15.094 设备接收:09 03 02 00 02 D8 44
10:33:15.126 设备发送:09 03 05 84 00 0F 44 63
10:33:18.130 设备接收:09 03 1E 1E D1 01 AD 01 52 1E B0 01 D1 01 6D 1F 35 01 A3 01 4F 1E 7B 00 D2 00 A4 1E 9A 01 A1 01 47 E4 77
10:33:18.145 设备发送:09 03 05 93 00 0F F4 67
10:33:21.125 设备接收:09 03 1E 1F 28 01 A5 01 50 1F 39 01 9C 01 49 1E C2 00 D6 00 A8 05 69 00 03 00 00 05 6A 00 00 00 00 FC B1
10:33:21.141 设备发送:09 03 05 A2 00 0F A5 A8
10:33:24.157 设备接收:09 03 1E 00 09 00 00 00 00 00 06 00 02 00 00 00 00 00 00 00 00 00 00 00 00 00 00 00 00 00 00 00 00 F1 1E
10:33:24.175 设备发送:09 03 05 B1 00 03 54 68
10:33:27.188 设备接收:09 03 06 00 00 00 00 00 00 46 B5
10:33:27.205 设备发送:09 03 04 2B 00 01 F4 7A
10:33:30.186 设备接收:09 03 02 02 62 D9 0C
10:33:30.234 设备发送:09 03 04 20 00 01 85 B8
10:33:33.214 设备接收:09 03 02 00 1F 18 4D
10:33:33.244 设备发送:09 03 04 05 00 01 94 73
10:33:36.225 设备接收:09 03 02 00 00 59 85
10:33:36.249 设备发送:0A 03 04 84 00 04 04 6B
10:33:39.270 设备接收:0A 03 08 13 87 08 22 FF D3 08 22 B9 99
10:33:39.286 设备发送:0A 03 04 8D 00 05 15 A9
10:33:42.285 设备接收:0A 03 0A 09 30 0B 7E 00 00 00 00 00 00 65 A7
10:33:42.300 设备发送:0A 03 04 98 00 05 04 6D
10:33:45.309 设备接收:0A 03 0A 09 3A 0B 86 00 00 00 00 00 00 62 C8
10:33:45.323 设备发送:0A 03 04 A3 00 05 75 A0
10:33:48.309 设备接收:0A 03 0A 09 40 0B AA 00 00 00 00 00 00 94 68
10:33:48.349 设备发送:0A 03 06 84 00 04 05 D3
10:33:51.338 设备接收:0A 03 08 00 00 0A 5F 00 0D E2 3A 7D 24
10:33:51.369 设备发送:0A 03 04 04 00 01 C5 80
10:33:54.354 设备接收:0A 03 02 00 02 9C 44
10:33:54.370 设备发送:0A 03 05 84 00 0F 44 50
10:33:57.396 设备接收:0A 03 1E 1E EF 01 CB 01 6B 1F 35 01 AE 01 57 1F 2F 01 AA 01 54 1E F7 01 B3 01 59 1F 0E 01 C8 01 6B E3 03
10:33:57.411 设备发送:0A 03 05 93 00 0F F4 54
10:34:00.416 设备接收:0A 03 1E 1E FA 01 B5 01 5B 1F 35 00 D8 00 AC 05 1E 00 00 00 00 05 2F 00 05 00 00 05 2B 00 00 00 00 D1 9A
10:34:00.432 设备发送:0A 03 05 A2 00 0F A5 9B
10:34:03.433 设备接收:0A 03 1E 00 0A 00 00 00 00 00 0A 00 02 00 00 00 00 00 00 00 00 00 00 00 00 00 00 00 00 00 00 00 00 50 49
10:34:03.463 设备发送:0A 03 05 B1 00 03 54 5B
10:34:06.434 设备接收:0A 03 06 00 00 00 00 00 00 52 45
10:34:06.472 设备发送:0A 03 04 2B 00 01 F4 49
10:34:09.475 设备接收:0A 03 02 02 41 DC D5
10:34:09.491 设备发送:0A 03 04 20 00 01 85 8B
10:34:12.495 设备接收:0A 03 02 00 24 1D 9E
10:34:12.510 设备发送:0A 03 04 05 00 01 94 40
10:34:15.495 设备接收:0A 03 02 00 00 1D 85
10:34:15.525 设备发送:0B 03 04 84 00 04 05 BA
10:34:18.543 设备接收:0B 03 08 13 89 03 35 FF DD 03 37 80 E1
10:34:18.563 设备发送:0B 03 04 8D 00 05 14 78
10:34:21.578 设备接收:0B 03 0A 09 46 04 82 00 00 00 00 00 00 55 0B
10:34:21.593 设备发送:0B 03 04 98 00 05 05 BC
10:34:24.575 设备接收:0B 03 0A 09 44 04 8D 00 00 00 00 00 00 B3 6B
10:34:24.591 设备发送:0B 03 04 A3 00 05 74 71
10:34:27.604 设备接收:0B 03 0A 09 42 04 81 00 00 00 00 00 00 54 CB
10:34:27.619 设备发送:0B 03 06 84 00 04 04 02
10:34:30.631 设备接收:0B 03 08 00 00 04 07 00 04 A4 8B 7B 2D
10:34:30.647 设备发送:0B 03 04 04 00 01 C4 51
10:34:33.648 设备接收:0B 03 02 00 02 A1 84
10:34:33.659 设备发送:0B 03 05 84 00 0F 45 81
10:34:36.671 设备接收:0B 03 1E 1E D5 01 A6 01 4D 1D 49 01 0B 00 C8 1D 3C 00 DC 00 A4 1D 8A 00 EA 00 B1 00 00 00 00 00 00 3B B3
10:34:36.685 设备发送:0B 03 05 93 00 0F F5 85
10:34:39.684 设备接收:0B 03 1E 00 00 00 00 00 00 00 00 00 00 00 00 00 00 00 00 00 00 00 00 00 00 00 00 00 00 00 00 00 00 60 B9
10:34:39.700 设备发送:0B 03 05 A2 00 0F A4 4A
10:34:42.710 设备接收:0B 03 1E 00 00 00 00 00 00 00 00 00 00 00 00 00 00 00 00 00 00 00 00 00 00 00 00 00 00 00 00 00 00 60 B9
10:34:42.726 设备发送:0B 03 05 B1 00 03 55 8A
10:34:45.728 设备接收:0B 03 06 00 00 00 00 00 00 5F D5
10:34:45.744 设备发送:0B 03 04 2B 00 01 F5 98
10:34:48.753 设备接收:0B 03 02 01 88 21 B3
10:34:48.785 设备发送:0B 03 04 20 00 01 84 5A
10:34:51.784 设备接收:0B 03 02 00 12 A0 48
10:34:51.799 设备发送:0B 03 04 05 00 01 95 91
10:34:54.815 设备接收:0B 03 02 00 00 20 45
10:34:54.830 设备发送:0C 03 04 84 00 04 04 0D
10:34:57.811 设备接收:0C 03 08 13 8A 02 82 FF DB 02 88 FC 7F
10:34:57.830 设备发送:0C 03 04 8D 00 05 15 CF
10:35:00.861 设备接收:0C 03 0A 09 44 03 8F 00 00 00 00 00 00 DA 0A
10:35:00.876 设备发送:0C 03 04 98 00 05 04 0B
10:35:03.876 设备接收:0C 03 0A 09 43 03 97 00 00 00 00 00 00 64 3B
10:35:03.903 设备发送:0C 03 04 A3 00 05 75 C6
10:35:06.891 设备接收:0C 03 0A 09 45 03 8C 00 00 00 00 00 00 E4 9A
10:35:06.920 设备发送:0C 03 06 84 00 04 05 B5
10:35:09.925 设备接收:0C 03 08 00 00 03 39 00 04 0F 43 37 8D
10:35:09.957 设备发送:0C 03 04 04 00 01 C5 E6
10:35:12.935 设备接收:0C 03 02 00 02 14 44
10:35:12.951 设备发送:0C 03 05 84 00 0F 44 36
10:35:15.960 设备接收:0C 03 1E 1C D1 01 B3 01 41 1E 9B 01 B7 01 58 04 6B 00 01 00 00 0D 61 00 00 00 00 00 00 00 00 00 00 08 88
10:35:15.976 设备发送:0C 03 05 93 00 0F F4 32
10:35:18.976 设备接收:0C 03 1E 00 00 00 00 00 00 00 00 00 00 00 00 00 00 00 00 00 00 00 00 00 00 00 00 00 00 00 00 00 00 65 78
10:35:18.991 设备发送:0C 03 05 A2 00 0F A5 FD
10:35:21.990 设备发送:0C 03 05 B1 00 03 54 3D
10:35:22.006 设备接收:0C 03 1E 00 00 00 00 00 00 00 00 00 00 00 00 00 00 00 00 00 00 00 00 00 00 00 00 00 00 00 00 00 00 65 78
10:35:25.025 设备接收:0C 03 06 00 00 00 00 00 00 79 E5
10:35:25.044 设备发送:0C 03 04 2B 00 01 F4 2F
10:35:28.005 设备接收:0C 03 02 01 83 D5 B4
10:35:28.038 设备发送:0C 03 04 20 00 01 85 ED
10:35:31.032 设备接收:0C 03 02 00 2A 14 5A
10:35:31.047 设备发送:0C 03 04 05 00 01 94 26
10:35:34.058 设备接收:0C 03 02 00 00 95 85
10:35:34.090 设备发送:01 03 04 84 00 04 05 10
10:35:37.105 设备接收:01 03 08 13 8B 05 68 FF FE 05 68 DD 00
10:35:37.136 设备发送:01 03 04 8D 00 05 14 D2
10:35:40.111 设备接收:01 03 0A 09 36 07 B6 00 00 00 00 00 00 1D 15
10:35:40.142 设备发送:01 03 04 98 00 05 05 16
10:35:43.134 设备接收:01 03 0A 09 35 07 C0 00 00 00 00 00 00 1E 22
10:35:43.149 设备发送:01 03 04 A3 00 05 74 DB
10:35:46.176 设备接收:01 03 0A 09 36 07 D5 00 00 00 00 00 00 4E 13
10:35:46.206 设备发送:01 03 06 84 00 04 04 A8
10:35:49.179 设备接收:01 03 08 00 00 06 83 00 04 62 E8 B8 80
10:35:49.210 设备发送:01 03 04 04 00 01 C4 FB
10:35:52.217 设备接收:01 03 02 00 02 39 85
10:35:52.228 设备发送:01 03 05 84 00 0F 45 2B
10:35:55.224 设备接收:01 03 1E 03 8D 00 00 00 00 03 8E 00 00 00 00 1A DF 05 6E 03 BC 03 88 00 04 00 00 03 83 00 00 00 00 65 08
10:35:55.240 设备发送:01 03 05 93 00 0F F5 2F
10:35:58.242 设备发送:01 03 05 A2 00 0F A4 E0
10:35:58.254 设备接收:01 03 1E 1D F9 02 AD 02 0D 03 7A 00 00 00 00 03 83 00 00 00 00 03 81 00 00 00 00 03 81 00 00 00 00 20 4B
10:36:01.245 设备接收:01 03 1E 00 01 00 00 00 00 00 01 00 00 00 00 00 00 00 00 00 00 00 00 00 00 00 00 00 00 00 00 00 00 D5 27
10:36:01.261 设备发送:01 03 05 B1 00 03 55 20
10:36:04.264 设备接收:01 03 06 00 00 00 00 00 00 21 75
10:36:04.294 设备发送:01 03 04 2B 00 01 F5 32
10:36:07.301 设备接收:01 03 02 02 E7 F9 6E
10:36:07.317 设备发送:01 03 04 20 00 01 84 F0
10:36:10.314 设备接收:01 03 02 00 1C B9 8D
10:36:10.330 设备发送:01 03 04 05 00 01 95 3B
10:36:13.342 设备接收:01 03 02 00 00 B8 44
10:36:13.358 设备发送:02 03 04 84 00 04 05 23
10:36:16.360 设备发送:02 03 04 8D 00 05 14 E1
10:36:16.376 设备接收:02 03 08 13 85 0E 91 FF A3 0E 92 B6 4A
10:36:19.365 设备接收:02 03 0A 09 38 14 91 00 00 00 00 00 00 42 AD
10:36:19.397 设备发送:02 03 04 98 00 05 05 25
10:36:22.397 设备接收:02 03 0A 09 37 14 8F 00 00 00 00 00 00 FD 5C
10:36:22.418 设备发送:02 03 04 A3 00 05 74 E8
10:36:25.414 设备接收:02 03 0A 09 3E 14 A8 00 00 00 00 00 00 C0 0E
10:36:25.430 设备发送:02 03 06 84 00 04 04 9B
10:36:28.450 设备接收:02 03 08 00 00 11 2F 00 0C CF B1 19 93
10:36:28.467 设备发送:02 03 04 04 00 01 C4 C8
10:36:31.435 设备接收:02 03 02 00 02 7D 85
10:36:31.481 设备发送:02 03 05 84 00 0F 45 18
10:36:34.480 设备接收:02 03 1E 1D 28 04 37 03 25 1D AD 02 B5 02 0F 04 67 00 00 00 00 04 69 00 00 00 00 1D B9 05 38 03 F8 D4 F6
10:36:34.496 设备发送:02 03 05 93 00 0F F5 1C
10:36:37.480 设备接收:02 03 1E 1D E6 05 39 03 FF 1D D1 02 99 01 FC 04 67 00 05 00 00 04 68 00 00 00 00 04 64 00 00 00 00 04 0E
10:36:37.527 设备发送:02 03 05 A2 00 0F A4 D3
10:36:40.527 设备接收:02 03 1E 00 00 00 00 00 00 00 00 00 05 00 00 00 00 00 00 00 00 00 00 00 00 00 00 00 00 00 00 00 00 39 EF
10:36:40.543 设备发送:02 03 05 B1 00 03 55 13
10:36:43.550 设备接收:02 03 06 00 00 00 00 00 00 35 85
10:36:43.556 设备发送:02 03 04 2B 00 01 F5 01
10:36:46.548 设备接收:02 03 02 02 D3 BC B9
10:36:46.557 设备发送:02 03 04 20 00 01 84 C3
10:36:49.571 设备接收:02 03 02 00 34 FD 93
10:36:49.587 设备发送:02 03 04 05 00 01 95 08
10:36:52.610 设备接收:02 03 02 00 00 FC 44
10:36:52.626 设备发送:03 03 04 84 00 04 04 F2
10:36:55.619 设备接收:03 03 08 13 86 14 57 00 1A 14 57 21 5F
10:36:55.634 设备发送:03 03 04 8D 00 05 15 30
10:36:58.650 设备接收:03 03 0A 09 42 1C 88 00 00 00 00 00 00 D2 29
10:36:58.670 设备发送:03 03 04 98 00 05 04 F4
10:37:01.649 设备接收:03 03 0A 09 44 1C 97 00 00 00 00 00 00 17 48
10:37:01.681 设备发送:03 03 04 A3 00 05 75 39
10:37:04.685 设备接收:03 03 0A 09 52 1C 9C 00 00 00 00 00 00 4B E8
10:37:04.701 设备发送:03 03 06 84 00 04 05 4A
10:37:07.726 设备接收:03 03 08 00 00 1B E3 00 10 EC AA 95 28
10:37:07.742 设备发送:03 03 04 04 00 01 C5 19
10:37:10.712 设备接收:03 03 02 00 02 40 45
10:37:10.742 设备发送:03 03 05 84 00 0F 44 C9
10:37:13.746 设备接收:03 03 1E 1C 47 05 53 03 DB 1C 2C 05 63 03 E2 1C 92 05 46 03 DB 1C 7A 05 48 03 DA 1B FF 05 88 03 F6 64 93
10:37:13.768 设备发送:03 03 05 93 00 0F F4 CD
10:37:16.769 设备接收:03 03 1E 16 F7 02 D7 01 AB 04 5E 00 05 00 00 04 66 00 00 00 00 04 58 00 02 00 00 04 65 00 04 00 00 A0 68
10:37:16.783 设备发送:03 03 05 A2 00 0F A5 02
10:37:19.797 设备接收:03 03 1E 00 0D 00 00 00 00 00 06 00 03 00 00 00 00 00 00 00 00 00 00 00 00 00 00 00 00 00 00 00 00 59 CB
10:37:19.813 设备发送:03 03 05 B1 00 03 54 C2
10:37:22.802 设备接收:03 03 06 00 00 00 00 00 00 38 15
10:37:22.817 设备发送:03 03 04 2B 00 01 F4 D0
10:37:25.811 设备接收:03 03 02 02 C3 80 B5
10:37:25.842 设备发送:03 03 04 20 00 01 85 12
10:37:28.850 设备接收:03 03 02 00 23 80 5D
10:37:28.865 设备发送:03 03 04 05 00 01 94 D9
10:37:31.860 设备接收:03 03 02 00 00 C1 84
10:37:31.876 设备发送:04 03 04 84 00 04 05 45
10:37:34.905 设备发送:04 03 04 84 00 04 05 45
10:37:37.895 设备接收:04 03 08 13 87 09 A7 00 0E 09 A7 21 63
10:37:37.911 设备发送:04 03 04 8D 00 05 14 87
10:37:40.923 设备接收:04 03 0A 09 2C 0D BA 00 00 00 00 00 00 EE 0F
10:37:40.938 设备发送:04 03 04 98 00 05 05 43
10:37:43.933 设备接收:04 03 0A 09 39 0D A7 00 00 00 00 00 00 D1 9E
10:37:43.948 设备发送:04 03 04 A3 00 05 74 8E
10:37:46.970 设备接收:04 03 0A 09 3D 0D DC 00 00 00 00 00 00 28 59
10:37:46.985 设备发送:04 03 06 84 00 04 04 FD
10:37:49.991 设备接收:04 03 08 00 00 0C CB 00 0A 36 0A 96 A2
10:37:50.007 设备发送:04 03 04 04 00 01 C4 AE
10:37:53.001 设备接收:04 03 02 00 02 F5 85
10:37:53.016 设备发送:04 03 05 84 00 0F 45 7E
10:37:56.029 设备接收:04 03 1E 20 33 02 25 01 C4 1F E6 01 25 00 EF 20 00 01 13 00 E1 1E 8B 01 F4 01 87 1E 95 02 21 01 AB 4F 07
10:37:56.045 设备发送:04 03 05 93 00 0F F5 7A
10:37:59.039 设备接收:04 03 1E 1E 74 02 3B 01 BD 1E 94 01 14 00 D8 20 66 01 15 00 E6 05 75 00 00 00 00 05 7B 00 06 00 00 11 75
10:37:59.055 设备发送:04 03 05 A2 00 0F A4 B5
10:38:02.093 设备接收:04 03 1E 00 00 00 00 00 00 00 06 00 02 00 00 00 00 00 00 00 00 00 00 00 00 00 00 00 00 00 00 00 00 8C D3
10:38:02.108 设备发送:04 03 05 B1 00 03 55 75
10:38:05.089 设备接收:04 03 06 00 00 00 00 00 00 1E 25
10:38:05.106 设备发送:04 03 04 2B 00 01 F5 67
10:38:08.103 设备接收:04 03 02 02 57 34 DA
10:38:08.119 设备发送:04 03 04 20 00 01 84 A5
10:38:11.141 设备接收:04 03 02 00 2B 34 5B
10:38:11.156 设备发送:04 03 04 05 00 01 95 6E
10:38:14.162 设备接收:04 03 02 00 00 74 44
10:38:14.178 设备发送:05 03 04 84 00 04 04 94
10:38:17.178 设备发送:05 03 04 8D 00 05 15 56
10:38:17.211 设备接收:05 03 08 13 86 0A 0E FF F0 0A 0E F8 1E
10:38:20.191 设备接收:05 03 0A 09 37 0E 36 00 00 00 00 00 00 5F A3
10:38:20.206 设备发送:05 03 04 98 00 05 04 92
10:38:23.199 设备接收:05 03 0A 09 33 0E 32 00 00 00 00 00 00 28 A3
10:38:23.231 设备发送:05 03 04 A3 00 05 75 5F
10:38:26.240 设备接收:05 03 0A 09 41 0E 39 00 00 00 00 00 00 EE C1
10:38:26.256 设备发送:05 03 06 84 00 04 05 2C
10:38:29.254 设备接收:05 03 08 00 00 0D 68 00 0E 9C B7 A8 86
10:38:29.286 设备发送:05 03 04 04 00 01 C5 7F
10:38:32.273 设备接收:05 03 02 00 02 C8 45
10:38:32.289 设备发送:05 03 05 84 00 0F 44 AF
10:38:35.310 设备接收:05 03 1E 1E E3 02 16 01 A6 1C 43 02 1B 01 86 1E 84 01 13 00 D7 1E B7 02 31 01 B9 1F 17 01 0B 00 D4 F9 F3
10:38:35.325 设备发送:05 03 05 93 00 0F F4 AB
10:38:38.321 设备发送:05 03 05 A2 00 0F A5 64
10:38:38.336 设备接收:05 03 1E 1F 24 01 17 00 DE 1E 2A 01 18 00 D8 1D D6 01 1F 00 DB 1E 6C 01 16 00 D8 1E C4 01 19 00 DD 27 6C
10:38:41.332 设备接收:05 03 1E 00 00 00 00 00 00 00 00 00 02 00 00 00 00 00 00 00 00 00 00 00 00 00 00 00 00 00 00 00 00 4A 99
10:38:41.347 设备发送:05 03 05 B1 00 03 54 A4
10:38:44.368 设备接收:05 03 06 00 00 00 00 00 00 13 B5
10:38:44.384 设备发送:05 03 04 2B 00 01 F4 B6
10:38:47.376 设备接收:05 03 02 01 F9 88 56
10:38:47.392 设备发送:05 03 04 20 00 01 85 74
10:38:50.388 设备接收:05 03 02 00 41 89 B4
10:38:50.404 设备发送:05 03 04 05 00 01 94 BF
10:38:53.415 设备接收:05 03 02 00 00 49 84
10:38:53.431 设备发送:06 03 04 84 00 04 04 A7
10:38:56.456 设备接收:06 03 08 13 85 09 1E FF F2 09 1E A5 56
10:38:56.475 设备发送:06 03 04 8D 00 05 15 65
10:38:59.460 设备接收:06 03 0A 09 2D 0C ED 00 00 00 00 00 00 03 D4
10:38:59.476 设备发送:06 03 04 98 00 05 04 A1
10:39:02.469 设备接收:06 03 0A 09 39 0C EE 00 00 00 00 00 00 CF D4
10:39:02.500 设备发送:06 03 04 A3 00 05 75 6C
10:39:05.485 设备接收:06 03 0A 09 3E 0C FB 00 00 00 00 00 00 AD 25
10:39:05.501 设备发送:06 03 06 84 00 04 05 1F
10:39:08.519 设备接收:06 03 08 00 00 0C 36 00 0D 80 4F F6 9C
10:39:08.550 设备发送:06 03 04 04 00 01 C5 4C
10:39:11.528 设备接收:06 03 02 00 02 8C 45
10:39:11.543 设备发送:06 03 05 84 00 0F 44 9C
10:39:14.540 设备接收:06 03 1E 1E DE 01 F7 01 8D 1E 58 02 02 01 8F 1E 24 01 0D 00 D0 1E 6F 01 0E 00 D2 1E C9 01 14 00 D9 AD E2
10:39:14.572 设备发送:06 03 05 93 00 0F F4 98
10:39:17.578 设备接收:06 03 1E 1D 9B 01 09 00 C9 1E 81 01 19 00 DB 1E FC 01 1F 00 E3 1E A8 01 0A 00 D1 1E 85 01 0A 00 D0 CF 0F
10:39:17.609 设备发送:06 03 05 A2 00 0F A5 57
10:39:20.581 设备接收:06 03 1E 00 00 00 00 00 00 00 00 00 07 00 00 00 00 00 00 00 00 00 00 00 00 00 00 00 00 00 00 00 00 AB CC
10:39:20.612 设备发送:06 03 05 B1 00 03 54 97
10:39:23.607 设备接收:06 03 06 00 00 00 00 00 00 07 45
10:39:23.623 设备发送:06 03 04 2B 00 01 F4 85
10:39:26.646 设备接收:06 03 02 01 E6 8D 9E
10:39:26.678 设备发送:06 03 04 20 00 01 85 47
10:39:29.658 设备接收:06 03 02 00 2F 4C 58
10:39:29.673 设备发送:06 03 04 05 00 01 94 8C
10:39:32.664 设备接收:06 03 02 00 00 0D 84
10:39:32.680 设备发送:07 03 04 84 00 04 05 76
10:39:35.713 设备接收:07 03 08 13 89 09 DA FF EF 09 DA 0D EE
10:39:35.729 设备发送:07 03 04 8D 00 05 14 B4
10:39:38.698 设备接收:07 03 0A 09 2D 0D FD 00 00 00 00 00 00 D1 58
10:39:38.730 设备发送:07 03 04 98 00 05 05 70
10:39:41.754 设备接收:07 03 0A 09 36 0D F8 00 00 00 00 00 00 3A A8
10:39:41.770 设备发送:07 03 04 A3 00 05 74 BD
10:39:44.760 设备接收:07 03 0A 09 39 0E 09 00 00 00 00 00 00 DB 82
10:39:44.792 设备发送:07 03 06 84 00 04 04 CE
10:39:47.762 设备接收:07 03 08 00 00 0D 1D 00 0B CD 89 82 B4
10:39:47.777 设备发送:07 03 04 04 00 01 C4 9D
10:39:50.794 设备接收:07 03 02 00 02 B1 85
10:39:50.810 设备发送:07 03 05 84 00 0F 45 4D
10:39:53.819 设备发送:07 03 05 93 00 0F F5 49
10:39:53.850 设备接收:07 03 1E 1E A5 02 25 01 AE 1F 1F 01 0F 00 D8 1D E0 01 17 00 D6 1E 75 01 15 00 D8 1F 0F 01 09 00 D3 A1 7D
10:39:56.841 设备接收:07 03 1E 1E BE 01 17 00 DB 1E BF 01 23 00 E5 1C EC 02 25 01 96 1B 27 01 9C 01 1F 1A 96 01 8D 01 0E 13 2C
10:39:56.857 设备发送:07 03 05 A2 00 0F A4 86
10:39:59.856 设备接收:07 03 1E 00 00 00 00 00 00 00 00 00 05 00 00 00 00 00 00 00 00 00 00 00 00 00 00 00 00 00 00 00 00 E5 EE
10:39:59.887 设备发送:07 03 05 B1 00 03 55 46
10:40:02.883 设备接收:07 03 06 00 00 00 00 00 00 0A D5
10:40:02.903 设备发送:07 03 04 2B 00 01 F5 54
10:40:05.883 设备接收:07 03 02 02 0C 31 21
10:40:05.915 设备发送:07 03 04 20 00 01 84 96
10:40:08.898 设备接收:07 03 02 00 38 31 96
10:40:08.929 设备发送:07 03 04 05 00 01 95 5D
10:40:11.926 设备接收:07 03 02 00 00 30 44
10:40:11.973 设备发送:08 03 04 84 00 04 05 89
10:40:14.985 设备接收:08 03 08 13 85 07 E0 FF F0 07 E0 9D 64
10:40:15.001 设备发送:08 03 04 8D 00 05 14 4B
10:40:17.988 设备接收:08 03 0A 09 2C 0B 35 00 00 00 00 00 00 01 21
10:40:18.004 设备发送:08 03 04 98 00 05 05 8F
10:40:21.014 设备接收:08 03 0A 09 34 0B 34 00 00 00 00 00 00 BB E1
10:40:21.046 设备发送:08 03 04 A3 00 05 74 42
10:40:24.024 设备接收:08 03 0A 09 3A 0B 55 00 00 00 00 00 00 87 47
10:40:24.040 设备发送:08 03 06 84 00 04 04 31
10:40:27.066 设备接收:08 03 08 00 00 0A 89 00 0D 22 C2 6E CC
10:40:27.082 设备发送:08 03 04 04 00 01 C4 62
10:40:30.057 设备接收:08 03 02 00 02 E5 84
10:40:30.073 设备发送:08 03 05 84 00 0F 45 B2
10:40:33.065 设备接收:08 03 1E 20 FE 01 CF 01 87 21 03 01 BD 01 78 20 C4 01 A7 01 63 05 02 00 00 00 00 1E C7 01 C7 01 67 D9 F2
10:40:33.081 设备发送:08 03 05 93 00 0F F5 B6
10:40:36.102 设备接收:08 03 1E 1F 0B 01 B5 01 5B 1F 06 01 A8 01 51 04 FB 00 00 00 00 04 FB 00 00 00 00 04 FA 00 00 00 00 88 25
10:40:36.118 设备发送:08 03 05 A2 00 0F A4 79
10:40:39.127 设备接收:08 03 1E 00 00 00 00 00 00 00 01 00 02 00 00 00 00 00 00 00 00 00 00 00 00 00 00 00 00 00 00 00 00 3A C7
10:40:39.143 设备发送:08 03 05 B1 00 03 55 B9
10:40:42.149 设备接收:08 03 06 00 00 00 00 00 00 4B 25
10:40:42.181 设备发送:08 03 04 2B 00 01 F5 AB
10:40:45.174 设备接收:08 03 02 02 90 65 49
10:40:45.191 设备发送:08 03 04 20 00 01 84 69
10:40:48.189 设备接收:08 03 02 00 28 64 5B
10:40:48.203 设备发送:08 03 04 05 00 01 95 A2
10:40:51.230 设备接收:08 03 02 00 00 64 45
10:40:51.246 设备发送:09 03 04 84 00 04 04 58
10:40:54.225 设备接收:09 03 08 13 8B 08 F5 FF EF 08 F5 8E 9D
10:40:54.241 设备发送:09 03 04 8D 00 05 15 9A
10:40:57.236 设备接收:09 03 0A 09 36 0C B7 00 00 00 00 00 00 53 2E
10:40:57.268 设备发送:09 03 04 98 00 05 04 5E
10:41:00.265 设备接收:09 03 0A 09 32 0C B9 00 00 00 00 00 00 8E 2E
10:41:00.281 设备发送:09 03 04 A3 00 05 75 93
10:41:03.302 设备接收:09 03 0A 09 3F 0C DD 00 00 00 00 00 00 F3 78
10:41:03.318 设备发送:09 03 06 84 00 04 05 E0
10:41:06.317 设备接收:09 03 08 00 00 0B F0 00 0F 0D 08 CB 8C
10:41:06.333 设备发送:09 03 04 04 00 01 C5 B3
10:41:09.341 设备接收:09 03 02 00 02 D8 44
10:41:09.372 设备发送:09 03 05 84 00 0F 44 63
10:41:12.368 设备接收:09 03 1E 1E D2 01 C1 01 63 1E 61 01 EA 01 7D 1E BE 01 BD 01 5E 1F 1F 00 D6 00 AB 1E E9 01 AF 01 55 C2 09
10:41:12.400 设备发送:09 03 05 93 00 0F F4 67
10:41:15.398 设备接收:09 03 1E 1E D4 01 BA 01 5D 1F 87 01 A6 01 55 1E C0 00 DE 00 AF 05 66 00 04 00 00 05 6B 00 00 00 00 9A 2F
10:41:15.418 设备发送:09 03 05 A2 00 0F A5 A8
10:41:18.390 设备接收:09 03 1E 00 07 00 00 00 00 00 04 00 02 00 00 00 00 00 00 00 00 00 00 00 00 00 00 00 00 00 00 00 00 E8 6D
10:41:18.406 设备发送:09 03 05 B1 00 03 54 68
10:41:21.405 设备接收:09 03 06 00 00 00 00 00 00 46 B5
10:41:21.436 设备发送:09 03 04 2B 00 01 F4 7A
10:41:24.461 设备接收:09 03 02 02 62 D9 0C
10:41:24.477 设备发送:09 03 04 20 00 01 85 B8
10:41:27.455 设备接收:09 03 02 00 2F 18 59
10:41:27.471 设备发送:09 03 04 05 00 01 94 73
10:41:30.480 设备接收:09 03 02 00 00 59 85
10:41:30.496 设备发送:0A 03 04 84 00 04 04 6B
10:41:33.517 设备接收:0A 03 08 13 8B 08 81 00 14 08 82 30 11
10:41:33.532 设备发送:0A 03 04 8D 00 05 15 A9
10:41:36.507 设备接收:0A 03 0A 09 30 0C 15 00 00 00 00 00 00 FE 87
10:41:36.539 设备发送:0A 03 04 98 00 05 04 6D
10:41:39.549 设备接收:0A 03 0A 09 39 0C 1E 00 00 00 00 00 00 2E 17
10:41:39.580 设备发送:0A 03 04 A3 00 05 75 A0
10:41:42.582 设备接收:0A 03 0A 09 3F 0C 3D 00 00 00 00 00 00 17 75
10:41:42.597 设备发送:0A 03 06 84 00 04 05 D3
10:41:45.605 设备接收:0A 03 08 00 00 0B 78 00 0D E2 56 48 DF
10:41:45.620 设备发送:0A 03 04 04 00 01 C5 80
10:41:48.590 设备接收:0A 03 02 00 02 9C 44
10:41:48.650 设备发送:0A 03 05 84 00 0F 44 50
10:41:51.632 设备接收:0A 03 1E 1F 3E 01 DD 01 7E 1E BD 01 CC 01 6A 1F 07 01 BF 01 63 1E F7 01 CF 01 6F 1F 60 01 D3 01 77 0E 38
10:41:51.647 设备发送:0A 03 05 93 00 0F F4 54
10:41:54.676 设备接收:0A 03 1E 1F 4C 01 C0 01 67 1E E1 00 E1 00 B2 05 1D 00 00 00 00 05 2E 00 04 00 00 05 2C 00 00 00 00 1F 3F
10:41:54.692 设备发送:0A 03 05 A2 00 0F A5 9B
10:41:57.674 设备发送:0A 03 05 B1 00 03 54 5B
10:41:57.706 设备接收:0A 03 1E 00 0B 00 00 00 00 00 09 00 02 00 00 00 00 00 00 00 00 00 00 00 00 00 00 00 00 00 00 00 00 C4 AD
10:42:00.690 设备接收:0A 03 06 00 00 00 00 00 00 52 45
10:42:00.717 设备发送:0A 03 04 2B 00 01 F4 49
10:42:03.723 设备接收:0A 03 02 02 41 DC D5
10:42:03.738 设备发送:0A 03 04 20 00 01 85 8B
10:42:06.720 设备接收:0A 03 02 00 35 DD 92
10:42:06.751 设备发送:0A 03 04 05 00 01 94 40
10:42:09.742 设备接收:0A 03 02 00 00 1D 85
10:42:09.777 设备发送:0B 03 04 84 00 04 05 BA
10:42:12.781 设备接收:0B 03 08 13 8B 03 56 FF D4 03 59 36 C7
10:42:12.797 设备发送:0B 03 04 8D 00 05 14 78
10:42:15.790 设备接收:0B 03 0A 09 47 04 B3 00 00 00 00 00 00 78 58
10:42:15.821 设备发送:0B 03 04 98 00 05 05 BC
10:42:18.810 设备接收:0B 03 0A 09 45 04 B8 00 00 00 00 00 00 DB F8
10:42:18.826 设备发送:0B 03 04 A3 00 05 74 71
10:42:21.853 设备接收:0B 03 0A 09 48 04 B4 00 00 00 00 00 00 4F 68
10:42:21.870 设备发送:0B 03 06 84 00 04 04 02
10:42:24.874 设备接收:0B 03 08 00 00 04 76 00 04 A4 96 C7 2F
10:42:24.890 设备发送:0B 03 04 04 00 01 C4 51
10:42:27.854 设备接收:0B 03 02 00 02 A1 84
10:42:27.916 设备发送:0B 03 05 84 00 0F 45 81
10:42:30.911 设备接收:0B 03 1E 1E B0 01 BF 01 5F 1D 9B 01 15 00 D2 1D 8C 00 E4 00 AC 1D 3A 00 FA 00 BB 00 00 00 00 00 00 32 9A
10:42:30.928 设备发送:0B 03 05 93 00 0F F5 85
10:42:33.928 设备接收:0B 03 1E 00 00 00 00 00 00 00 00 00 00 00 00 00 00 00 00 00 00 00 00 00 00 00 00 00 00 00 00 00 00 60 B9
10:42:33.959 设备发送:0B 03 05 A2 00 0F A4 4A
10:42:36.965 设备接收:0B 03 1E 00 00 00 00 00 00 00 00 00 00 00 00 00 00 00 00 00 00 00 00 00 00 00 00 00 00 00 00 00 00 60 B9
10:42:36.997 设备发送:0B 03 05 B1 00 03 55 8A
10:42:39.984 设备接收:0B 03 06 00 00 00 00 00 00 5F D5
10:42:40.000 设备发送:0B 03 04 2B 00 01 F5 98
10:42:42.996 设备接收:0B 03 02 01 88 21 B3
10:42:43.027 设备发送:0B 03 04 20 00 01 84 5A
10:42:46.019 设备接收:0B 03 02 00 13 61 88
10:42:46.035 设备发送:0B 03 04 05 00 01 95 91
10:42:49.051 设备接收:0B 03 02 00 00 20 45
10:42:49.082 设备发送:0C 03 04 84 00 04 04 0D
10:42:52.089 设备接收:0C 03 08 13 85 02 A0 FF D3 02 A7 3B 66
10:42:52.105 设备发送:0C 03 04 8D 00 05 15 CF
10:42:55.078 设备接收:0C 03 0A 09 45 03 B9 00 00 00 00 00 00 81 99
10:42:55.094 设备发送:0C 03 04 98 00 05 04 0B
10:42:58.101 设备接收:0C 03 0A 09 43 03 BF 00 00 00 00 00 00 CC 39
10:42:58.116 设备发送:0C 03 04 A3 00 05 75 C6
10:43:01.143 设备接收:0C 03 0A 09 46 03 B8 00 00 00 00 00 00 85 A9
10:43:01.174 设备发送:0C 03 06 84 00 04 05 B5
10:43:04.160 设备接收:0C 03 08 00 00 03 90 00 04 0F 4C 2B 91
10:43:04.192 设备发送:0C 03 04 04 00 01 C5 E6
10:43:07.160 设备接收:0C 03 02 00 02 14 44
10:43:07.176 设备发送:0C 03 05 84 00 0F 44 36
10:43:10.202 设备接收:0C 03 1E 1C D0 01 C9 01 51 1E 9B 01 CA 01 67 04 8B 00 01 00 00 0D 63 00 00 00 00 00 00 00 00 00 00 9E F4
10:43:10.218 设备发送:0C 03 05 93 00 0F F4 32
10:43:13.249 设备接收:0C 03 1E 00 00 00 00 00 00 00 00 00 00 00 00 00 00 00 00 00 00 00 00 00 00 00 00 00 00 00 00 00 00 65 78
10:43:13.264 设备发送:0C 03 05 A2 00 0F A5 FD
10:43:16.271 设备接收:0C 03 1E 00 00 00 00 00 00 00 00 00 00 00 00 00 00 00 00 00 00 00 00 00 00 00 00 00 00 00 00 00 00 65 78
10:43:16.287 设备发送:0C 03 05 B1 00 03 54 3D
10:43:19.258 设备接收:0C 03 06 00 00 00 00 00 00 79 E5
10:43:19.275 设备发送:0C 03 04 2B 00 01 F4 2F
10:43:22.266 设备接收:0C 03 02 01 83 D5 B4
10:43:22.328 设备发送:0C 03 04 20 00 01 85 ED
10:43:25.321 设备接收:0C 03 02 00 23 D4 5C
10:43:25.340 设备发送:0C 03 04 05 00 01 94 26
10:43:28.336 设备接收:0C 03 02 00 00 95 85
10:43:28.352 设备发送:01 03 04 84 00 04 05 10
10:43:31.363 设备接收:01 03 08 13 85 05 8D 00 00 05 8D EF 79
10:43:31.407 设备发送:01 03 04 8D 00 05 14 D2
10:43:34.362 设备接收:01 03 0A 09 30 07 EA 00 00 00 00 00 00 AA B0
10:43:34.393 设备发送:01 03 04 98 00 05 05 16
10:43:37.383 设备接收:01 03 0A 09 32 07 F5 00 00 00 00 00 00 5D 11
10:43:37.414 设备发送:01 03 04 A3 00 05 74 DB
10:43:40.414 设备接收:01 03 0A 09 38 08 06 00 00 00 00 00 00 A0 FE
10:43:40.430 设备发送:01 03 06 84 00 04 04 A8
10:43:43.430 设备接收:01 03 08 00 00 07 3C 00 04 62 FB ED 47
10:43:43.460 设备发送:01 03 04 04 00 01 C4 FB
10:43:46.446 设备接收:01 03 02 00 02 39 85
10:43:46.462 设备发送:01 03 05 84 00 0F 45 2B
10:43:49.483 设备接收:01 03 1E 03 8A 00 00 00 00 03 8C 00 00 00 00 1A B8 05 9C 03 D6 03 86 00 00 00 00 03 80 00 00 00 00 8F 9C
10:43:49.514 设备发送:01 03 05 93 00 0F F5 2F
10:43:52.478 设备接收:01 03 1E 1D D2 02 C4 02 1C 03 74 00 00 00 00 03 80 00 00 00 00 03 7E 00 00 00 00 03 82 00 00 00 00 2B 2D
10:43:52.510 设备发送:01 03 05 A2 00 0F A4 E0
10:43:55.508 设备接收:01 03 1E 00 02 00 00 00 00 00 01 00 00 00 00 00 00 00 00 00 00 00 00 00 00 00 00 00 00 00 00 00 00 95 25
10:43:55.555 设备发送:01 03 05 B1 00 03 55 20
10:43:58.550 设备接收:01 03 06 00 00 00 00 00 00 21 75
10:43:58.598 设备发送:01 03 04 2B 00 01 F5 32
10:44:01.558 设备接收:01 03 02 02 E7 F9 6E
10:44:01.574 设备发送:01 03 04 20 00 01 84 F0
10:44:04.594 设备接收:01 03 02 00 24 B8 5F
10:44:04.609 设备发送:01 03 04 05 00 01 95 3B
10:44:07.596 设备接收:01 03 02 00 00 B8 44
10:44:07.611 设备发送:02 03 04 84 00 04 05 23
10:44:10.639 设备接收:02 03 08 13 85 0F 0D FF 9F 0F 0F 67 B2
10:44:10.655 设备发送:02 03 04 8D 00 05 14 E1
10:44:13.650 设备接收:02 03 0A 09 40 15 40 00 00 00 00 00 00 40 6E
10:44:13.666 设备发送:02 03 04 98 00 05 05 25
10:44:16.657 设备接收:02 03 0A 09 3C 15 39 00 00 00 00 00 00 98 6B
10:44:16.689 设备发送:02 03 04 A3 00 05 74 E8
10:44:19.704 设备接收:02 03 0A 09 43 15 39 00 00 00 00 00 00 BC 59
10:44:19.735 设备发送:02 03 06 84 00 04 04 9B
10:44:22.719 设备接收:02 03 08 00 00 13 22 00 0C CF E3 B4 4D
10:44:22.734 设备发送:02 03 04 04 00 01 C4 C8
10:44:25.743 设备接收:02 03 02 00 02 7D 85
10:44:25.775 设备发送:02 03 05 84 00 0F 45 18
10:44:28.759 设备接收:02 03 1E 1D 29 04 66 03 49 1D D5 02 C4 02 1C 04 63 00 00 00 00 04 64 00 00 00 00 1D B7 05 58 04 11 D4 D8
10:44:28.807 设备发送:02 03 05 93 00 0F F5 1C
10:44:31.788 设备接收:02 03 1E 1D 98 05 65 04 16 1D 84 02 B1 02 08 04 62 00 05 00 00 04 65 00 00 00 00 04 60 00 00 00 00 70 D4
10:44:31.836 设备发送:02 03 05 A2 00 0F A4 D3
10:44:34.800 设备接收:02 03 1E 00 00 00 00 00 00 00 01 00 06 00 00 00 00 00 00 00 00 00 00 00 00 00 00 00 00 00 00 00 00 C7 40
10:44:34.816 设备发送:02 03 05 B1 00 03 55 13
10:44:37.828 设备接收:02 03 06 00 00 00 00 00 00 35 85
10:44:37.844 设备发送:02 03 04 2B 00 01 F5 01
10:44:40.827 设备接收:02 03 02 02 D3 BC B9
10:44:40.851 设备发送:02 03 04 20 00 01 84 C3
10:44:43.869 设备接收:02 03 02 00 2A 7D 9B
10:44:43.886 设备发送:02 03 04 05 00 01 95 08
10:44:46.904 设备接收:02 03 02 00 00 FC 44
10:44:46.919 设备发送:03 03 04 84 00 04 04 F2
10:44:49.902 设备接收:03 03 08 13 85 14 B8 FF D0 14 B9 57 EE
10:44:49.918 设备发送:03 03 04 8D 00 05 15 30
10:44:52.915 设备接收:03 03 0A 09 48 1D 1B 00 00 00 00 00 00 CE 4C
10:44:52.931 设备发送:03 03 04 98 00 05 04 F4
10:44:55.928 设备接收:03 03 0A 09 45 1D 2A 00 00 00 00 00 00 B6 1F
10:44:55.944 设备发送:03 03 04 A3 00 05 75 39
10:44:58.941 设备接收:03 03 0A 09 55 1D 2D 00 00 00 00 00 00 0D 1F
10:44:58.957 设备发送:03 03 06 84 00 04 05 4A
10:45:01.992 设备接收:03 03 08 00 00 1E 96 00 10 EC F0 98 8D
10:45:02.024 设备发送:03 03 04 04 00 01 C5 19
10:45:04.996 设备接收:03 03 02 00 02 40 45
10:45:05.028 设备发送:03 03 05 84 00 0F 44 C9
10:45:08.018 设备接收:03 03 1E 1C 25 05 85 03 FA 1C 06 05 8C 03 FB 1C 1E 05 7A 03 F1 1C 31 05 7C 03 F5 1C 07 05 A8 04 0F C4 CE
10:45:08.034 设备发送:03 03 05 93 00 0F F4 CD
10:45:11.038 设备接收:03 03 1E 17 1C 02 E4 01 B6 04 5B 00 01 00 00 04 62 00 00 00 00 04 54 00 02 00 00 04 5F 00 03 00 00 B0 56
10:45:11.054 设备发送:03 03 05 A2 00 0F A5 02
10:45:14.049 设备接收:03 03 1E 00 0D 00 01 00 00 00 06 00 03 00 00 00 00 00 00 00 00 00 00 00 00 00 00 00 00 00 00 00 00 A7 49
10:45:14.080 设备发送:03 03 05 B1 00 03 54 C2
10:45:17.071 设备接收:03 03 06 00 00 00 00 00 00 38 15
10:45:17.086 设备发送:03 03 04 2B 00 01 F4 D0
10:45:20.085 设备接收:03 03 02 02 C3 80 B5
10:45:20.101 设备发送:03 03 04 20 00 01 85 12
10:45:23.114 设备接收:03 03 02 00 24 C1 9F
10:45:23.129 设备发送:03 03 04 05 00 01 94 D9
10:45:26.136 设备接收:03 03 02 00 00 C1 84
10:45:26.167 设备发送:04 03 04 84 00 04 05 45
10:45:29.165 设备接收:04 03 08 13 85 0A 16 FF C1 0A 16 BE 25
10:45:29.181 设备发送:04 03 04 8D 00 05 14 87
10:45:32.184 设备接收:04 03 0A 09 2F 0E 54 00 00 00 00 00 00 B4 E4
10:45:32.200 设备发送:04 03 04 98 00 05 05 43
10:45:35.192 设备接收:04 03 0A 09 40 0E 30 00 00 00 00 00 00 78 D0
10:45:35.208 设备发送:04 03 04 A3 00 05 74 8E
10:45:38.222 设备接收:04 03 0A 09 3F 0E 67 00 00 00 00 00 00 7A 27
10:45:38.254 设备发送:04 03 06 84 00 04 04 FD
10:45:41.235 设备接收:04 03 08 00 00 0E 15 00 0A 36 2B FF 4B
10:45:41.250 设备发送:04 03 04 04 00 01 C4 AE
10:45:44.270 设备接收:04 03 02 00 02 F5 85
10:45:44.286 设备发送:04 03 05 84 00 0F 45 7E
10:45:47.287 设备接收:04 03 1E 20 54 02 39 01 D7 20 B3 01 2A 00 F9 20 B5 01 17 00 E9 1D EA 02 18 01 9A 1E 68 02 3A 01 BC B4 2E
10:45:47.303 设备发送:04 03 05 93 00 0F F5 7A
10:45:50.281 设备接收:04 03 1E 1E 43 02 56 01 CF 1E DD 01 18 00 DD 1F 7C 01 2C 00 F2 05 77 00 00 00 00 05 7E 00 05 00 00 DA 7A
10:45:50.312 设备发送:04 03 05 A2 00 0F A4 B5
10:45:53.320 设备接收:04 03 1E 00 00 00 00 00 00 00 05 00 02 00 00 00 00 00 00 00 00 00 00 00 00 00 00 00 00 00 00 00 00 D8 36
10:45:53.336 设备发送:04 03 05 B1 00 03 55 75
10:45:56.327 设备接收:04 03 06 00 00 00 00 00 00 1E 25
10:45:56.359 设备发送:04 03 04 2B 00 01 F5 67
10:45:59.353 设备接收:04 03 02 02 57 34 DA
10:45:59.369 设备发送:04 03 04 20 00 01 84 A5
10:46:02.378 设备接收:04 03 02 00 25 B5 9F
10:46:02.408 设备发送:04 03 04 05 00 01 95 6E
10:46:05.378 设备接收:04 03 02 00 00 74 44
10:46:05.425 设备发送:05 03 04 84 00 04 04 94
10:46:08.422 设备接收:05 03 08 13 85 0A 74 FF C6 0A 74 73 39
10:46:08.437 设备发送:05 03 04 8D 00 05 15 56
10:46:11.429 设备接收:05 03 0A 09 39 0E CE 00 00 00 00 00 00 6A 0C
10:46:11.445 设备发送:05 03 04 98 00 05 04 92
10:46:14.452 设备接收:05 03 0A 09 36 0E E6 00 00 00 00 00 00 83 FE
10:46:14.467 设备发送:05 03 04 A3 00 05 75 5F
10:46:16.60700

