
10:33:09.756 设备接收:01 03 04 42 17 1E B8 57 9D
10:33:09.767 设备发送:02 03 40 01 00 26 80 23
10:33:10.277 设备接收:02 03 4C 42 47 F5 C2 00 00 00 00 41 31 99 9A 41 31 99 9A 41 F8 A3 D7 41 F7 AE 14 41 F8 A3 D7 42 BA 7A E1 BE B8 51 EB BE B8 51 EB BD F5 C2 8F BF B8 51 EB 3F 80 00 00 3F 8E 35 40 3F 8D 4F E0 3F 8E 56 05 43 6A 00 00 43 6A B3 33 43 6A 00 00 08 F9
10:33:10.287 设备发送:02 01 00 01 00 01 AC 39
10:33:10.817 设备接收:02 01 01 01 90 0C
10:33:10.829 设备发送:02 03 64 01 00 02 8A C8
10:33:11.309 设备接收:02 03 04 46 9B B4 80 DB 34
10:33:11.356 设备发送:03 03 40 01 00 26 81 F2
10:33:11.840 设备接收:03 03 4C 42 47 EB 85 00 00 00 00 41 1B 33 33 41 1B 33 33 41 D7 0A 3D 41 D9 EB 85 41 D8 00 00 42 A2 7A E1 BD F5 C2 8F BE B8 51 EB BE 75 C2 8F BF 57 0A 3D 3F 80 00 00 3F 77 4B C7 3F 78 51 EC 3F 76 87 2C 43 69 4C CD 43 6A 66 67 43 6B 00 00 8A 17
10:33:11.855 设备发送:03 01 00 01 00 01 AD E8
10:33:12.369 设备接收:03 01 01 01 91 F0
10:33:12.384 设备发送:03 03 64 01 00 02 8B 19
10:33:12.898 设备接收:03 03 04 46 A3 C1 66 ED 23
10:33:12.914 设备发送:01 03 40 01 00 26 80 10
10:33:13.413 设备接收:01 03 4C 42 47 EB 85 00 00 00 00 3D CC CC CD 41 79 99 9A BD F5 C2 8F C1 AF AE 14 C1 B0 A3 D7 C2 2F 33 33 00 00 00 00 C2 17 33 33 C2 18 28 F6 C2 97 AE 14 BE FF 7C EE 3B A3 D7 0B 3F C6 87 2C 3F C7 6C 8C 43 6A 99 9A 43 6A B3 33 43 6A E6 67 52 F5
10:33:13.428 设备发送:01 01 00 01 00 01 AC 0A
10:33:13.912 设备接收:01 01 01 01 90 48
10:33:13.944 设备发送:01 03 64 01 00 02 8A FB
10:33:14.456 设备接收:01 03 04 42 17 1E B8 57 9D
10:33:14.471 设备发送:02 03 40 01 00 26 80 23
10:33:14.989 设备接收:02 03 4C 42 47 E1 47 00 00 00 00 41 31 99 9A 41 30 00 00 41 F8 A3 D7 41 F7 AE 14 41 F9 99 99 42 BA 7A E1 BE F5 C2 8F BE B8 51 EB BD F5 C2 8F BF 99 99 99 3F 80 00 00 3F 8E 14 7B 3F 8D 2F 1B 3F 8E 97 8E 43 6A 19 9A 43 6A CC CD 43 69 E6 67 80 45
10:33:15.005 设备发送:02 01 00 01 00 01 AC 39
10:33:15.488 设备接收:02 01 01 01 90 0C
10:33:15.520 设备发送:02 03 64 01 00 02 8A C8
10:33:16.003 设备接收:02 03 04 46 9B B4 85 1B 37
10:33:16.012 设备发送:03 03 40 01 00 26 81 F2
10:33:16.15500
10:33:19.01300
10:33:19.01500
10:33:19.02300
10:33:19.04200
10:33:19.089 设备接收:04 03 42 09 20 11 20 00 00 00 00 00 00 00 00 00 00 00 00 00 00 00 00 00 00 09 2E 11 03 00 00 00 00 00 00 00 00 00 00 00 00 00 00 00 00 00 00 09 2D 11 2E 00 00 00 00 00 00 00 00 00 00 00 00 00 00 00 00 00 00 F2 C9
10:33:19.109 设备发送:04 03 06 84 00 04 04 FD
10:33:19.911 设备接收:04 03 08 00 00 0D E7 00 09 83 25 C1 F9
10:33:19.929 设备发送:04 03 04 04 00 01 C4 AE
10:33:20.757 设备接收:04 03 02 00 02 F5 85
10:33:20.773 设备发送:05 03 04 84 00 04 04 94
10:33:21.582 设备接收:05 03 08 13 85 0C 6C FF E1 0C 6C E0 FC
10:33:21.598 设备发送:05 03 04 8D 00 21 15 4D
10:33:22.376 设备接收:05 03 42 09 26 11 C1 00 00 00 00 00 00 00 00 00 00 00 00 00 00 00 00 00 00 09 22 11 CC 00 00 00 00 00 00 00 00 00 00 00 00 00 00 00 00 00 00 09 32 11 C3 00 00 00 00 00 00 00 00 00 00 00 00 00 00 00 00 00 00 4E 45
10:33:22.387 设备发送:05 03 06 84 00 04 05 2C
10:33:23.204 设备接收:05 03 08 00 00 0E 72 00 0D E2 B0 61 15
10:33:23.236 设备发送:05 03 04 04 00 01 C5 7F
10:33:24.004 设备接收:05 03 02 00 02 C8 45
10:33:24.066 设备发送:06 03 04 84 00 04 04 A7
10:33:24.829 设备接收:06 03 08 13 85 0B 62 FF E2 0B 62 F4 3A
10:33:24.876 设备发送:06 03 04 8D 00 21 15 7E
10:33:25.683 设备接收:06 03 42 09 20 10 38 00 00 00 00 00 00 00 00 00 00 00 00 00 00 00 00 00 00 09 2C 10 33 00 00 00 00 00 00 00 00 00 00 00 00 00 00 00 00 00 00 09 2E 10 33 00 00 00 00 00 00 00 00 00 00 00 00 00 00 00 00 00 00 16 E0
10:33:25.697 设备发送:06 03 06 84 00 04 05 1F
10:33:26.478 设备接收:06 03 08 00 00 0F 3F 00 0C D8 3A 81 49
10:33:26.494 设备发送:06 03 04 04 00 01 C5 4C
10:33:27.323 设备接收:06 03 02 00 02 8C 45
10:33:27.339 设备发送:07 03 04 84 00 04 05 76
10:33:28.118 设备接收:07 03 08 13 85 0B F0 FF B4 0B F1 E9 66
10:33:28.163 设备发送:07 03 04 8D 00 21 14 AF
10:33:28.943 设备接收:07 03 42 09 23 11 09 00 00 00 00 00 00 00 00 00 00 00 00 00 00 00 00 00 00 09 2B 11 02 00 00 00 00 00 00 00 00 00 00 00 00 00 00 00 00 00 00 09 2D 11 0F 00 00 00 00 00 00 00 00 00 00 00 00 00 00 00 00 00 00 A3 40
10:33:28.966 设备发送:07 03 06 84 00 04 04 CE
10:33:29.772 设备接收:07 03 08 00 00 10 1E 00 0B 16 F6 DE 29
10:33:29.785 设备发送:07 03 04 04 00 01 C4 9D
10:33:30.596 设备接收:07 03 02 00 02 B1 85
10:33:30.615 设备发送:08 03 04 84 00 04 05 89
10:33:31.408 设备接收:08 03 08 13 85 08 FB FF E7 08 FB 0C 66
10:33:31.431 设备发送:08 03 04 8D 00 21 14 50
10:33:32.239 设备接收:08 03 42 09 1E 0C D7 00 00 00 00 00 00 00 00 00 00 00 00 00 00 00 00 00 00 09 27 0C E4 00 00 00 00 00 00 00 00 00 00 00 00 00 00 00 00 00 00 09 29 0D 05 00 00 00 00 00 00 00 00 00 00 00 00 00 00 00 00 00 00 11 32
10:33:32.268 设备发送:08 03 06 84 00 04 04 31
10:33:33.053 设备接收:08 03 08 00 00 0B 6C 00 0C 94 24 84 E1
10:33:33.092 设备发送:08 03 04 04 00 01 C4 62
10:33:33.894 设备接收:08 03 02 00 02 E5 84
10:33:33.905 设备发送:09 03 04 84 00 04 04 58
10:33:34.701 设备接收:09 03 08 13 85 0A 2E FF BF 0A 2F 84 46
10:33:34.713 设备发送:09 03 04 8D 00 21 15 81
10:33:35.510 设备接收:09 03 42 09 23 0E 90 00 00 00 00 00 00 00 00 00 00 00 00 00 00 00 00 00 00 09 21 0E 8D 00 00 00 00 00 00 00 00 00 00 00 00 00 00 00 00 00 00 09 30 0E A3 00 00 00 00 00 00 00 00 00 00 00 00 00 00 00 00 00 00 A4 98
10:33:35.531 设备发送:09 03 06 84 00 04 05 E0
10:33:36.342 设备接收:09 03 08 00 00 0C B4 00 0E 6B 95 81 FD
10:33:36.363 设备发送:09 03 04 04 00 01 C5 B3
10:33:37.159 设备接收:09 03 02 00 02 D8 44
10:33:37.179 设备发送:0A 03 04 84 00 04 04 6B
10:33:37.974 设备接收:0A 03 08 13 85 09 AA 00 0B 09 AA CA 4E
10:33:38.015 设备发送:0A 03 04 8D 00 21 15 B2
10:33:38.798 设备接收:0A 03 42 09 1D 0D C8 00 00 00 00 00 00 00 00 00 00 00 00 00 00 00 00 00 00 09 27 0D CE 00 00 00 00 00 00 00 00 00 00 00 00 00 00 00 00 00 00 09 2C 0D E8 00 00 00 00 00 00 00 00 00 00 00 00 00 00 00 00 00 00 9D 49
10:33:38.838 设备发送:0A 03 06 84 00 04 05 D3
10:33:39.637 设备接收:0A 03 08 00 00 0C 81 00 0D 49 17 6A 7C
10:33:39.647 设备发送:0A 03 04 04 00 01 C5 80
10:33:40.457 设备接收:0A 03 02 00 02 9C 44
10:33:40.467 设备发送:0B 03 04 84 00 04 05 BA
10:33:41.271 设备接收:0B 03 08 13 84 03 BD FF DD 03 BE 7D 98
10:33:41.282 设备发送:0B 03 04 8D 00 21 14 63
10:33:42.090 设备接收:0B 03 42 09 36 05 4B 00 00 00 00 00 00 00 00 00 00 00 00 00 00 00 00 00 00 09 33 05 53 00 00 00 00 00 00 00 00 00 00 00 00 00 00 00 00 00 00 09 33 05 44 00 00 00 00 00 00 00 00 00 00 00 00 00 00 00 00 00 00 78 58
10:33:42.132 设备发送:0B 03 06 84 00 04 04 02
10:33:42.918 设备接收:0B 03 08 00 00 04 B6 00 04 69 24 13 DB
10:33:42.940 设备发送:0B 03 04 04 00 01 C4 51
10:33:43.736 设备接收:0B 03 02 00 02 A1 84
10:33:43.746 设备发送:0C 03 04 84 00 04 04 0D
10:33:44.559 设备接收:0C 03 08 13 85 02 F1 FF CC 02 F8 B7 54
10:33:44.581 设备发送:0C 03 04 8D 00 21 15 D4
10:33:45.388 设备接收:0C 03 42 09 32 04 30 00 00 00 00 00 00 00 00 00 00 00 00 00 00 00 00 00 00 09 33 04 38 00 00 00 00 00 00 00 00 00 00 00 00 00 00 00 00 00 00 09 34 04 2F 00 00 00 00 00 00 00 00 00 00 00 00 00 00 00 00 00 00 22 86
10:33:45.396 设备发送:0C 03 06 84 00 04 05 B5
10:33:46.197 设备接收:0C 03 08 00 00 03 DB 00 03 E0 4E F3 AF
10:33:46.217 设备发送:0C 03 04 04 00 01 C5 E6
10:33:47.020 设备接收:0C 03 02 00 02 14 44
10:33:47.029 设备发送:01 03 04 84 00 04 05 10
10:33:47.857 设备接收:01 03 08 13 85 06 B2 FF CF 06 B3 7A 44
10:33:47.869 设备发送:01 03 04 8D 00 21 14 C9
10:33:48.669 设备接收:01 03 42 09 1E 09 9E 00 00 00 00 00 00 00 00 00 00 00 00 00 00 00 00 00 00 09 21 09 A4 00 00 00 00 00 00 00 00 00 00 00 00 00 00 00 00 00 00 09 26 09 B6 00 00 00 00 00 00 00 00 00 00 00 00 00 00 00 00 00 00 AE 63
10:33:48.677 设备发送:01 03 06 84 00 04 04 A8
10:33:49.491 设备接收:01 03 08 00 00 07 D5 00 04 06 D1 1B 8F
10:33:49.501 设备发送:01 03 04 04 00 01 C4 FB
10:33:50.315 设备接收:01 03 02 00 02 39 85
10:33:50.336 设备发送:02 03 04 84 00 04 05 23
10:33:51.123 设备接收:02 03 08 13 86 13 4F FF D4 13 4F 57 C7
10:33:51.135 设备发送:02 03 04 8D 00 21 14 FA
10:33:51.936 设备接收:02 03 42 09 2F 1B 68 00 00 00 00 00 00 00 00 00 00 00 00 00 00 00 00 00 00 09 2B 1B 67 00 00 00 00 00 00 00 00 00 00 00 00 00 00 00 00 00 00 09 37 1B 60 00 00 00 00 00 00 00 00 00 00 00 00 00 00 00 00 00 00 EF 9C
10:33:51.982 设备发送:02 03 06 84 00 04 04 9B
10:33:52.779 设备接收:02 03 08 00 00 16 9B 00 0B C9 4D 1A 1E
10:33:52.788 设备发送:02 03 04 04 00 01 C4 C8
10:33:53.597 设备接收:02 03 02 00 02 7D 85
10:33:53.609 设备发送:03 03 04 84 00 04 04 F2
10:33:54.402 设备接收:03 03 08 13 86 18 E8 FF 68 18 EA 61 36
10:33:54.423 设备发送:03 03 04 8D 00 21 15 2B
10:33:55.246 设备接收:03 03 42 09 35 23 37 00 00 00 00 00 00 00 00 00 00 00 00 00 00 00 00 00 00 09 30 23 35 00 00 00 00 00 00 00 00 00 00 00 00 00 00 00 00 00 00 09 42 23 2E 00 00 00 00 00 00 00 00 00 00 00 00 00 00 00 00 00 00 44 0F
10:33:55.267 设备发送:03 03 06 84 00 04 05 4A
10:33:56.077 设备接收:03 03 08 00 00 24 37 00 0F 7B AE FE 00
10:33:56.088 设备发送:03 03 04 04 00 01 C5 19
10:33:56.889 设备接收:03 03 02 00 02 40 45
10:33:56.909 设备发送:04 03 04 84 00 04 05 45
10:33:57.694 设备接收:04 03 08 13 85 0B F9 FF B0 0B FA 3A 25
10:33:57.713 设备发送:04 03 04 8D 00 21 14 9C
10:33:58.520 设备接收:04 03 42 09 1E 11 23 00 00 00 00 00 00 00 00 00 00 00 00 00 00 00 00 00 00 09 2A 11 06 00 00 00 00 00 00 00 00 00 00 00 00 00 00 00 00 00 00 09 2C 11 37 00 00 00 00 00 00 00 00 00 00 00 00 00 00 00 00 00 00 1C AC
10:33:58.529 设备发送:04 03 06 84 00 04 04 FD
10:33:59.342 设备接收:04 03 08 00 00 0E 09 00 09 83 29 29 D8
10:33:59.363 设备发送:04 03 04 04 00 01 C4 AE
10:34:00.164 设备接收:04 03 02 00 02 F5 85
10:34:00.174 设备发送:05 03 04 84 00 04 04 94
10:34:00.998 设备接收:05 03 08 13 85 0C 84 00 10 0C 84 E1 42
10:34:01.008 设备发送:05 03 04 8D 00 21 15 4D
10:34:01.814 设备接收:05 03 42 09 22 11 D9 00 00 00 00 00 00 00 00 00 00 00 00 00 00 00 00 00 00 09 1D 11 D6 00 00 00 00 00 00 00 00 00 00 00 00 00 00 00 00 00 00 09 2F 11 D5 00 00 00 00 00 00 00 00 00 00 00 00 00 00 00 00 00 00 6E E9
10:34:01.826 设备发送:05 03 06 84 00 04 05 2C
10:34:02.621 设备接收:05 03 08 00 00 0E 95 00 0D E2 B4 54 C0
10:34:02.642 设备发送:05 03 04 04 00 01 C5 7F
10:34:03.438 设备接收:05 03 02 00 02 C8 45
10:34:03.450 设备发送:06 03 04 84 00 04 04 A7

