
11:19:37.675 设备接收:03 01 01 01 91 F0
11:19:37.692 设备发送:03 03 64 01 00 02 8B 19
11:19:38.206 设备接收:03 03 04 46 AA 75 1E 4A 03
11:19:38.215 设备发送:01 03 40 01 00 26 80 10
11:19:38.717 设备接收:01 03 4C 42 47 EB 85 00 00 00 00 3D CC CC CD 41 89 99 9A BD F5 C2 8F C1 C4 CC CD C1 C4 CC CD C2 43 5C 29 00 00 00 00 C2 28 F5 C2 C2 29 EB 85 C2 A9 AE 14 BE FE F9 DC 3B A3 D7 0B 3F DC 08 32 3F DC ED 92 43 6C 4C CD 43 6C B3 33 43 6D 33 33 BB 84
11:19:38.738 设备发送:01 01 00 01 00 01 AC 0A
11:19:39.244 设备接收:01 01 01 01 90 48
11:19:39.260 设备发送:01 03 64 01 00 02 8A FB
11:19:39.777 设备接收:01 03 04 42 2A 28 F6 51 C5
11:19:39.792 设备发送:02 03 40 01 00 26 80 23
11:19:40.276 设备接收:02 03 4C 42 47 EB 85 00 00 00 00 41 41 99 9A 41 41 99 9A 42 08 CC CD 42 08 CC CD 42 09 C2 8F 42 CD EB 85 BE B8 51 EB BE B8 51 EB BD F5 C2 8F BF C7 AE 14 3F 80 00 00 3F 9B 43 96 3F 9A 3D 71 3F 9B C6 A8 43 6B CC CD 43 6C B3 33 43 6C 00 00 96 9F
11:19:40.323 设备发送:02 01 00 01 00 01 AC 39
11:19:40.823 设备接收:02 01 01 01 90 0C
11:19:40.839 设备发送:02 03 64 01 00 02 8A C8
11:19:41.322 设备接收:02 03 04 46 A2 FF EB 7C 26
11:19:41.370 设备发送:03 03 40 01 00 26 81 F2
11:19:41.890 设备接收:03 03 4C 42 47 EB 85 00 00 00 00 41 33 33 33 41 33 33 33 41 FC 7A E1 41 FC 7A E1 41 FD 70 A3 42 BE 14 7B BE B8 51 EB BE F5 C2 8F BD F5 C2 8F BF 38 51 EB 3F 80 00 00 3F 8F 9D B3 3F 8E F9 DC 3F 8E F9 DC 43 6B 19 9A 43 6C 99 9A 43 6D 4C CD 79 EA
11:19:41.958 设备发送:03 01 00 01 00 01 AD E8
11:19:42.398 设备接收:03 01 01 01 91 F0
11:19:42.413 设备发送:03 03 64 01 00 02 8B 19
11:19:42.897 设备接收:03 03 04 46 AA 75 24 CA 10
11:19:42.917 设备发送:01 03 40 01 00 26 80 10
11:19:43.424 设备接收:01 03 4C 42 47 EB 85 00 00 00 00 3D CC CC CD 41 89 99 9A BD F5 C2 8F C1 C5 C2 8F C1 C5 C2 8F C2 43 5C 29 00 00 00 00 C2 28 F5 C2 C2 29 EB 85 C2 AA 28 F6 BE FE 76 C9 3B 83 12 6F 3F DC 49 BB 3F DC ED 92 43 6C 4C CD 43 6C E6 67 43 6D 33 33 44 FB
11:19:43.465 设备发送:01 01 00 01 00 01 AC 0A
11:19:43.972 设备接收:01 01 01 01 90 48
11:19:44.004 设备发送:01 03 64 01 00 02 8A FB
11:19:44.474 设备接收:01 03 04 42 2A 28 F6 51 C5
11:19:44.504 设备发送:02 03 40 01 00 26 80 23
11:19:44.995 设备接收:02 03 4C 42 47 EB 85 00 00 00 00 41 41 99 9A 41 41 99 9A 42 08 CC CD 42 08 CC CD 42 09 C2 8F 42 CE 28 F5 BE F5 C2 8F BE 75 C2 8F BE 75 C2 8F BD F5 C2 8F 3F 80 00 00 3F 9A E1 48 3F 9A 5E 36 3F 9C 08 32 43 6B E6 67 43 6C E6 67 43 6C 19 9A 11 F2
11:19:45.014 设备发送:02 01 00 01 00 01 AC 39
11:19:45.542 设备接收:02 01 01 01 90 0C
11:19:45.574 设备发送:02 03 64 01 00 02 8A C8
11:19:46.028 设备接收:02 03 04 46 A2 FF F6 BC 2F
11:19:46.088 设备发送:03 03 40 01 00 26 81 F2
11:19:46.547 设备接收:03 03 4C 42 47 EB 85 00 00 00 00 41 33 33 33 41 33 33 33 41 FC 7A E1 41 FC 7A E1 41 FE 66 66 42 BD D7 0A BE B8 51 EB BE B8 51 EB BD F5 C2 8F BD F5 C2 8F 3F 80 00 00 3F 8F 9D B3 3F 8E B8 52 3F 8F 5C 29 43 6B 19 9A 43 6C CC CD 43 6D 33 33 63 DF
11:19:46.598 设备发送:03 01 00 01 00 01 AD E8
11:19:47.095 设备接收:03 01 01 01 91 F0
11:19:47.107 设备发送:03 03 64 01 00 02 8B 19
11:19:47.635 设备接收:03 03 04 46 AA 75 2E 4A 17

