10:26:29.313 设备发送:05 03 04 04 00 01 C5 7F
10:26:30.112 设备发送:05 03 04 04 00 01 C5 7F
10:26:30.957 设备发送:0C 03 04 84 00 04 04 0D
10:26:31.769 设备发送:0C 03 04 84 00 04 04 0D
10:26:32.582 设备发送:0C 03 04 84 00 04 04 0D
10:26:33.410 设备发送:0C 03 06 84 00 04 05 B5
10:26:34.221 设备发送:0C 03 06 84 00 04 05 B5
10:26:35.036 设备发送:0C 03 06 84 00 04 05 B5
10:26:35.881 设备发送:0C 03 04 04 00 01 C5 E6
10:26:36.691 设备发送:0C 03 04 04 00 01 C5 E6
10:26:37.500 设备发送:0C 03 04 04 00 01 C5 E6
10:26:38.314 设备发送:01 03 04 84 00 04 05 10
10:26:39.158 设备发送:01 03 04 84 00 04 05 10
10:26:39.970 设备发送:01 03 04 84 00 04 05 10
10:26:40.783 设备发送:01 03 06 84 00 04 04 A8
10:26:41.591 设备发送:01 03 06 84 00 04 04 A8
10:26:42.421 设备发送:01 03 06 84 00 04 04 A8
10:26:43.233 设备接收:01 03 08 00 00 07 4C 00 03 F2 62 B1 27
10:26:43.249 设备发送:01 03 04 04 00 01 C4 FB
10:26:44.059 设备接收:01 03 02 00 02 39 85
10:26:44.075 设备发送:02 03 04 84 00 04 05 23
10:26:44.888 设备发送:02 03 04 84 00 04 05 23
10:26:45.720 设备发送:02 03 04 84 00 04 05 23
10:26:46.512 设备接收:02 03 08 13 8B 12 53 FF D5 12 33 8A AD
10:26:46.528 设备发送:02 03 06 84 00 04 04 9B
10:26:47.338 设备发送:02 03 06 84 00 04 04 9B
10:26:48.151 设备发送:02 03 06 84 00 04 04 9B
10:26:48.982 设备发送:02 03 04 04 00 01 C4 C8
10:26:49.794 设备接收:02 03 02 00 02 7D 85
10:26:49.810 设备发送:03 03 04 84 00 04 04 F2
10:26:50.621 设备接收:03 03 08 13 8A 17 C9 FF CA 17 C9 F4 05
10:26:50.636 设备发送:03 03 06 84 00 04 05 4A
10:26:51.416 设备接收:03 03 08 00 00 20 2B 00 0F 29 B8 92 E8
10:26:51.463 设备发送:03 03 04 04 00 01 C5 19
10:26:52.242 设备接收:03 03 02 00 02 40 45
10:26:52.258 设备发送:05 03 04 84 00 04 04 94
10:26:53.099 设备发送:05 03 04 84 00 04 04 94
10:26:53.909 设备发送:05 03 04 84 00 04 04 94
10:26:54.735 设备发送:05 03 06 84 00 04 05 2C
10:26:55.549 设备发送:05 03 06 84 00 04 05 2C
10:26:56.357 设备发送:05 03 06 84 00 04 05 2C
10:26:57.186 设备发送:05 03 04 04 00 01 C5 7F

