15:34:30.774 设备接收:0C 03 08 00 00 11 4C 00 04 10 AB B1 4A
15:34:30.795 设备发送:0C 03 04 04 00 01 C5 E6
15:34:33.798 设备接收:0C 03 02 00 02 14 44
15:34:33.828 设备发送:0C 03 05 84 00 0F 44 36
15:34:36.812 设备接收:0C 03 1E 1B E1 00 DA 00 9C 1D D3 00 DE 00 A9 05 50 00 00 00 00 0D 15 00 00 00 00 00 00 00 00 00 00 59 7B
15:34:36.827 设备发送:0C 03 05 93 00 0F F4 32
15:34:47.251 设备发送:0C 03 05 A2 00 0F A5 FD 0C 03 05 B1 00 03 54 3D 0C 03 04 2B 00 01 F4 2F
15:34:47.266 设备接收:0C 03 1E 00 00 00 00 00 00 00 00 00 00 00 00 00 00 00 00 00 00 00 00 00 00 00 00 00 00 00 00 00 00 65 78 0C 03 1E 00 00 00 00 00 00 00 00 00 00 00 00 00 00 00 00 00 00 00 00 00 00 00 00 00 00 00 00 00 00 65 78 0C 03 06 00 00 00 00 00 00 79 E5
15:34:48.919 设备接收:0C 03 02 01 83 D5 B4
15:34:48.935 设备发送:0C 03 04 20 00 01 85 ED
15:34:51.939 设备接收:0C 03 02 00 20 94 5D
15:34:51.969 设备发送:0C 03 04 05 00 01 94 26
15:34:54.952 设备接收:0C 03 02 00 00 95 85
15:34:54.983 设备发送:01 03 04 84 00 04 05 10
15:34:57.970 设备接收:01 03 08 13 87 02 39 00 15 02 3A 2E 96
15:34:58.002 设备发送:01 03 04 8D 00 05 14 D2
15:35:00.997 设备接收:01 03 0A 09 1A 03 3D 00 00 00 00 00 00 EB 2F
15:35:01.012 设备发送:01 03 04 98 00 05 05 16
15:35:04.037 设备接收:01 03 0A 09 12 03 62 00 00 00 00 00 00 23 EA
15:35:04.060 设备发送:01 03 04 A3 00 05 74 DB
15:35:07.030 设备接收:01 03 0A 09 18 03 7F 00 00 00 00 00 00 90 4B
15:35:07.046 设备发送:01 03 06 84 00 04 04 A8
15:35:10.092 设备接收:01 03 08 00 00 23 6C 00 04 65 CC 68 49
15:35:10.108 设备发送:01 03 04 04 00 01 C4 FB
15:35:13.091 设备接收:01 03 02 00 02 39 85
15:35:13.107 设备发送:01 03 05 84 00 0F 45 2B
15:35:16.093 设备接收:01 03 1E 03 8B 00 00 00 00 03 8C 00 00 00 00 1B 78 01 FA 01 64 03 86 00 07 00 00 03 80 00 02 00 00 97 F5
15:35:16.109 设备发送:01 03 05 93 00 0F F5 2F
15:35:19.111 设备接收:01 03 1E 1D 81 01 5B 01 06 03 76 00 00 00 00 03 80 00 04 00 00 03 7F 00 03 00 00 03 81 00 00 00 00 F8 13
15:35:19.123 设备发送:01 03 05 A2 00 0F A4 E0
15:35:22.139 设备接收:01 03 1E 00 00 00 00 00 00 00 00 00 00 00 00 00 00 00 00 00 00 00 00 00 00 00 00 00 00 00 00 00 00 D8 BA
15:35:22.157 设备发送:01 03 05 B1 00 03 55 20
15:35:25.181 设备接收:01 03 06 00 00 00 00 00 00 21 75
15:35:25.197 设备发送:01 03 04 2B 00 01 F5 32
15:35:28.178 设备接收:01 03 02 02 E7 F9 6E
15:35:28.194 设备发送:01 03 04 20 00 01 84 F0
15:35:31.207 设备接收:01 03 02 00 2D 78 59
15:35:31.223 设备发送:01 03 04 05 00 01 95 3B
15:35:34.241 设备接收:01 03 02 00 00 B8 44
15:35:34.256 设备发送:02 03 04 84 00 04 05 23
15:35:37.234 设备接收:02 03 08 13 85 06 97 00 0B 06 97 49 35
15:35:37.265 设备发送:02 03 04 8D 00 05 14 E1
15:35:40.295 设备接收:02 03 0A 09 1B 09 6A 00 00 00 00 00 00 45 C6
15:35:40.310 设备发送:02 03 04 98 00 05 05 25
15:35:43.277 设备接收:02 03 0A 09 1D 09 78 00 00 00 00 00 00 5C 67
15:35:43.307 设备发送:02 03 04 A3 00 05 74 E8
15:35:46.314 设备接收:02 03 0A 09 23 09 80 00 00 00 00 00 00 3D C9
15:35:46.330 设备发送:02 03 06 84 00 04 04 9B
15:35:49.325 设备接收:02 03 08 00 00 62 F8 00 0C D7 DF ED 6E
15:35:49.356 设备发送:02 03 04 04 00 01 C4 C8
15:35:52.343 设备接收:02 03 02 00 02 7D 85
15:35:52.359 设备发送:02 03 05 84 00 0F 45 18
15:35:55.390 设备接收:02 03 1E 1D 7A 02 87 01 E8 1D D8 01 6A 01 14 04 55 00 00 00 00 04 56 00 00 00 00 1C 77 02 41 01 A5 F0 25
15:35:55.407 设备发送:02 03 05 93 00 0F F5 1C
15:35:58.386 设备接收:02 03 1E 1B 90 02 5F 01 AC 1A 8C 01 43 00 DB 04 54 00 06 00 00 04 55 00 00 00 00 04 52 00 00 00 00 C6 2E
15:35:58.400 设备发送:02 03 05 A2 00 0F A4 D3
15:36:01.404 设备接收:02 03 1E 00 00 00 00 00 00 00 00 00 04 00 00 00 00 00 00 00 00 00 00 00 00 00 00 00 00 00 00 00 00 29 3E
15:36:01.415 设备发送:02 03 05 B1 00 03 55 13
15:36:04.429 设备接收:02 03 06 00 00 00 00 00 00 35 85
15:36:04.461 设备发送:02 03 04 2B 00 01 F5 01
15:36:07.443 设备接收:02 03 02 02 D3 BC B9
15:36:07.458 设备发送:02 03 04 20 00 01 84 C3
15:36:10.477 设备接收:02 03 02 00 34 FD 93
15:36:10.488 设备发送:02 03 04 05 00 01 95 08

