
16:40:34.040 设备发送:03 03 04 04 00 01 C5 19
16:40:34.874 设备发送:03 03 04 04 00 01 C5 19
16:40:35.685 设备发送:05 03 04 84 00 04 04 94
16:40:36.526 设备发送:05 03 04 84 00 04 04 94
16:40:37.341 设备发送:05 03 04 84 00 04 04 94
16:40:38.151 设备接收:05 03 08 13 85 00 10 FF F5 00 14 F4 DC
16:40:38.166 设备发送:05 03 06 84 00 04 05 2C
16:40:38.947 设备接收:04 03 08 00 00 0B 0C 13 0D 9C 15 D5 C0
16:40:38.963 设备发送:05 03 04 04 00 01 C5 7F
16:40:39.807 设备发送:05 03 04 04 00 01 C5 7F
16:40:40.619 设备发送:05 03 04 04 00 01 C5 7F
16:40:41.435 设备发送:0C 03 04 84 00 04 04 0D
16:40:42.246 设备发送:0C 03 04 84 00 04 04 0D
16:40:43.074 设备发送:0C 03 04 84 00 04 04 0D
16:40:43.886 设备发送:0C 03 06 84 00 04 05 B5
16:40:44.716 设备发送:0C 03 06 84 00 04 05 B5
16:40:45.539 设备发送:0C 03 06 84 00 04 05 B5
16:40:46.350 设备发送:0C 03 04 04 00 01 C5 E6
16:40:47.179 设备发送:0C 03 04 04 00 01 C5 E6
16:40:47.993 设备发送:0C 03 04 04 00 01 C5 E6
16:40:48.807 设备发送:01 03 04 84 00 04 05 10
16:40:49.622 设备接收:01 03 08 13 85 00 0C FF F8 00 0E 20 26
16:40:49.638 设备发送:01 03 06 84 00 04 04 A8
16:40:50.451 设备接收:01 03 08 00 00 07 24 00 03 F1 A7 10 4D
16:40:50.467 设备发送:01 03 04 04 00 01 C4 FB
16:40:51.254 设备接收:01 03 02 00 02 39 85
16:40:51.270 设备发送:02 03 04 84 00 04 05 23
16:40:52.088 设备接收:02 03 08 13 85 00 2B 00 10 00 2E AA 9D
16:40:52.103 设备发送:02 03 06 84 00 04 04 9B
16:40:52.932 设备发送:02 03 06 84 00 04 04 9B
16:40:53.711 设备接收:02 03 08 00 00 14 5F 00 0B 8B B7 5A CE
16:40:53.727 设备发送:02 03 04 04 00 01 C4 C8
16:40:54.540 设备接收:02 03 02 00 02 7D 85
16:40:54.571 设备发送:03 03 04 84 00 04 04 F2
16:40:55.381 设备发送:03 03 04 84 00 04 04 F2
16:40:56.200 设备发送:03 03 04 84 00 04 04 F2
16:40:57.013 设备发送:03 03 06 84 00 04 05 4A
16:40:57.830 设备发送:03 03 06 84 00 04 05 4A
16:40:58.643 设备发送:03 03 06 84 00 04 05 4A
16:40:59.466 设备发送:03 03 04 04 00 01 C5 19
16:41:00.294 设备发送:03 03 04 04 00 01 C5 19
16:41:01.112 设备发送:03 03 04 04 00 01 C5 19
16:41:01.946 设备发送:05 03 04 84 00 04 04 94
16:41:02.756 设备发送:05 03 04 84 00 04 04 94
16:41:03.568 设备接收:05 03 08 13 87 00 13 FF F8 00 15 C3 1F
16:41:03.583 设备发送:05 03 06 84 00 04 05 2C
16:41:04.394 设备发送:05 03 06 84 00 04 05 2C
16:41:05.209 设备发送:05 03 06 84 00 04 05 2C
16:41:06.025 设备发送:05 03 04 04 00 01 C5 7F
16:41:06.834 设备接收:05 03 02 00 02 C8 45
16:41:06.911 设备发送:0C 03 04 84 00 04 04 0D
16:41:07.690 设备发送:0C 03 04 84 00 04 04 0D
16:41:08.505 设备发送:0C 03 04 84 00 04 04 0D
16:41:09.315 设备发送:0C 03 06 84 00 04 05 B5
16:41:10.124 设备发送:0C 03 06 84 00 04 05 B5
16:41:10.31900

