
14:17:21.330 设备接收:05 03 42 09 10 07 3D 00 00 00 00 00 00 00 00 00 00 00 00 00 00 00 00 00 00 09 0F 07 4F 00 00 00 00 00 00 00 00 00 00 00 00 00 00 00 00 00 00 09 1C 07 51 00 00 00 00 00 00 00 00 00 00 00 00 00 00 00 00 00 00 94 F8
14:17:21.344 设备发送:05 03 06 84 00 04 05 2C
14:17:22.133 设备接收:05 03 08 00 00 1F B5 00 0D DD 19 06 0B
14:17:22.144 设备发送:05 03 04 04 00 01 C5 7F
14:17:22.974 设备接收:05 03 02 00 02 C8 45
14:17:22.989 设备发送:06 03 04 84 00 04 04 A7
14:17:23.779 设备接收:06 03 08 13 85 0A 09 00 0B 0A 09 71 BD
14:17:23.795 设备发送:06 03 04 8D 00 21 15 7E
14:17:24.609 设备接收:06 03 42 09 17 0E 63 00 00 00 00 00 00 00 00 00 00 00 00 00 00 00 00 00 00 09 1F 0E 56 00 00 00 00 00 00 00 00 00 00 00 00 00 00 00 00 00 00 09 25 0E 62 00 00 00 00 00 00 00 00 00 00 00 00 00 00 00 00 00 00 12 E4
14:17:24.625 设备发送:06 03 06 84 00 04 05 1F
14:17:25.411 设备接收:06 03 08 00 00 3E 67 00 0C CE 90 2A BA
14:17:25.459 设备发送:06 03 04 04 00 01 C5 4C
14:17:26.247 设备接收:06 03 02 00 02 8C 45
14:17:26.262 设备发送:07 03 04 84 00 04 05 76
14:17:27.085 设备接收:07 03 08 13 85 0A DD FF E2 0A DE E4 ED
14:17:27.100 设备发送:07 03 04 8D 00 21 14 AF
14:17:27.887 设备接收:07 03 42 09 1A 0F 8E 00 00 00 00 00 00 00 00 00 00 00 00 00 00 00 00 00 00 09 20 0F 82 00 00 00 00 00 00 00 00 00 00 00 00 00 00 00 00 00 00 09 23 0F 93 00 00 00 00 00 00 00 00 00 00 00 00 00 00 00 00 00 00 4B FA
14:17:27.903 设备发送:07 03 06 84 00 04 04 CE
14:17:28.719 设备接收:07 03 08 00 00 42 9A 00 0B 0C 8E 28 C7
14:17:28.735 设备发送:07 03 04 04 00 01 C4 9D
14:17:29.550 设备接收:07 03 02 00 02 B1 85
14:17:29.566 设备发送:08 03 04 84 00 04 05 89
14:17:30.388 设备发送:08 03 04 84 00 04 05 89
14:17:31.203 设备发送:08 03 04 84 00 04 05 89
14:17:32.020 设备发送:08 03 04 8D 00 21 14 50
14:17:32.834 设备发送:08 03 04 8D 00 21 14 50
14:17:33.647 设备发送:08 03 04 8D 00 21 14 50
14:17:34.455 设备发送:08 03 06 84 00 04 04 31
14:17:35.284 设备发送:08 03 06 84 00 04 04 31
14:17:36.126 设备发送:08 03 06 84 00 04 04 31
14:17:36.935 设备发送:08 03 04 04 00 01 C4 62
14:17:37.760 设备发送:08 03 04 04 00 01 C4 62
14:17:38.590 设备发送:08 03 04 04 00 01 C4 62
14:17:39.406 设备发送:09 03 04 84 00 04 04 58
14:17:40.217 设备发送:09 03 04 84 00 04 04 58
14:17:41.028 设备发送:09 03 04 84 00 04 04 58
14:17:41.855 设备发送:09 03 04 8D 00 21 15 81
14:17:42.683 设备发送:09 03 04 8D 00 21 15 81
14:17:43.492 设备发送:09 03 04 8D 00 21 15 81
14:17:44.317 设备发送:09 03 06 84 00 04 05 E0
14:17:45.130 设备发送:09 03 06 84 00 04 05 E0
14:17:45.944 设备发送:09 03 06 84 00 04 05 E0
14:17:46.785 设备发送:09 03 04 04 00 01 C5 B3
14:17:47.596 设备发送:09 03 04 04 00 01 C5 B3
14:17:48.422 设备发送:09 03 04 04 00 01 C5 B3
14:17:49.253 设备发送:0A 03 04 84 00 04 04 6B
14:17:50.063 设备发送:0A 03 04 84 00 04 04 6B
14:17:50.874 设备发送:0A 03 04 84 00 04 04 6B
14:17:51.687 设备发送:0A 03 04 8D 00 21 15 B2
14:17:52.515 设备发送:0A 03 04 8D 00 21 15 B2
14:17:53.344 设备发送:0A 03 04 8D 00 21 15 B2
14:17:54.155 设备发送:0A 03 06 84 00 04 05 D3
14:17:54.968 设备发送:0A 03 06 84 00 04 05 D3
14:17:55.793 设备发送:0A 03 06 84 00 04 05 D3
14:17:56.602 设备发送:0A 03 04 04 00 01 C5 80
14:17:57.435 设备发送:0A 03 04 04 00 01 C5 80
14:17:58.235 设备发送:0A 03 04 04 00 01 C5 80
14:17:59.072 设备发送:0B 03 04 84 00 04 05 BA
14:17:59.883 设备发送:0B 03 04 84 00 04 05 BA
14:18:00.709 设备发送:0B 03 04 84 00 04 05 BA
14:18:01.539 设备发送:0B 03 04 8D 00 21 14 63
14:18:02.343 设备发送:0B 03 04 8D 00 21 14 63
14:18:03.174 设备发送:0B 03 04 8D 00 21 14 63
14:18:03.972 设备发送:0B 03 06 84 00 04 04 02
14:18:04.810 设备发送:0B 03 06 84 00 04 04 02
14:18:05.631 设备发送:0B 03 06 84 00 04 04 02
14:18:06.456 设备发送:0B 03 04 04 00 01 C4 51
14:18:07.267 设备发送:0B 03 04 04 00 01 C4 51
14:18:08.091 设备发送:0B 03 04 04 00 01 C4 51
14:18:08.918 设备发送:0C 03 04 84 00 04 04 0D
14:18:09.719 设备发送:0C 03 04 84 00 04 04 0D
14:18:10.542 设备发送:0C 03 04 84 00 04 04 0D
14:18:11.380 设备发送:0C 03 04 8D 00 21 15 D4
14:18:12.174 设备发送:0C 03 04 8D 00 21 15 D4
14:18:13.017 设备发送:0C 03 04 8D 00 21 15 D4
14:18:13.840 设备发送:0C 03 06 84 00 04 05 B5
14:18:14.630 设备发送:0C 03 06 84 00 04 05 B5
14:18:15.465 设备发送:0C 03 06 84 00 04 05 B5
14:18:16.299 设备发送:0C 03 04 04 00 01 C5 E6
14:18:17.092 设备发送:0C 03 04 04 00 01 C5 E6
14:18:17.930 设备发送:0C 03 04 04 00 01 C5 E6
14:18:18.732 设备发送:01 03 04 84 00 04 05 10
14:18:19.557 设备接收:01 03 08 13 85 06 19 FF E9 06 1A 7E 29
14:18:19.568 设备发送:01 03 04 8D 00 21 14 C9
14:18:20.359 设备接收:01 03 42 09 1B 08 BF 00 00 00 00 00 00 00 00 00 00 00 00 00 00 00 00 00 00 09 18 08 C5 00 00 00 00 00 00 00 00 00 00 00 00 00 00 00 00 00 00 09 1E 08 C8 00 00 00 00 00 00 00 00 00 00 00 00 00 00 00 00 00 00 6D 76
14:18:20.379 设备发送:01 03 06 84 00 04 04 A8
14:18:21.202 设备接收:01 03 08 00 00 23 0A 00 04 01 A2 CB 6D
14:18:21.213 设备发送:01 03 04 04 00 01 C4 FB
14:18:22.010 设备接收:01 03 02 00 02 39 85
14:18:22.020 设备发送:02 03 04 84 00 04 05 23
14:18:22.843 设备接收:02 03 08 13 86 11 81 FF D7 11 81 4F 01
14:18:22.851 设备发送:02 03 04 8D 00 21 14 FA
14:18:23.646 设备接收:02 03 42 09 27 18 F3 00 00 00 00 00 00 00 00 00 00 00 00 00 00 00 00 00 00 09 20 18 EC 00 00 00 00 00 00 00 00 00 00 00 00 00 00 00 00 00 00 09 2B 18 EF 00 00 00 00 00 00 00 00 00 00 00 00 00 00 00 00 00 00 A8 A8
14:18:23.688 设备发送:02 03 06 84 00 04 04 9B
14:18:24.473 设备接收:02 03 08 00 00 64 78 00 0B BA 09 F0 19
14:18:24.494 设备发送:02 03 04 04 00 01 C4 C8
14:18:25.308 设备接收:02 03 02 00 02 7D 85
14:18:25.321 设备发送:03 03 04 84 00 04 04 F2
14:18:26.108 设备接收:03 03 08 13 85 16 AB FF CB 16 AB 22 A5
14:18:26.128 设备发送:03 03 04 8D 00 21 15 2B
14:18:26.943 设备接收:03 03 42 09 36 20 15 00 00 00 00 00 00 00 00 00 00 00 00 00 00 00 00 00 00 09 2F 20 12 00 00 00 00 00 00 00 00 00 00 00 00 00 00 00 00 00 00 09 3F 20 13 00 00 00 00 00 00 00 00 00 00 00 00 00 00 00 00 00 00 C2 D5
14:18:26.973 设备发送:03 03 06 84 00 04 05 4A
14:18:27.768 设备接收:03 03 08 00 00 88 F6 00 0F 66 0D 92 94
14:18:27.778 设备发送:03 03 04 04 00 01 C5 19
14:18:28.593 设备接收:03 03 02 00 02 40 45
14:18:28.606 设备发送:04 03 04 84 00 04 05 45
14:18:29.392 设备接收:04 03 08 13 86 05 25 FF F3 05 25 6D F4
14:18:29.414 设备发送:04 03 04 8D 00 21 14 9C
14:18:30.235 设备接收:04 03 42 09 13 07 7B 00 00 00 00 00 00 00 00 00 00 00 00 00 00 00 00 00 00 09 19 07 61 00 00 00 00 00 00 00 00 00 00 00 00 00 00 00 00 00 00 09 20 07 A8 00 00 00 00 00 00 00 00 00 00 00 00 00 00 00 00 00 00 0E E1
14:18:30.246 设备发送:04 03 06 84 00 04 04 FD
14:18:31.056 设备接收:04 03 08 00 00 20 52 00 09 7D 91 0A 49
14:18:31.066 设备发送:04 03 04 04 00 01 C4 AE
14:18:31.859 设备接收:04 03 02 00 02 F5 85
14:18:31.869 设备发送:05 03 04 84 00 04 04 94
14:18:32.689 设备接收:05 03 08 13 87 05 03 FF F7 05 03 B0 14
14:18:32.700 设备发送:05 03 04 8D 00 21 15 4D
14:18:33.489 设备接收:05 03 42 09 13 07 28 00 00 00 00 00 00 00 00 00 00 00 00 00 00 00 00 00 00 09 10 07 3F 00 00 00 00 00 00 00 00 00 00 00 00 00 00 00 00 00 00 09 1E 07 3D 00 00 00 00 00 00 00 00 00 00 00 00 00 00 00 00 00 00 5E 10
14:18:33.512 设备发送:05 03 06 84 00 04 05 2C
14:18:34.315 设备接收:05 03 08 00 00 1F CF 00 0D DD 1C 1F C2
14:18:34.336 设备发送:05 03 04 04 00 01 C5 7F
14:18:35.147 设备接收:05 03 02 00 02 C8 45
14:18:35.156 设备发送:06 03 04 84 00 04 04 A7
14:18:35.975 设备接收:06 03 08 13 87 09 F3 FF E7 09 F4 BA CA
14:18:35.987 设备发送:06 03 04 8D 00 21 15 7E
14:18:36.783 设备接收:06 03 42 09 17 0E 44 00 00 00 00 00 00 00 00 00 00 00 00 00 00 00 00 00 00 09 1D 0E 3B 00 00 00 00 00 00 00 00 00 00 00 00 00 00 00 00 00 00 09 23 0E 46 00 00 00 00 00 00 00 00 00 00 00 00 00 00 00 00 00 00 3B 7F
14:18:36.794 设备发送:06 03 06 84 00 04 05 1F
14:18:37.614 设备接收:06 03 08 00 00 3E 9A 00 0C CE 95 87 6D
14:18:37.635 设备发送:06 03 04 04 00 01 C5 4C
14:18:38.419 设备接收:06 03 02 00 02 8C 45
14:18:38.430 设备发送:07 03 04 84 00 04 05 76
14:18:39.242 设备接收:07 03 08 13 87 0A CD FF E4 0A CD A7 22
14:18:39.255 设备发送:07 03 04 8D 00 21 14 AF
14:18:40.050 设备接收:07 03 42 09 1B 0F 79 00 00 00 00 00 00 00 00 00 00 00 00 00 00 00 00 00 00 09 1E 0F 70 00 00 00 00 00 00 00 00 00 00 00 00 00 00 00 00 00 00 09 22 0F 82 00 00 00 00 00 00 00 00 00 00 00 00 00 00 00 00 00 00 03 1F
14:18:40.071 设备发送:07 03 06 84 00 04 04 CE
14:18:40.890 设备接收:07 03 08 00 00 42 D1 00 0B 0C 93 4C C0
14:18:40.899 设备发送:07 03 04 04 00 01 C4 9D
14:18:41.703 设备接收:07 03 02 00 02 B1 85
14:18:41.723 设备发送:08 03 04 84 00 04 05 89
14:18:42.525 设备发送:08 03 04 84 00 04 05 89
14:18:43.359 设备发送:08 03 04 84 00 04 05 89
14:18:44.170 设备发送:08 03 04 8D 00 21 14 50
14:18:44.993 设备发送:08 03 04 8D 00 21 14 50
14:18:45.802 设备发送:08 03 04 8D 00 21 14 50
14:18:46.632 设备发送:08 03 06 84 00 04 04 31
14:18:47.466 设备发送:08 03 06 84 00 04 04 31
14:18:48.268 设备发送:08 03 06 84 00 04 04 31
14:18:49.106 设备发送:08 03 04 04 00 01 C4 62
14:18:49.906 设备发送:08 03 04 04 00 01 C4 62
14:18:50.734 设备发送:08 03 04 04 00 01 C4 62
14:18:51.568 设备发送:09 03 04 84 00 04 04 58
14:18:52.371 设备发送:09 03 04 84 00 04 04 58
14:18:53.204 设备发送:09 03 04 84 00 04 04 58
14:18:54.011 设备发送:09 03 04 8D 00 21 15 81
14:18:54.847 设备发送:09 03 04 8D 00 21 15 81
14:18:55.643 设备发送:09 03 04 8D 00 21 15 81
14:18:56.474 设备发送:09 03 06 84 00 04 05 E0
14:18:57.307 设备发送:09 03 06 84 00 04 05 E0
14:18:58.115 设备发送:09 03 06 84 00 04 05 E0
14:18:58.942 设备发送:09 03 04 04 00 01 C5 B3
14:18:59.773 设备发送:09 03 04 04 00 01 C5 B3
14:19:00.569 设备发送:09 03 04 04 00 01 C5 B3
14:19:01.405 设备发送:0A 03 04 84 00 04 04 6B
14:19:02.213 设备发送:0A 03 04 84 00 04 04 6B
14:19:03.016 设备发送:0A 03 04 84 00 04 04 6B
14:19:03.851 设备发送:0A 03 04 8D 00 21 15 B2
14:19:04.681 设备发送:0A 03 04 8D 00 21 15 B2
14:19:05.489 设备发送:0A 03 04 8D 00 21 15 B2
14:19:06.316 设备发送:0A 03 06 84 00 04 05 D3
14:19:07.145 设备发送:0A 03 06 84 00 04 05 D3
14:19:07.944 设备发送:0A 03 06 84 00 04 05 D3
14:19:08.774 设备发送:0A 03 04 04 00 01 C5 80
14:19:09.600 设备发送:0A 03 04 04 00 01 C5 80
14:19:10.424 设备发送:0A 03 04 04 00 01 C5 80
14:19:11.221 设备发送:0B 03 04 84 00 04 05 BA
14:19:12.052 设备发送:0B 03 04 84 00 04 05 BA
14:19:12.887 设备发送:0B 03 04 84 00 04 05 BA
14:19:13.684 设备发送:0B 03 04 8D 00 21 14 63
14:19:14.511 设备发送:0B 03 04 8D 00 21 14 63
14:19:15.348 设备发送:0B 03 04 8D 00 21 14 63
14:19:16.149 设备发送:0B 03 06 84 00 04 04 02
14:19:16.988 设备发送:0B 03 06 84 00 04 04 02
14:19:17.778 设备发送:0B 03 06 84 00 04 04 02
14:19:18.614 设备发送:0B 03 04 04 00 01 C4 51
14:19:19.446 设备发送:0B 03 04 04 00 01 C4 51
14:19:20.267 设备发送:0B 03 04 04 00 01 C4 51
14:19:21.072 设备发送:0C 03 04 84 00 04 04 0D
14:19:21.910 设备发送:0C 03 04 84 00 04 04 0D
14:19:22.720 设备发送:0C 03 04 84 00 04 04 0D
14:19:23.539 设备发送:0C 03 04 8D 00 21 15 D4
14:19:24.343 设备发送:0C 03 04 8D 00 21 15 D4
14:19:25.172 设备发送:0C 03 04 8D 00 21 15 D4
14:19:26.006 设备发送:0C 03 06 84 00 04 05 B5
14:19:26.799 设备发送:0C 03 06 84 00 04 05 B5
14:19:27.642 设备发送:0C 03 06 84 00 04 05 B5
14:19:28.472 设备发送:0C 03 04 04 00 01 C5 E6
14:19:29.274 设备发送:0C 03 04 04 00 01 C5 E6
14:19:30.095 设备发送:0C 03 04 04 00 01 C5 E6
14:19:30.931 设备发送:01 03 04 84 00 04 05 10
14:19:31.703 设备接收:01 03 08 13 8B 06 13 00 01 06 13 79 CE
14:19:31.726 设备发送:01 03 04 8D 00 21 14 C9
14:19:32.546 设备接收:01 03 42 09 1B 08 BC 00 00 00 00 00 00 00 00 00 00 00 00 00 00 00 00 00 00 09 18 08 C0 00 00 00 00 00 00 00 00 00 00 00 00 00 00 00 00 00 00 09 1F 08 D6 00 00 00 00 00 00 00 00 00 00 00 00 00 00 00 00 00 00 0D 44
14:19:32.567 设备发送:01 03 06 84 00 04 04 A8
14:19:33.379 设备接收:01 03 08 00 00 23 29 00 04 01 A5 4F 68
14:19:33.398 设备发送:01 03 04 04 00 01 C4 FB
14:19:34.171 设备接收:01 03 02 00 02 39 85
14:19:34.181 设备发送:02 03 04 84 00 04 05 23
14:19:35.002 设备接收:02 03 08 13 8B 11 6A FF 94 11 6B C7 8D
14:19:35.015 设备发送:02 03 04 8D 00 21 14 FA
14:19:35.826 设备接收:02 03 42 09 26 18 D1 00 00 00 00 00 00 00 00 00 00 00 00 00 00 00 00 00 00 09 20 18 CF 00 00 00 00 00 00 00 00 00 00 00 00 00 00 00 00 00 00 09 2B 18 D6 00 00 00 00 00 00 00 00 00 00 00 00 00 00 00 00 00 00 74 4E
14:19:35.835 设备发送:02 03 06 84 00 04 04 9B
14:19:36.654 设备接收:02 03 08 00 00 64 D2 00 0B BA 12 A8 0A
14:19:36.664 设备发送:02 03 04 04 00 01 C4 C8
14:19:37.480 设备接收:02 03 02 00 02 7D 85
14:19:37.492 设备发送:03 03 04 84 00 04 04 F2
14:19:38.276 设备接收:03 03 08 13 8B 16 88 FF CE 16 89 98 BA
14:19:38.298 设备发送:03 03 04 8D 00 21 15 2B
14:19:39.111 设备接收:03 03 42 09 32 1F E1 00 00 00 00 00 00 00 00 00 00 00 00 00 00 00 00 00 00 09 2C 1F F8 00 00 00 00 00 00 00 00 00 00 00 00 00 00 00 00 00 00 09 3B 1F E9 00 00 00 00 00 00 00 00 00 00 00 00 00 00 00 00 00 00 3A F3
14:19:39.122 设备发送:03 03 06 84 00 04 05 4A
14:19:39.922 设备接收:03 03 08 00 00 89 67 00 0F 66 18 AF 57
14:19:39.932 设备发送:03 03 04 04 00 01 C5 19
14:19:40.739 设备接收:03 03 02 00 02 40 45
14:19:40.761 设备发送:04 03 04 84 00 04 05 45
14:19:41.571 设备接收:04 03 08 13 8A 05 1A FF F9 05 1A D5 E3
14:19:41.591 设备发送:04 03 04 8D 00 21 14 9C
14:19:42.378 设备接收:04 03 42 09 16 07 6E 00 00 00 00 00 00 00 00 00 00 00 00 00 00 00 00 00 00 09 18 07 53 00 00 00 00 00 00 00 00 00 00 00 00 00 00 00 00 00 00 09 1E 07 A5 00 00 00 00 00 00 00 00 00 00 00 00 00 00 00 00 00 00 2C 8F
14:19:42.400 设备发送:04 03 06 84 00 04 04 FD
14:19:43.216 设备接收:04 03 08 00 00 20 6C 00 09 7D 94 E3 8F
14:19:43.226 设备发送:04 03 04 04 00 01 C4 AE
14:19:44.035 设备接收:04 03 02 00 02 F5 85
14:19:44.060 设备发送:05 03 04 84 00 04 04 94
14:19:44.841 设备接收:05 03 08 13 8A 04 FA FF E1 04 FA D1 07
14:19:44.852 设备发送:05 03 04 8D 00 21 15 4D
14:19:45.672 设备接收:05 03 42 09 16 07 2C 00 00 00 00 00 00 00 00 00 00 00 00 00 00 00 00 00 00 09 10 07 41 00 00 00 00 00 00 00 00 00 00 00 00 00 00 00 00 00 00 09 1E 07 44 00 00 00 00 00 00 00 00 00 00 00 00 00 00 00 00 00 00 1A 40
14:19:45.694 设备发送:05 03 06 84 00 04 05 2C
14:19:46.480 设备接收:05 03 08 00 00 1F E9 00 0D DD 1E 97 C4
14:19:46.492 设备发送:05 03 04 04 00 01 C5 7F
14:19:47.310 设备接收:05 03 02 00 02 C8 45
14:19:47.319 设备发送:06 03 04 84 00 04 04 A7
14:19:48.127 设备接收:06 03 08 13 89 09 E5 FF E7 09 E5 DC C5
14:19:48.149 设备发送:06 03 04 8D 00 21 15 7E
14:19:48.956 设备接收:06 03 42 09 18 0E 2E 00 00 00 00 00 00 00 00 00 00 00 00 00 00 00 00 00 00 09 1F 0E 26 00 00 00 00 00 00 00 00 00 00 00 00 00 00 00 00 00 00 09 25 0E 30 00 00 00 00 00 00 00 00 00 00 00 00 00 00 00 00 00 00 B6 83
14:19:48.976 设备发送:06 03 06 84 00 04 05 1F
14:19:49.763 设备接收:06 03 08 00 00 3E CD 00 0C CE 9A B2 A5
14:19:49.773 设备发送:06 03 04 04 00 01 C5 4C
14:19:50.594 设备接收:06 03 02 00 02 8C 45
14:19:50.613 设备发送:07 03 04 84 00 04 05 76
14:19:51.419 设备接收:07 03 08 13 89 0A BE FF BC 0A BF 4C DF
14:19:51.439 设备发送:07 03 04 8D 00 21 14 AF
14:19:52.229 设备接收:07 03 42 09 1A 0F 62 00 00 00 00 00 00 00 00 00 00 00 00 00 00 00 00 00 00 09 1D 0F 5A 00 00 00 00 00 00 00 00 00 00 00 00 00 00 00 00 00 00 09 21 0F 67 00 00 00 00 00 00 00 00 00 00 00 00 00 00 00 00 00 00 0B D0
14:19:52.240 设备发送:07 03 06 84 00 04 04 CE
14:19:53.060 设备接收:07 03 08 00 00 43 08 00 0B 0C 99 D0 C5
14:19:53.081 设备发送:07 03 04 04 00 01 C4 9D
14:19:53.866 设备接收:07 03 02 00 02 B1 85
14:19:53.876 设备发送:08 03 04 84 00 04 05 89
14:19:54.706 设备发送:08 03 04 84 00 04 05 89
14:19:55.531 设备发送:08 03 04 84 00 04 05 89
14:19:56.355 设备发送:08 03 04 8D 00 21 14 50
14:19:57.163 设备发送:08 03 04 8D 00 21 14 50
14:19:57.999 设备发送:08 03 04 8D 00 21 14 50
14:19:58.817 设备发送:08 03 06 84 00 04 04 31
14:19:59.617 设备发送:08 03 06 84 00 04 04 31
14:20:00.452 设备发送:08 03 06 84 00 04 04 31
14:20:01.262 设备发送:08 03 04 04 00 01 C4 62
14:20:02.082 设备发送:08 03 04 04 00 01 C4 62
14:20:02.913 设备发送:08 03 04 04 00 01 C4 62
14:20:03.721 设备发送:09 03 04 84 00 04 04 58
14:20:04.527 设备发送:09 03 04 84 00 04 04 58
14:20:05.377 设备发送:09 03 04 84 00 04 04 58
14:20:06.194 设备发送:09 03 04 8D 00 21 15 81
14:20:06.990 设备发送:09 03 04 8D 00 21 15 81
14:20:07.824 设备发送:09 03 04 8D 00 21 15 81
14:20:08.627 设备发送:09 03 06 84 00 04 05 E0
14:20:09.454 设备发送:09 03 06 84 00 04 05 E0
14:20:10.295 设备发送:09 03 06 84 00 04 05 E0
14:20:11.095 设备发送:09 03 04 04 00 01 C5 B3
14:20:11.927 设备发送:09 03 04 04 00 01 C5 B3
14:20:12.753 设备发送:09 03 04 04 00 01 C5 B3
14:20:13.556 设备发送:0A 03 04 84 00 04 04 6B
14:20:14.389 设备发送:0A 03 04 84 00 04 04 6B
14:20:15.214 设备发送:0A 03 04 84 00 04 04 6B
14:20:16.015 设备发送:0A 03 04 8D 00 21 15 B2
14:20:16.840 设备发送:0A 03 04 8D 00 21 15 B2
14:20:17.683 设备发送:0A 03 04 8D 00 21 15 B2
14:20:18.487 设备发送:0A 03 06 84 00 04 05 D3
14:20:19.304 设备发送:0A 03 06 84 00 04 05 D3
14:20:20.137 设备发送:0A 03 06 84 00 04 05 D3
14:20:20.932 设备发送:0A 03 04 04 00 01 C5 80
14:20:21.763 设备发送:0A 03 04 04 00 01 C5 80
14:20:22.593 设备发送:0A 03 04 04 00 01 C5 80
14:20:23.395 设备发送:0B 03 04 84 00 04 05 BA
14:20:24.235 设备发送:0B 03 04 84 00 04 05 BA
14:20:25.036 设备发送:0B 03 04 84 00 04 05 BA
14:20:25.861 设备发送:0B 03 04 8D 00 21 14 63
14:20:26.692 设备发送:0B 03 04 8D 00 21 14 63
14:20:27.492 设备发送:0B 03 04 8D 00 21 14 63
14:20:28.324 设备发送:0B 03 06 84 00 04 04 02
14:20:29.154 设备发送:0B 03 06 84 00 04 04 02
14:20:29.975 设备发送:0B 03 06 84 00 04 04 02
14:20:30.775 设备发送:0B 03 04 04 00 01 C4 51
14:20:31.607 设备发送:0B 03 04 04 00 01 C4 51
14:20:32.432 设备发送:0B 03 04 04 00 01 C4 51
14:20:33.250 设备发送:0C 03 04 84 00 04 04 0D
14:20:34.054 设备发送:0C 03 04 84 00 04 04 0D
14:20:34.888 设备发送:0C 03 04 84 00 04 04 0D
14:20:35.685 设备发送:0C 03 04 8D 00 21 15 D4
14:20:36.520 设备发送:0C 03 04 8D 00 21 15 D4
14:20:37.335 设备发送:0C 03 04 8D 00 21 15 D4
14:20:38.162 设备发送:0C 03 06 84 00 04 05 B5
14:20:38.986 设备发送:0C 03 06 84 00 04 05 B5
14:20:39.792 设备发送:0C 03 06 84 00 04 05 B5
14:20:40.617 设备发送:0C 03 04 04 00 01 C5 E6
14:20:41.449 设备发送:0C 03 04 04 00 01 C5 E6
14:20:42.256 设备发送:0C 03 04 04 00 01 C5 E6
14:20:43.089 设备发送:01 03 04 84 00 04 05 10
14:20:43.870 设备接收:01 03 08 13 88 06 0C FF D1 06 0D 6E E9
14:20:43.890 设备发送:01 03 04 8D 00 21 14 C9
14:20:44.709 设备接收:01 03 42 09 17 08 B9 00 00 00 00 00 00 00 00 00 00 00 00 00 00 00 00 00 00 09 17 08 BB 00 00 00 00 00 00 00 00 00 00 00 00 00 00 00 00 00 00 09 1C 08 D3 00 00 00 00 00 00 00 00 00 00 00 00 00 00 00 00 00 00 83 EE
14:20:44.731 设备发送:01 03 06 84 00 04 04 A8
14:20:45.510 设备接收:01 03 08 00 00 23 48 00 04 01 A8 33 65
14:20:45.559 设备发送:01 03 04 04 00 01 C4 FB
14:20:46.350 设备接收:01 03 02 00 02 39 85
14:20:46.360 设备发送:02 03 04 84 00 04 05 23
14:20:47.178 设备接收:02 03 08 13 89 11 6A 00 19 11 6A 85 B2
14:20:47.189 设备发送:02 03 04 8D 00 21 14 FA
14:20:47.973 设备接收:02 03 42 09 22 18 D8 00 00 00 00 00 00 00 00 00 00 00 00 00 00 00 00 00 00 09 1F 18 D0 00 00 00 00 00 00 00 00 00 00 00 00 00 00 00 00 00 00 09 29 18 D3 00 00 00 00 00 00 00 00 00 00 00 00 00 00 00 00 00 00 75 C6
14:20:47.995 设备发送:02 03 06 84 00 04 04 9B
14:20:48.809 设备接收:02 03 08 00 00 65 2C 00 0B BA 1B 40 09
14:20:48.820 设备发送:02 03 04 04 00 01 C4 C8
14:20:49.638 设备接收:02 03 02 00 02 7D 85
14:20:49.653 设备发送:03 03 04 84 00 04 04 F2
14:20:50.438 设备接收:03 03 08 13 89 16 77 FF 79 16 79 1F 0C
14:20:50.477 设备发送:03 03 04 8D 00 21 15 2B
14:20:51.264 设备接收:03 03 42 09 36 1F C9 00 00 00 00 00 00 00 00 00 00 00 00 00 00 00 00 00 00 09 30 1F D7 00 00 00 00 00 00 00 00 00 00 00 00 00 00 00 00 00 00 09 40 1F CF 00 00 00 00 00 00 00 00 00 00 00 00 00 00 00 00 00 00 D1 D4
14:20:51.284 设备发送:03 03 06 84 00 04 05 4A
14:20:52.108 设备接收:03 03 08 00 00 89 DB 00 0F 66 24 FE 9D
14:20:52.118 设备发送:03 03 04 04 00 01 C5 19
14:20:52.905 设备接收:03 03 02 00 02 40 45
14:20:52.917 设备发送:04 03 04 84 00 04 05 45
14:20:53.738 设备接收:04 03 08 13 8B 05 11 FF FC 05 11 31 24
14:20:53.759 设备发送:04 03 04 8D 00 21 14 9C
14:20:54.536 设备接收:04 03 42 09 15 07 68 00 00 00 00 00 00 00 00 00 00 00 00 00 00 00 00 00 00 09 15 07 49 00 00 00 00 00 00 00 00 00 00 00 00 00 00 00 00 00 00 09 1C 07 91 00 00 00 00 00 00 00 00 00 00 00 00 00 00 00 00 00 00 EA 62
14:20:54.581 设备发送:04 03 06 84 00 04 04 FD
14:20:55.385 设备接收:04 03 08 00 00 20 86 00 09 7D 96 7B 99
14:20:55.406 设备发送:04 03 04 04 00 01 C4 AE
14:20:56.194 设备接收:04 03 02 00 02 F5 85
14:20:56.212 设备发送:05 03 04 84 00 04 04 94
14:20:57.014 设备接收:05 03 08 13 8C 04 EF FF FA 04 F0 4A C4
14:20:57.026 设备发送:05 03 04 8D 00 21 15 4D
14:20:57.835 设备接收:05 03 42 09 15 07 2A 00 00 00 00 00 00 00 00 00 00 00 00 00 00 00 00 00 00 09 11 07 37 00 00 00 00 00 00 00 00 00 00 00 00 00 00 00 00 00 00 09 1F 07 3B 00 00 00 00 00 00 00 00 00 00 00 00 00 00 00 00 00 00 10 80
14:20:57.862 设备发送:05 03 06 84 00 04 05 2C
14:20:58.640 设备接收:05 03 08 00 00 20 02 00 0D DD 21 F6 CC
14:20:58.681 设备发送:05 03 04 04 00 01 C5 7F
14:20:59.477 设备接收:05 03 02 00 02 C8 45
14:20:59.487 设备发送:06 03 04 84 00 04 04 A7
14:21:00.307 设备接收:06 03 08 13 8B 09 C0 FF E6 09 C0 22 D9
14:21:00.319 设备发送:06 03 04 8D 00 21 15 7E
14:21:01.110 设备接收:06 03 42 09 17 0E 05 00 00 00 00 00 00 00 00 00 00 00 00 00 00 00 00 00 00 09 1C 0D FA 00 00 00 00 00 00 00 00 00 00 00 00 00 00 00 00 00 00 09 21 0E 03 00 00 00 00 00 00 00 00 00 00 00 00 00 00 00 00 00 00 FF 77
14:21:01.131 设备发送:06 03 06 84 00 04 05 1F
14:21:01.942 设备接收:06 03 08 00 00 3E FF 00 0C CE 9F 4B 62
14:21:01.962 设备发送:06 03 04 04 00 01 C5 4C
14:21:02.754 设备接收:06 03 02 00 02 8C 45
14:21:02.775 设备发送:07 03 04 84 00 04 05 76
14:21:03.602 设备接收:07 03 08 13 8C 0A 5E FF E6 0A 5E 78 52
14:21:03.612 设备发送:07 03 04 8D 00 21 14 AF
14:21:04.397 设备接收:07 03 42 09 15 0E E9 00 00 00 00 00 00 00 00 00 00 00 00 00 00 00 00 00 00 09 1C 0E E0 00 00 00 00 00 00 00 00 00 00 00 00 00 00 00 00 00 00 09 21 0E F2 00 00 00 00 00 00 00 00 00 00 00 00 00 00 00 00 00 00 66 91
14:21:04.408 设备发送:07 03 06 84 00 04 04 CE
14:21:05.232 设备接收:07 03 08 00 00 43 3F 00 0B 0C 9E 64 C3
14:21:05.252 设备发送:07 03 04 04 00 01 C4 9D
14:21:06.035 设备接收:07 03 02 00 02 B1 85
14:21:06.080 设备发送:08 03 04 84 00 04 05 89
14:21:06.882 设备发送:08 03 04 84 00 04 05 89
14:21:07.719 设备发送:08 03 04 84 00 04 05 89
14:21:08.514 设备发送:08 03 04 8D 00 21 14 50
14:21:09.342 设备发送:08 03 04 8D 00 21 14 50
14:21:10.164 设备发送:08 03 04 8D 00 21 14 50
14:21:11.001 设备发送:08 03 06 84 00 04 04 31
14:21:11.798 设备发送:08 03 06 84 00 04 04 31
14:21:12.43600

