
14:01:55.417 设备发送:0B 03 04 8D 00 21 14 63
14:01:55.420 设备发送:0B 03 04 8D 00 21 14 63
14:01:55.424 设备发送:0B 03 04 8D 00 21 14 63
14:01:55.44400
14:01:55.465 设备发送:0B 03 06 84 00 04 04 02
14:01:56.292 设备发送:0B 03 06 84 00 04 04 02
14:01:57.094 设备发送:0B 03 06 84 00 04 04 02
14:01:57.937 设备发送:0B 03 04 04 00 01 C4 51
14:01:58.763 设备发送:0B 03 04 04 00 01 C4 51
14:01:59.576 设备发送:0B 03 04 04 00 01 C4 51
14:02:00.385 设备发送:0C 03 04 84 00 04 04 0D
14:02:01.224 设备发送:0C 03 04 84 00 04 04 0D
14:02:02.036 设备发送:0C 03 04 84 00 04 04 0D
14:02:02.851 设备发送:0C 03 04 8D 00 21 15 D4
14:02:03.679 设备发送:0C 03 04 8D 00 21 15 D4
14:02:04.491 设备发送:0C 03 04 8D 00 21 15 D4
14:02:05.302 设备发送:0C 03 06 84 00 04 05 B5
14:02:06.132 设备发送:0C 03 06 84 00 04 05 B5
14:02:06.962 设备发送:0C 03 06 84 00 04 05 B5
14:02:07.775 设备发送:0C 03 04 04 00 01 C5 E6
14:02:08.604 设备发送:0C 03 04 04 00 01 C5 E6
14:02:09.418 设备发送:0C 03 04 04 00 01 C5 E6
14:02:10.227 设备发送:01 03 04 84 00 04 05 10
14:02:11.040 设备接收:01 03 08 13 85 06 70 FF CD 06 71 23 C4
14:02:11.056 设备发送:01 03 04 8D 00 21 14 C9
14:02:11.866 设备接收:01 03 42 09 1F 09 49 00 00 00 00 00 00 00 00 00 00 00 00 00 00 00 00 00 00 09 1D 09 47 00 00 00 00 00 00 00 00 00 00 00 00 00 00 00 00 00 00 09 21 09 59 00 00 00 00 00 00 00 00 00 00 00 00 00 00 00 00 00 00 50 7A
14:02:11.882 设备发送:01 03 06 84 00 04 04 A8
14:02:12.697 设备接收:01 03 08 00 00 21 59 00 04 01 76 4E DC
14:02:12.728 设备发送:01 03 04 04 00 01 C4 FB
14:02:13.509 设备接收:01 03 02 00 02 39 85
14:02:13.525 设备发送:02 03 04 84 00 04 05 23
14:02:14.337 设备接收:02 03 08 13 85 12 82 00 18 12 82 78 E8
14:02:14.352 设备发送:02 03 04 8D 00 21 14 FA
14:02:15.164 设备接收:02 03 42 09 27 1A 58 00 00 00 00 00 00 00 00 00 00 00 00 00 00 00 00 00 00 09 24 1A 5C 00 00 00 00 00 00 00 00 00 00 00 00 00 00 00 00 00 00 09 2D 1A 5E 00 00 00 00 00 00 00 00 00 00 00 00 00 00 00 00 00 00 1E F0
14:02:15.180 设备发送:02 03 06 84 00 04 04 9B
14:02:15.962 设备接收:02 03 08 00 00 5F 9C 00 0B B9 8C 45 D7
14:02:16.009 设备发送:02 03 04 04 00 01 C4 C8
14:02:16.788 设备接收:02 03 02 00 02 7D 85
14:02:16.804 设备发送:03 03 04 84 00 04 04 F2
14:02:17.619 设备接收:03 03 08 13 85 18 08 FF CA 18 08 F2 4B
14:02:17.635 设备发送:03 03 04 8D 00 21 15 2B
14:02:18.448 设备接收:03 03 42 09 39 21 F3 00 00 00 00 00 00 00 00 00 00 00 00 00 00 00 00 00 00 09 33 21 F0 00 00 00 00 00 00 00 00 00 00 00 00 00 00 00 00 00 00 09 41 21 F0 00 00 00 00 00 00 00 00 00 00 00 00 00 00 00 00 00 00 C0 78
14:02:18.467 设备发送:03 03 06 84 00 04 05 4A
14:02:19.258 设备接收:03 03 08 00 00 82 AB 00 0F 65 6C BE EB
14:02:19.289 设备发送:03 03 04 04 00 01 C5 19
14:02:20.102 设备接收:03 03 02 00 02 40 45
14:02:20.118 设备发送:04 03 04 84 00 04 05 45
14:02:20.896 设备发送:04 03 04 84 00 04 05 45
14:02:21.738 设备发送:04 03 04 84 00 04 05 45
14:02:22.566 设备发送:04 03 04 8D 00 21 14 9C
14:02:23.376 设备发送:04 03 04 8D 00 21 14 9C
14:02:24.201 设备发送:04 03 04 8D 00 21 14 9C
14:02:25.012 设备发送:04 03 06 84 00 04 04 FD
14:02:25.820 设备发送:04 03 06 84 00 04 04 FD
14:02:26.661 设备发送:04 03 06 84 00 04 04 FD
14:02:27.490 设备发送:04 03 04 04 00 01 C4 AE
14:02:28.298 设备发送:04 03 04 04 00 01 C4 AE
14:02:29.112 设备发送:04 03 04 04 00 01 C4 AE
14:02:29.940 设备发送:05 03 04 84 00 04 04 94
14:02:30.753 设备发送:05 03 04 84 00 04 04 94
14:02:31.595 设备发送:05 03 04 84 00 04 04 94
14:02:32.405 设备发送:05 03 04 8D 00 21 15 4D
14:02:33.217 设备发送:05 03 04 8D 00 21 15 4D
14:02:34.057 设备发送:05 03 04 8D 00 21 15 4D
14:02:34.864 设备发送:05 03 06 84 00 04 05 2C
14:02:35.676 设备发送:05 03 06 84 00 04 05 2C
14:02:36.518 设备发送:05 03 06 84 00 04 05 2C
14:02:37.330 设备发送:05 03 04 04 00 01 C5 7F
14:02:38.140 设备发送:05 03 04 04 00 01 C5 7F
14:02:38.966 设备发送:05 03 04 04 00 01 C5 7F
14:02:39.778 设备发送:06 03 04 84 00 04 04 A7
14:02:40.588 设备发送:06 03 04 84 00 04 04 A7
14:02:41.400 设备发送:06 03 04 84 00 04 04 A7
14:02:42.243 设备发送:06 03 04 8D 00 21 15 7E
14:02:43.072 设备发送:06 03 04 8D 00 21 15 7E
14:02:43.883 设备发送:06 03 04 8D 00 21 15 7E
14:02:44.713 设备发送:06 03 06 84 00 04 05 1F
14:02:45.527 设备发送:06 03 06 84 00 04 05 1F
14:02:46.338 设备发送:06 03 06 84 00 04 05 1F
14:02:47.152 设备发送:06 03 04 04 00 01 C5 4C
14:02:47.979 设备发送:06 03 04 04 00 01 C5 4C
14:02:48.786 设备发送:06 03 04 04 00 01 C5 4C
14:02:49.616 设备发送:07 03 04 84 00 04 05 76
14:02:50.446 设备发送:07 03 04 84 00 04 05 76
14:02:51.253 设备发送:07 03 04 84 00 04 05 76
14:02:52.064 设备发送:07 03 04 8D 00 21 14 AF
14:02:52.904 设备发送:07 03 04 8D 00 21 14 AF
14:02:53.711 设备发送:07 03 04 8D 00 21 14 AF
14:02:54.555 设备发送:07 03 06 84 00 04 04 CE
14:02:55.366 设备发送:07 03 06 84 00 04 04 CE
14:02:56.178 设备发送:07 03 06 84 00 04 04 CE
14:02:56.987 设备发送:07 03 04 04 00 01 C4 9D
14:02:57.830 设备发送:07 03 04 04 00 01 C4 9D
14:02:58.639 设备发送:07 03 04 04 00 01 C4 9D
14:02:59.466 设备发送:08 03 04 84 00 04 05 89
14:03:00.280 设备发送:08 03 04 84 00 04 05 89
14:03:01.106 设备发送:08 03 04 84 00 04 05 89
14:03:01.916 设备发送:08 03 04 8D 00 21 14 50
14:03:02.729 设备发送:08 03 04 8D 00 21 14 50
14:03:03.569 设备发送:08 03 04 8D 00 21 14 50
14:03:04.396 设备发送:08 03 06 84 00 04 04 31
14:03:05.209 设备发送:08 03 06 84 00 04 04 31
14:03:06.018 设备发送:08 03 06 84 00 04 04 31
14:03:06.830 设备发送:08 03 04 04 00 01 C4 62
14:03:07.653 设备发送:08 03 04 04 00 01 C4 62
14:03:08.455 设备发送:08 03 04 04 00 01 C4 62
14:03:09.281 设备发送:09 03 04 84 00 04 04 58
14:03:10.114 设备发送:09 03 04 84 00 04 04 58
14:03:10.36200

