
13:27:12.955 设备发送:03 03 04 84 00 04 04 F2
13:27:13.792 设备发送:03 03 04 84 00 04 04 F2
13:27:14.603 设备发送:03 03 06 84 00 04 05 4A
13:27:15.398 设备发送:03 03 06 84 00 04 05 4A
13:27:16.243 设备发送:03 03 06 84 00 04 05 4A
13:27:17.070 设备发送:03 03 04 04 00 01 C5 19
13:27:17.881 设备发送:03 03 04 04 00 01 C5 19
13:27:18.710 设备发送:03 03 04 04 00 01 C5 19
13:27:19.522 设备发送:05 03 04 84 00 04 04 94
13:27:20.366 设备发送:05 03 04 84 00 04 04 94
13:27:21.177 设备发送:05 03 04 84 00 04 04 94
13:27:21.989 设备发送:05 03 06 84 00 04 05 2C
13:27:22.801 设备发送:05 03 06 84 00 04 05 2C
13:27:23.631 设备发送:05 03 06 84 00 04 05 2C
13:27:24.446 设备发送:05 03 04 04 00 01 C5 7F
13:27:25.276 设备发送:05 03 04 04 00 01 C5 7F
13:27:26.085 设备发送:05 03 04 04 00 01 C5 7F
13:27:26.898 设备发送:0C 03 04 84 00 04 04 0D
13:27:27.724 设备发送:0C 03 04 84 00 04 04 0D
13:27:28.538 设备发送:0C 03 04 84 00 04 04 0D
13:27:29.380 设备发送:0C 03 06 84 00 04 05 B5
13:27:30.194 设备发送:0C 03 06 84 00 04 05 B5
13:27:31.023 设备发送:0C 03 06 84 00 04 05 B5
13:27:31.834 设备发送:0C 03 04 04 00 01 C5 E6
13:27:32.646 设备发送:0C 03 04 04 00 01 C5 E6
13:27:33.463 设备发送:0C 03 04 04 00 01 C5 E6
13:27:34.290 设备发送:01 03 04 84 00 04 05 10
13:27:35.106 设备接收:01 03 08 13 85 00 DC 99 AC 4E D2 60 A8
13:27:35.122 设备发送:01 03 06 84 00 04 04 A8
13:27:35.908 设备发送:01 03 06 84 00 04 04 A8
13:27:36.728 设备接收:01 03 08 00 00 05 2B 00 03 F1 75 C5 F3
13:27:36.743 设备发送:01 03 04 04 00 01 C4 FB
13:27:37.561 设备接收:01 03 02 00 02 39 85
13:27:37.577 设备发送:02 03 04 84 00 04 05 23
13:27:38.392 设备发送:02 03 04 84 00 04 05 23
13:27:39.208 设备发送:02 03 04 84 00 04 05 23
13:27:40.023 设备发送:02 03 06 84 00 04 04 9B
13:27:40.836 设备发送:02 03 06 84 00 04 04 9B
13:27:41.652 设备发送:02 03 06 84 00 04 04 9B
13:27:42.481 设备发送:02 03 04 04 00 01 C4 C8
13:27:43.311 设备发送:02 03 04 04 00 01 C4 C8
13:27:44.119 设备发送:02 03 04 04 00 01 C4 C8
13:27:44.950 设备发送:03 03 04 84 00 04 04 F2
13:27:45.762 设备发送:03 03 04 84 00 04 04 F2
13:27:46.576 设备发送:03 03 04 84 00 04 04 F2
13:27:47.405 设备发送:03 03 06 84 00 04 05 4A
13:27:48.216 设备发送:03 03 06 84 00 04 05 4A
13:27:49.057 设备发送:03 03 06 84 00 04 05 4A
13:27:49.879 设备发送:03 03 04 04 00 01 C5 19
13:27:50.666 设备发送:03 03 04 04 00 01 C5 19
13:27:51.522 设备发送:03 03 04 04 00 01 C5 19
13:27:52.333 设备发送:05 03 04 84 00 04 04 94
13:27:53.142 设备发送:05 03 04 84 00 04 04 94
13:27:53.974 设备发送:05 03 04 84 00 04 04 94
13:27:54.788 设备发送:05 03 06 84 00 04 05 2C
13:27:55.596 设备发送:05 03 06 84 00 04 05 2C
13:27:56.424 设备发送:05 03 06 84 00 04 05 2C
13:27:57.237 设备发送:05 03 04 04 00 01 C5 7F
13:27:58.080 设备发送:05 03 04 04 00 01 C5 7F
13:27:58.897 设备发送:05 03 04 04 00 01 C5 7F
13:27:59.711 设备发送:0C 03 04 84 00 04 04 0D
13:28:00.524 设备发送:0C 03 04 84 00 04 04 0D
13:28:01.351 设备发送:0C 03 04 84 00 04 04 0D
13:28:02.164 设备发送:0C 03 06 84 00 04 05 B5
13:28:02.992 设备发送:0C 03 06 84 00 04 05 B5
13:28:03.819 设备发送:0C 03 06 84 00 04 05 B5
13:28:04.629 设备发送:0C 03 04 04 00 01 C5 E6
13:28:05.445 设备发送:0C 03 04 04 00 01 C5 E6
13:28:06.257 设备发送:0C 03 04 04 00 01 C5 E6
13:28:07.070 设备发送:01 03 04 84 00 04 05 10
13:28:07.898 设备接收:01 03 08 13 85 00 DA FF CB 00 E0 19 B7
13:28:07.913 设备发送:01 03 06 84 00 04 04 A8
13:28:08.715 设备接收:01 03 08 00 00 05 2D 00 03 F1 75 4D F3
13:28:08.730 设备发送:01 03 04 04 00 01 C4 FB
13:28:09.502 设备接收:01 03 02 00 02 39 85
13:28:09.564 设备发送:02 03 04 84 00 04 05 23
13:28:10.379 设备发送:02 03 04 84 00 04 05 23
13:28:11.194 设备发送:02 03 04 84 00 04 05 23
13:28:12.024 设备发送:02 03 06 84 00 04 04 9B
13:28:12.809 设备发送:02 03 06 84 00 04 04 9B
13:28:13.657 设备发送:02 03 06 84 00 04 04 9B
13:28:14.467 设备发送:02 03 04 04 00 01 C4 C8
13:28:15.277 设备发送:02 03 04 04 00 01 C4 C8
13:28:16.118 设备发送:02 03 04 04 00 01 C4 C8
13:28:16.912 设备发送:03 03 04 84 00 04 04 F2
13:28:17.723 设备发送:03 03 04 84 00 04 04 F2
13:28:18.546 设备发送:03 03 04 84 00 04 04 F2
13:28:19.365 设备发送:03 03 06 84 00 04 05 4A
13:28:20.197 设备发送:03 03 06 84 00 04 05 4A
13:28:21.028 设备发送:03 03 06 84 00 04 05 4A
13:28:21.841 设备发送:03 03 04 04 00 01 C5 19
13:28:22.648 设备发送:03 03 04 04 00 01 C5 19
13:28:23.471 设备发送:03 03 04 04 00 01 C5 19
13:28:24.303 设备发送:05 03 04 84 00 04 04 94
13:28:25.125 设备发送:05 03 04 84 00 04 04 94
13:28:25.932 设备发送:05 03 04 84 00 04 04 94

