
10:13:08.719 设备接收:04 03 02 00 00 74 44
10:13:08.730 设备发送:05 03 04 84 00 04 04 94
10:13:11.726 设备接收:05 03 08 13 8A 08 8D FF D2 08 8E D0 E8
10:13:11.741 设备发送:05 03 04 8D 00 05 15 56
10:13:14.763 设备接收:05 03 0A 09 2D 0C 2F 00 00 00 00 00 00 E5 DB
10:13:14.778 设备发送:05 03 04 98 00 05 04 92
10:13:17.785 设备接收:05 03 0A 09 2C 0C 38 00 00 00 00 00 00 8F 4A
10:13:17.801 设备发送:05 03 04 A3 00 05 75 5F
10:13:20.781 设备接收:05 03 0A 09 3A 0C 39 00 00 00 00 00 00 79 EA
10:13:20.812 设备发送:05 03 06 84 00 04 05 2C
10:13:23.840 设备接收:05 03 08 00 00 09 80 00 0E 9C 53 C9 5E
10:13:23.856 设备发送:05 03 04 04 00 01 C5 7F
10:13:26.816 设备接收:05 03 02 00 02 C8 45
10:13:26.863 设备发送:05 03 05 84 00 0F 44 AF
10:13:29.843 设备接收:05 03 1E 1F 32 01 C5 01 6A 1D FB 01 B4 01 4F 1E D1 00 EF 00 BD 1F 07 01 E4 01 81 1F 65 00 E0 00 B4 95 92
10:13:29.873 设备发送:05 03 05 93 00 0F F4 AB
10:13:32.915 设备接收:05 03 1E 1E CB 00 F9 00 C4 1E 77 00 EE 00 B9 1D D3 00 FB 00 BF 1F 11 00 E9 00 B9 1E BE 00 F3 00 C0 2B DF
10:13:32.931 设备发送:05 03 05 A2 00 0F A5 64
10:13:35.908 设备接收:05 03 1E 00 00 00 00 00 00 00 00 00 02 00 00 00 00 00 00 00 00 00 00 00 00 00 00 00 00 00 00 00 00 4A 99
10:13:35.923 设备发送:05 03 05 B1 00 03 54 A4
10:13:38.925 设备接收:05 03 06 00 00 00 00 00 00 13 B5
10:13:38.971 设备发送:05 03 04 2B 00 01 F4 B6
10:13:41.967 设备接收:05 03 02 01 F9 88 56
10:13:41.983 设备发送:05 03 04 20 00 01 85 74
10:13:44.984 设备接收:05 03 02 00 40 48 74
10:13:45.015 设备发送:05 03 04 05 00 01 94 BF
10:13:48.003 设备接收:05 03 02 00 00 49 84
10:13:48.019 设备发送:06 03 04 84 00 04 04 A7
10:13:51.016 设备接收:06 03 08 13 86 07 D7 FF D2 07 D8 CE 90
10:13:51.032 设备发送:06 03 04 8D 00 05 15 65
10:13:54.028 设备接收:06 03 0A 09 2A 0B 2E 00 00 00 00 00 00 97 0E
10:13:54.060 设备发送:06 03 04 98 00 05 04 A1
10:13:57.056 设备接收:06 03 0A 09 35 0B 2F 00 00 00 00 00 00 0B FE
10:13:57.071 设备发送:06 03 04 A3 00 05 75 6C
10:14:00.084 设备接收:06 03 0A 09 39 0B 41 00 00 00 00 00 00 D1 38
10:14:00.100 设备发送:06 03 06 84 00 04 05 1F
10:14:03.113 设备接收:06 03 08 00 00 08 A4 00 0D 7F F4 4F 46
10:14:03.128 设备发送:06 03 04 04 00 01 C5 4C
10:14:06.113 设备接收:06 03 02 00 02 8C 45
10:14:06.128 设备发送:06 03 05 84 00 0F 44 9C
10:14:09.136 设备接收:06 03 1E 1F 04 01 B7 01 5D 1E F7 01 BB 01 5F 1E 71 00 EA 00 B6 1F 0C 00 E9 00 B9 1F 69 00 E5 00 B8 8D AE
10:14:09.152 设备发送:06 03 05 93 00 0F F4 98
10:14:12.192 设备接收:06 03 1E 1D ED 00 E5 00 AF 1E 80 00 F3 00 BE 1E AB 00 F2 00 BE 1F 48 00 E7 00 B9 1E 85 00 E5 00 B3 E2 B3
10:14:12.208 设备发送:06 03 05 A2 00 0F A5 57
10:14:15.203 设备接收:06 03 1E 00 00 00 00 00 00 00 00 00 07 00 00 00 00 00 00 00 00 00 00 00 00 00 00 00 00 00 00 00 00 AB CC
10:14:15.219 设备发送:06 03 05 B1 00 03 54 97
10:14:18.235 设备接收:06 03 06 00 00 00 00 00 00 07 45
10:14:18.250 设备发送:06 03 04 2B 00 01 F4 85
10:14:21.254 设备接收:06 03 02 01 E6 8D 9E
10:14:21.270 设备发送:06 03 04 20 00 01 85 47
10:14:24.251 设备接收:06 03 02 00 39 CD 96
10:14:24.266 设备发送:06 03 04 05 00 01 94 8C
10:14:27.276 设备接收:06 03 02 00 00 0D 84
10:14:27.291 设备发送:07 03 04 84 00 04 05 76
10:14:30.288 设备接收:07 03 08 13 89 08 6C FF F2 08 6C D5 C5
10:14:30.304 设备发送:07 03 04 8D 00 05 14 B4
10:14:33.298 设备接收:07 03 0A 09 2D 0C 03 00 00 00 00 00 00 0F 5B
10:14:33.329 设备发送:07 03 04 98 00 05 05 70
10:14:36.323 设备接收:07 03 0A 09 36 0B F6 00 00 00 00 00 00 55 42
10:14:36.355 设备发送:07 03 04 A3 00 05 74 BD
10:14:39.365 设备接收:07 03 0A 09 37 0C 14 00 00 00 00 00 00 DB 3A
10:14:39.380 设备发送:07 03 06 84 00 04 04 CE
10:14:42.380 设备接收:07 03 08 00 00 09 47 00 0B CD 27 5A 81
10:14:42.396 设备发送:07 03 04 04 00 01 C4 9D
10:14:45.414 设备接收:07 03 02 00 02 B1 85
10:14:45.429 设备发送:07 03 05 84 00 0F 45 4D
10:14:48.426 设备接收:07 03 1E 1F 44 01 D1 01 74 1E 80 00 F2 00 BD 1E 84 00 EF 00 BA 1E 75 00 EF 00 BA 1F 5F 00 E4 00 B7 7F 64
10:14:48.441 设备发送:07 03 05 93 00 0F F5 49
10:14:51.444 设备接收:07 03 1E 1F 0D 00 F0 00 BF 1E BC 00 F9 00 C4 1D 3C 01 D7 01 60 1B 9D 01 5F 00 F8 1B D4 01 3D 00 E2 CA 19
10:14:51.475 设备发送:07 03 05 A2 00 0F A4 86
10:14:54.465 设备接收:07 03 1E 00 00 00 00 00 00 00 00 00 05 00 00 00 00 00 00 00 00 00 00 00 00 00 00 00 00 00 00 00 00 E5 EE
10:14:54.481 设备发送:07 03 05 B1 00 03 55 46
10:14:57.476 设备接收:07 03 06 00 00 00 00 00 00 0A D5
10:14:57.490 设备发送:07 03 04 2B 00 01 F5 54
10:15:00.491 设备接收:07 03 02 02 0C 31 21
10:15:00.506 设备发送:07 03 04 20 00 01 84 96
10:15:03.539 设备接收:07 03 02 00 36 B0 52
10:15:03.555 设备发送:07 03 04 05 00 01 95 5D
10:15:06.540 设备接收:07 03 02 00 00 30 44
10:15:06.571 设备发送:08 03 04 84 00 04 05 89
10:15:09.563 设备接收:08 03 08 13 8B 06 AB 00 0E 06 AB C7 38
10:15:09.579 设备发送:08 03 04 8D 00 05 14 4B
10:15:12.596 设备接收:08 03 0A 09 2E 09 82 00 00 00 00 00 00 5E 93
10:15:12.611 设备发送:08 03 04 98 00 05 05 8F
10:15:15.610 设备接收:08 03 0A 09 32 09 90 00 00 00 00 00 00 F4 52
10:15:15.625 设备发送:08 03 04 A3 00 05 74 42
10:15:18.629 设备接收:08 03 0A 09 34 09 B9 00 00 00 00 00 00 67 30
10:15:18.645 设备发送:08 03 06 84 00 04 04 31
10:15:21.636 设备接收:08 03 08 00 00 07 7C 00 0D 22 74 62 72
10:15:21.651 设备发送:08 03 04 04 00 01 C4 62
10:15:24.670 设备接收:08 03 02 00 02 E5 84
10:15:24.685 设备发送:08 03 05 84 00 0F 45 B2
10:15:27.678 设备接收:08 03 1E 20 58 01 8F 01 4A 21 11 01 79 01 3F 20 47 01 6D 01 2D 05 05 00 00 00 00 1E F6 01 85 01 35 E0 A6
10:15:27.709 设备发送:08 03 05 93 00 0F F5 B6
10:15:30.712 设备接收:08 03 1E 1F 0C 01 73 01 27 1F 80 01 68 01 22 04 FE 00 00 00 00 04 FE 00 00 00 00 04 FE 00 00 00 00 62 D9
10:15:30.728 设备发送:08 03 05 A2 00 0F A4 79
10:15:33.729 设备接收:08 03 1E 00 00 00 00 00 00 00 01 00 02 00 00 00 00 00 00 00 00 00 00 00 00 00 00 00 00 00 00 00 00 3A C7
10:15:33.773 设备发送:08 03 05 B1 00 03 55 B9
10:15:36.752 设备接收:08 03 06 00 00 00 00 00 00 4B 25
10:15:36.769 设备发送:08 03 04 2B 00 01 F5 AB
10:15:39.788 设备接收:08 03 02 02 90 65 49
10:15:39.803 设备发送:08 03 04 20 00 01 84 69
10:15:42.771 设备接收:08 03 02 00 20 65 9D
10:15:42.790 设备发送:08 03 04 05 00 01 95 A2
10:15:45.827 设备接收:08 03 02 00 00 64 45
10:15:45.843 设备发送:09 03 04 84 00 04 04 58
10:15:48.843 设备发送:09 03 04 8D 00 05 15 9A
10:15:48.859 设备接收:09 03 08 13 89 07 9E FF ED 07 9E 6D B4
10:15:51.848 设备接收:09 03 0A 09 32 0A D4 00 00 00 00 00 00 B2 C2
10:15:51.863 设备发送:09 03 04 98 00 05 04 5E
10:15:54.895 设备接收:09 03 0A 09 2F 0A D8 00 00 00 00 00 00 EB 92
10:15:54.910 设备发送:09 03 04 A3 00 05 75 93
10:15:57.917 设备接收:09 03 0A 09 3A 0A F0 00 00 00 00 00 00 B1 00
10:15:57.932 设备发送:09 03 06 84 00 04 05 E0
10:16:00.908 设备接收:09 03 08 00 00 08 73 00 0F 0C AF CE 4B
10:16:00.922 设备发送:09 03 04 04 00 01 C5 B3
10:16:03.949 设备接收:09 03 02 00 02 D8 44
10:16:03.965 设备发送:09 03 05 84 00 0F 44 63
10:16:06.948 设备接收:09 03 1E 1E F9 01 7C 01 2E 1E 88 01 A2 01 47 1E E4 01 7B 01 2C 1F 6B 00 B3 00 90 1F 11 01 6E 01 23 34 24
10:16:06.963 设备发送:09 03 05 93 00 0F F4 67
10:16:09.970 设备接收:09 03 1E 1E D7 01 7A 01 2A 1E 70 01 75 01 22 1E C2 00 BD 00 95 05 68 00 04 00 00 05 6D 00 00 00 00 93 A0
10:16:10.000 设备发送:09 03 05 A2 00 0F A5 A8
10:16:13.001 设备接收:09 03 1E 00 08 00 00 00 00 00 04 00 02 00 00 00 00 00 00 00 00 00 00 00 00 00 00 00 00 00 00 00 00 A8 66
10:16:13.016 设备发送:09 03 05 B1 00 03 54 68
10:16:16.048 设备接收:09 03 06 00 00 00 00 00 00 46 B5
10:16:16.063 设备发送:09 03 04 2B 00 01 F4 7A
10:16:19.060 设备接收:09 03 02 02 62 D9 0C
10:16:19.076 设备发送:09 03 04 20 00 01 85 B8
10:16:22.068 设备接收:09 03 02 00 1F 18 4D
10:16:22.084 设备发送:09 03 04 05 00 01 94 73
10:16:25.091 设备接收:09 03 02 00 00 59 85
10:16:25.137 设备发送:0A 03 04 84 00 04 04 6B
10:16:28.133 设备接收:0A 03 08 13 8C 07 35 FF D8 07 36 03 98
10:16:28.165 设备发送:0A 03 04 8D 00 05 15 A9
10:16:31.145 设备接收:0A 03 0A 09 2D 0A 4A 00 00 00 00 00 00 44 F8
10:16:31.161 设备发送:0A 03 04 98 00 05 04 6D
10:16:34.180 设备接收:0A 03 0A 09 36 0A 52 00 00 00 00 00 00 62 09
10:16:34.197 设备发送:0A 03 04 A3 00 05 75 A0
10:16:37.210 设备接收:0A 03 0A 09 3A 0A 70 00 00 00 00 00 00 35 0B
10:16:37.222 设备发送:0A 03 06 84 00 04 05 D3
10:16:40.197 设备接收:0A 03 08 00 00 08 2A 00 0D E2 02 F0 DF
10:16:40.228 设备发送:0A 03 04 04 00 01 C5 80
10:16:43.212 设备接收:0A 03 02 00 02 9C 44
10:16:43.243 设备发送:0A 03 05 84 00 0F 44 50
10:16:46.251 设备接收:0A 03 1E 1F 66 01 96 01 46 1F 0D 01 7F 01 30 1F 06 01 7B 01 2D 1E CE 01 82 01 30 1F 85 01 8D 01 40 ED EE
10:16:46.268 设备发送:0A 03 05 93 00 0F F4 54
10:16:49.259 设备接收:0A 03 1E 1F 22 01 8B 01 3B 1E 91 00 BE 00 95 05 22 00 00 00 00 05 31 00 05 00 00 05 31 00 00 00 00 38 78
10:16:49.292 设备发送:0A 03 05 A2 00 0F A5 9B
10:16:52.291 设备接收:0A 03 1E 00 0B 00 00 00 00 00 0B 00 03 00 00 00 00 00 00 00 00 00 00 00 00 00 00 00 00 00 00 00 00 4D 05
10:16:52.307 设备发送:0A 03 05 B1 00 03 54 5B
10:16:55.303 设备接收:0A 03 06 00 00 00 00 00 00 52 45
10:16:55.319 设备发送:0A 03 04 2B 00 01 F4 49
10:16:58.361 设备接收:0A 03 02 02 41 DC D5
10:16:58.375 设备发送:0A 03 04 20 00 01 85 8B
10:17:01.339 设备接收:0A 03 02 00 22 9D 9C
10:17:01.371 设备发送:0A 03 04 05 00 01 94 40
10:17:04.406 设备接收:0A 03 02 00 00 1D 85
10:17:04.422 设备发送:0B 03 04 84 00 04 05 BA
10:17:07.405 设备接收:0B 03 08 13 8C 02 D9 FF CB 02 DF A5 FD
10:17:07.420 设备发送:0B 03 04 8D 00 05 14 78
10:17:10.430 设备接收:0B 03 0A 09 41 04 08 00 00 00 00 00 00 58 F3
10:17:10.460 设备发送:0B 03 04 98 00 05 05 BC
10:17:13.452 设备接收:0B 03 0A 09 3C 04 12 00 00 00 00 00 00 DE 60
10:17:13.478 设备发送:0B 03 04 A3 00 05 74 71
10:17:16.445 设备接收:0B 03 0A 09 3F 03 F9 00 00 00 00 00 00 D0 78
10:17:16.477 设备发送:0B 03 06 84 00 04 04 02
10:17:19.485 设备接收:0B 03 08 00 00 03 29 00 04 A4 75 13 1C
10:17:19.500 设备发送:0B 03 04 04 00 01 C4 51
10:17:22.519 设备接收:0B 03 02 00 02 A1 84
10:17:22.535 设备发送:0B 03 05 84 00 0F 45 81
10:17:25.515 设备接收:0B 03 1E 1E D5 01 7B 01 2B 1C F9 00 F0 00 B2 1D 3D 00 C7 00 95 1D 8B 00 D3 00 9F 00 00 00 00 00 00 AB D3
10:17:25.546 设备发送:0B 03 05 93 00 0F F5 85
10:17:28.543 设备接收:0B 03 1E 00 00 00 00 00 00 00 00 00 00 00 00 00 00 00 00 00 00 00 00 00 00 00 00 00 00 00 00 00 00 60 B9
10:17:28.590 设备发送:0B 03 05 A2 00 0F A4 4A
10:17:31.598 设备接收:0B 03 1E 00 00 00 00 00 00 00 00 00 00 00 00 00 00 00 00 00 00 00 00 00 00 00 00 00 00 00 00 00 00 60 B9
10:17:31.613 设备发送:0B 03 05 B1 00 03 55 8A
10:17:34.597 设备接收:0B 03 06 00 00 00 00 00 00 5F D5
10:17:34.614 设备发送:0B 03 04 2B 00 01 F5 98
10:17:37.635 设备接收:0B 03 02 01 88 21 B3
10:17:37.653 设备发送:0B 03 04 20 00 01 84 5A
10:17:40.645 设备接收:0B 03 02 00 11 E0 49
10:17:40.660 设备发送:0B 03 04 05 00 01 95 91
10:17:43.668 设备接收:0B 03 02 00 00 20 45
10:17:43.699 设备发送:0C 03 04 84 00 04 04 0D
10:17:46.698 设备接收:0C 03 08 13 8B 02 3D FF DB 02 44 F9 31
10:17:46.714 设备发送:0C 03 04 8D 00 05 15 CF
10:17:49.728 设备接收:0C 03 0A 09 40 03 2C 00 00 00 00 00 00 7B C0
10:17:49.744 设备发送:0C 03 04 98 00 05 04 0B
10:17:52.742 设备接收:0C 03 0A 09 3C 03 35 00 00 00 00 00 00 C3 C3
10:17:52.758 设备发送:0C 03 04 A3 00 05 75 C6
10:17:55.781 设备接收:0C 03 0A 09 42 03 2E 00 00 00 00 00 00 41 60
10:17:55.796 设备发送:0C 03 06 84 00 04 05 B5
10:17:58.786 设备接收:0C 03 08 00 00 02 8B 00 04 0F 32 CE 62
10:17:58.802 设备发送:0C 03 04 04 00 01 C5 E6
10:18:01.790 设备接收:0C 03 02 00 02 14 44
10:18:01.836 设备发送:0C 03 05 84 00 0F 44 36
10:18:04.827 设备接收:0C 03 1E 1C F9 01 85 01 20 1E 73 01 85 01 2F 02 AA 00 00 00 00 0D 42 00 00 00 00 00 00 00 00 00 00 7D 63
10:18:04.845 设备发送:0C 03 05 93 00 0F F4 32
10:18:07.843 设备发送:0C 03 05 A2 00 0F A5 FD
10:18:07.874 设备接收:0C 03 1E 00 00 00 00 00 00 00 00 00 00 00 00 00 00 00 00 00 00 00 00 00 00 00 00 00 00 00 00 00 00 65 78
10:18:10.863 设备发送:0C 03 05 B1 00 03 54 3D
10:18:10.894 设备接收:0C 03 1E 00 00 00 00 00 00 00 00 00 00 00 00 00 00 00 00 00 00 00 00 00 00 00 00 00 00 00 00 00 00 65 78
10:18:13.910 设备接收:0C 03 06 00 00 00 00 00 00 79 E5
10:18:13.926 设备发送:0C 03 04 2B 00 01 F4 2F
10:18:16.899 设备接收:0C 03 02 01 83 D5 B4
10:18:16.925 设备发送:0C 03 04 20 00 01 85 ED
10:18:19.921 设备接收:0C 03 02 00 26 14 5F
10:18:19.952 设备发送:0C 03 04 05 00 01 94 26
10:18:22.964 设备接收:0C 03 02 00 00 95 85
10:18:22.979 设备发送:01 03 04 84 00 04 05 10
10:18:25.989 设备接收:01 03 08 13 8B 04 F2 FF ED 04 F3 35 33
10:18:26.005 设备发送:01 03 04 8D 00 05 14 D2
10:18:28.990 设备接收:01 03 0A 09 2F 07 13 00 00 00 00 00 00 4F 8F
10:18:29.005 设备发送:01 03 04 98 00 05 05 16
10:18:31.992 设备接收:01 03 0A 09 33 07 21 00 00 00 00 00 00 C4 8C
10:18:32.013 设备发送:01 03 04 A3 00 05 74 DB
10:18:34.11200

