
15:29:00.863 设备接收:01 03 08 13 8B 01 5A FF F5 01 5A 17 97
15:29:00.970 设备发送:01 03 04 8D 00 05 14 D2
15:29:02.884 设备接收:01 03 0A 09 05 02 32 00 00 00 00 00 00 59 D3
15:29:02.900 设备发送:01 03 04 98 00 05 05 16
15:29:04.915 设备接收:01 03 0A 09 07 02 44 00 00 00 00 00 00 57 74
15:29:04.931 设备发送:01 03 04 A3 00 05 74 DB
15:29:06.929 设备接收:01 03 0A 09 0F 02 65 00 00 00 00 00 00 01 B6
15:29:06.944 设备发送:01 03 06 84 00 04 04 A8
15:29:08.933 设备接收:01 03 08 00 00 1C 66 00 04 44 00 ED 42
15:29:08.979 设备发送:01 03 04 04 00 01 C4 FB
15:29:10.978 设备接收:01 03 02 00 02 39 85
15:29:10.994 设备发送:01 03 05 84 00 0F 45 2B
15:29:12.988 设备接收:01 03 1E 03 93 00 00 00 00 03 94 00 00 00 00 1A EF 01 68 00 F8 03 8D 00 02 00 00 03 86 00 00 00 00 43 28
15:29:13.004 设备发送:01 03 05 93 00 0F F5 2F
15:29:15.004 设备接收:01 03 1E 1D DD 00 B9 00 8E 03 7F 00 00 00 00 03 89 00 00 00 00 03 87 00 00 00 00 03 87 00 00 00 00 C9 4B
15:29:15.020 设备发送:01 03 05 A2 00 0F A4 E0
15:29:17.018 设备接收:01 03 1E 00 01 00 00 00 00 00 01 00 00 00 00 00 00 00 00 00 00 00 00 00 00 00 00 00 00 00 00 00 00 D5 27
15:29:17.049 设备发送:01 03 05 B1 00 03 55 20
15:29:19.067 设备接收:01 03 06 00 00 00 00 00 00 21 75
15:29:19.082 设备发送:01 03 04 2B 00 01 F5 32
15:29:21.067 设备接收:01 03 02 02 A8 B8 9A
15:29:21.082 设备发送:01 03 04 20 00 01 84 F0
15:29:23.111 设备接收:01 03 02 00 30 B8 50
15:29:23.127 设备发送:01 03 04 05 00 01 95 3B
15:29:25.126 设备接收:01 03 02 00 00 B8 44
15:29:25.142 设备发送:02 03 04 84 00 04 05 23
15:29:27.126 设备接收:02 03 08 13 89 03 B9 00 0D 03 B9 0E 2B
15:29:27.141 设备发送:02 03 04 8D 00 05 14 E1
15:29:29.154 设备接收:02 03 0A 09 0D 05 74 00 00 00 00 00 00 5D F2
15:29:29.170 设备发送:02 03 04 98 00 05 05 25
15:29:31.170 设备接收:02 03 0A 09 0C 05 7E 00 00 00 00 00 00 FA 62
15:29:31.185 设备发送:02 03 04 A3 00 05 74 E8
15:29:33.195 设备接收:02 03 0A 09 17 05 87 00 00 00 00 00 00 2D 9D
15:29:33.264 设备发送:02 03 06 84 00 04 04 9B
15:29:35.202 设备接收:02 03 08 00 00 4F EF 00 0C 78 EA 22 F7
15:29:35.232 设备发送:02 03 04 04 00 01 C4 C8
15:29:37.228 设备接收:02 03 02 00 02 7D 85
15:29:37.274 设备发送:02 03 05 84 00 0F 45 18
15:29:39.248 设备接收:02 03 1E 1D C9 01 69 01 13 1D 89 00 C1 00 91 04 71 00 00 00 00 04 73 00 00 00 00 1D B5 01 57 01 05 A0 A6
15:29:39.264 设备发送:02 03 05 93 00 0F F5 1C
15:29:41.280 设备接收:02 03 1E 1E 10 01 57 01 08 1D E7 00 B2 00 88 04 70 00 05 00 00 04 73 00 00 00 00 04 73 00 00 00 00 C3 00
15:29:41.295 设备发送:02 03 05 A2 00 0F A4 D3
15:29:43.323 设备接收:02 03 1E 00 00 00 00 00 00 00 01 00 05 00 00 00 00 00 00 00 00 00 00 00 00 00 00 00 00 00 00 00 00 F4 73
15:29:43.342 设备发送:02 03 05 B1 00 03 55 13
15:29:45.322 设备接收:02 03 06 00 00 00 00 00 00 35 85
15:29:45.353 设备发送:02 03 04 2B 00 01 F5 01
15:29:47.337 设备接收:02 03 02 02 2C FC F9
15:29:47.369 设备发送:02 03 04 20 00 01 84 C3
15:29:49.349 设备接收:02 03 02 00 33 BC 51
15:29:49.381 设备发送:02 03 04 05 00 01 95 08
15:29:51.393 设备接收:02 03 02 00 00 FC 44
15:29:51.409 设备发送:03 03 04 84 00 04 04 F2
15:29:53.391 设备接收:03 03 08 13 85 05 10 FF F9 05 10 28 91
15:29:53.411 设备发送:03 03 04 8D 00 05 15 30
15:29:55.434 设备接收:03 03 0A 09 14 07 46 00 00 00 00 00 00 6A F9
15:29:55.450 设备发送:03 03 04 98 00 05 04 F4
15:29:57.463 设备接收:03 03 0A 09 15 07 4B 00 00 00 00 00 00 BB A9
15:29:57.479 设备发送:03 03 04 A3 00 05 75 39
15:29:59.477 设备接收:03 03 0A 09 21 07 62 00 00 00 00 00 00 65 AA
15:29:59.493 设备发送:03 03 06 84 00 04 05 4A
15:30:01.476 设备接收:03 03 08 00 00 6E F9 00 10 6D BB 67 D3
15:30:01.523 设备发送:03 03 04 04 00 01 C5 19
15:30:03.504 设备接收:03 03 02 00 02 40 45
15:30:03.520 设备发送:03 03 05 84 00 0F 44 C9
15:30:05.516 设备接收:03 03 1E 1C 03 01 62 00 FE 1C 43 01 5D 00 FC 1C 76 01 57 00 FA 1B A6 01 58 00 F3 1C 42 01 77 01 0F C7 03
15:30:05.559 设备发送:03 03 05 93 00 0F F4 CD
15:30:07.573 设备接收:03 03 1E 17 17 00 CD 00 79 04 63 00 00 00 00 04 69 00 00 00 00 04 5D 00 00 00 00 04 67 00 0B 00 01 8B 5F
15:30:07.589 设备发送:03 03 05 A2 00 0F A5 02
15:30:09.586 设备接收:03 03 1E 00 0D 00 00 00 00 00 05 00 03 00 00 00 00 00 00 00 00 00 00 00 00 00 00 00 00 00 00 00 00 0D 2E
15:30:09.602 设备发送:03 03 05 B1 00 03 54 C2
15:30:11.614 设备接收:03 03 06 00 00 00 00 00 00 38 15
15:30:11.630 设备发送:03 03 04 2B 00 01 F4 D0
15:30:13.614 设备接收:03 03 02 01 E1 00 5C
15:30:13.648 设备发送:03 03 04 20 00 01 85 12
15:30:15.643 设备接收:03 03 02 00 34 C0 53
15:30:15.674 设备发送:03 03 04 05 00 01 94 D9
15:30:17.671 设备接收:03 03 02 00 00 C1 84
15:30:17.686 设备发送:04 03 04 84 00 04 05 45
15:30:19.680 设备接收:04 03 08 13 86 03 55 00 0F 03 55 DE 39
15:30:19.696 设备发送:04 03 04 8D 00 05 14 87
15:30:21.694 设备接收:04 03 0A 09 09 04 FC 00 00 00 00 00 00 AF 30
15:30:21.725 设备发送:04 03 04 98 00 05 05 43
15:30:23.718 设备接收:04 03 0A 09 0E 04 E5 00 00 00 00 00 00 01 C1
15:30:23.734 设备发送:04 03 04 A3 00 05 74 8E
15:30:25.747 设备接收:04 03 0A 09 16 05 0D 00 00 00 00 00 00 02 03
15:30:25.762 设备发送:04 03 06 84 00 04 04 FD
15:30:27.772 设备接收:04 03 08 00 00 22 2D 00 09 F9 B2 3C B8
15:30:27.787 设备发送:04 03 04 04 00 01 C4 AE
15:30:29.780 设备接收:04 03 02 00 02 F5 85
15:30:29.811 设备发送:04 03 05 84 00 0F 45 7E
15:30:31.808 设备接收:04 03 1E 20 5C 00 BD 00 9C 1F DE 00 6D 00 59 1F E7 00 65 00 52 1D ED 00 B3 00 89 1E 3B 00 CA 00 9C 71 E9
15:30:31.824 设备发送:04 03 05 93 00 0F F5 7A
15:30:33.834 设备接收:04 03 1E 1E 5F 00 D1 00 A2 1E 51 00 6A 00 52 1E E1 00 69 00 53 05 70 00 00 00 00 05 78 00 00 00 00 54 9F
15:30:33.850 设备发送:04 03 05 A2 00 0F A4 B5
15:30:35.845 设备接收:04 03 1E 00 00 00 00 00 00 00 06 00 02 00 00 00 00 00 00 00 00 00 00 00 00 00 00 00 00 00 00 00 00 8C D3
15:30:35.861 设备发送:04 03 05 B1 00 03 55 75
15:30:37.867 设备接收:04 03 06 00 00 00 00 00 00 1E 25
15:30:37.883 设备发送:04 03 04 2B 00 01 F5 67
15:30:39.897 设备接收:04 03 02 02 D7 35 7A
15:30:39.913 设备发送:04 03 04 20 00 01 84 A5
15:30:41.920 设备接收:04 03 02 00 22 F4 5D
15:30:41.936 设备发送:04 03 04 05 00 01 95 6E
15:30:43.918 设备接收:04 03 02 00 00 74 44
15:30:43.933 设备发送:05 03 04 84 00 04 04 94
15:30:45.942 设备接收:05 03 08 13 88 03 82 FF DC 03 83 01 64
15:30:45.973 设备发送:05 03 04 8D 00 05 15 56
15:30:47.955 设备接收:05 03 0A 09 0B 05 19 00 00 00 00 00 00 C1 D3
15:30:47.971 设备发送:05 03 04 98 00 05 04 92
15:30:49.982 设备接收:05 03 0A 09 07 05 29 00 00 00 00 00 00 A4 D0
15:30:49.997 设备发送:05 03 04 A3 00 05 75 5F
15:30:52.017 设备接收:05 03 0A 09 18 05 2A 00 00 00 00 00 00 1B E0
15:30:52.033 设备发送:05 03 06 84 00 04 05 2C
15:30:54.025 设备接收:05 03 08 00 00 23 F9 00 0E 5E 62 C3 EA
15:30:54.041 设备发送:05 03 04 04 00 01 C5 7F
15:30:56.038 设备接收:05 03 02 00 02 C8 45
15:30:56.084 设备发送:05 03 05 84 00 0F 44 AF
15:30:58.068 设备接收:05 03 1E 1E 22 00 C6 00 99 1D 6E 00 B7 00 8A 1D BE 00 5A 00 44 1E 3E 00 CB 00 9D 1D A0 00 63 00 4B E3 00
15:30:58.083 设备发送:05 03 05 93 00 0F F4 AB
15:31:00.083 设备接收:05 03 1E 1D FB 00 5B 00 46 1D B5 00 62 00 4A 1D 82 00 62 00 4A 1E 2F 00 65 00 4E 1D CA 00 71 00 56 F9 B3
15:31:00.098 设备发送:05 03 05 A2 00 0F A5 64
15:31:02.104 设备接收:05 03 1E 00 00 00 00 00 00 00 00 00 02 00 00 00 00 00 00 00 00 00 00 00 00 00 00 00 00 00 00 00 00 4A 99
15:31:02.124 设备发送:05 03 05 B1 00 03 54 A4
15:31:04.108 设备接收:05 03 06 00 00 00 00 00 00 13 B5
15:31:04.130 设备发送:05 03 04 2B 00 01 F4 B6
15:31:06.147 设备接收:05 03 02 02 DC 49 7D
15:31:06.156 设备发送:05 03 04 20 00 01 85 74
15:31:08.159 设备接收:05 03 02 00 38 48 56
15:31:08.177 设备发送:05 03 04 05 00 01 94 BF
15:31:10.191 设备接收:05 03 02 00 00 49 84
15:31:10.200 设备发送:06 03 04 84 00 04 04 A7
15:31:12.210 设备接收:06 03 08 13 8A 03 2D FF E2 03 2E 59 89
15:31:12.222 设备发送:06 03 04 8D 00 05 15 65
15:31:14.211 设备接收:06 03 0A 09 08 04 B8 00 00 00 00 00 00 A1 E6
15:31:14.258 设备发送:06 03 04 98 00 05 04 A1
15:31:16.240 设备接收:06 03 0A 09 0E 04 9D 00 00 00 00 00 00 FE 84
15:31:16.256 设备发送:06 03 04 A3 00 05 75 6C
15:31:18.248 设备接收:06 03 0A 09 17 04 C0 00 00 00 00 00 00 D5 D1
15:31:18.272 设备发送:06 03 06 84 00 04 05 1F
15:31:20.289 设备接收:06 03 08 00 00 20 ED 00 0D 47 F8 87 65
15:31:20.367 设备发送:06 03 04 04 00 01 C5 4C
15:31:22.315 设备接收:06 03 02 00 02 8C 45
15:31:22.330 设备发送:06 03 05 84 00 0F 44 9C
15:31:24.325 设备接收:06 03 1E 1D C4 00 BC 00 8F 1E 1C 00 CC 00 9D 1E 03 00 55 00 41 1D 53 00 59 00 42 1D C9 00 63 00 4B 7B A2
15:31:24.341 设备发送:06 03 05 93 00 0F F4 98
15:31:26.342 设备接收:06 03 1E 1D 38 00 68 00 4E 1D F8 00 69 00 51 1E 7A 00 6E 00 56 1E 32 00 49 00 38 1D DD 00 53 00 3F 63 DA
15:31:26.358 设备发送:06 03 05 A2 00 0F A5 57
15:31:28.375 设备接收:06 03 1E 00 00 00 00 00 00 00 00 00 06 00 00 00 00 00 00 00 00 00 00 00 00 00 00 00 00 00 00 00 00 BB 1D
15:31:28.387 设备发送:06 03 05 B1 00 03 54 97
15:31:30.375 设备接收:06 03 06 00 00 00 00 00 00 07 45
15:31:30.407 设备发送:06 03 04 2B 00 01 F4 85
15:31:32.388 设备接收:06 03 02 02 DC 0D 7D
15:31:32.404 设备发送:06 03 04 20 00 01 85 47
15:31:34.419 设备接收:06 03 02 00 33 4D 91
15:31:34.450 设备发送:06 03 04 05 00 01 94 8C
15:31:36.446 设备接收:06 03 02 00 00 0D 84
15:31:36.461 设备发送:07 03 04 84 00 04 05 76
15:31:38.478 设备接收:07 03 08 13 88 03 38 00 11 03 38 32 9F
15:31:38.493 设备发送:07 03 04 8D 00 05 14 B4
15:31:40.473 设备接收:07 03 0A 09 05 04 BF 00 00 00 00 00 00 8D 37
15:31:40.504 设备发送:07 03 04 98 00 05 05 70
15:31:42.491 设备接收:07 03 0A 09 0B 04 C4 00 00 00 00 00 00 0A 50
15:31:42.522 设备发送:07 03 04 A3 00 05 74 BD
15:31:44.525 设备接收:07 03 0A 09 13 04 E6 00 00 00 00 00 00 A2 52
15:31:44.541 设备发送:07 03 06 84 00 04 04 CE
15:31:46.533 设备接收:07 03 08 00 00 3B B6 00 0B 90 B7 1B BA
15:31:46.553 设备发送:07 03 04 04 00 01 C4 9D
15:31:48.551 设备接收:07 03 02 00 02 B1 85
15:31:48.864 设备发送:07 03 05 84 00 0F 45 4D
15:31:50.587 设备接收:07 03 1E 1D F4 00 C4 00 96 1D 59 00 63 00 4A 1D F8 00 60 00 4A 1E 4A 00 5B 00 46 1D 83 00 5D 00 46 AE 0E
15:31:50.603 设备发送:07 03 05 93 00 0F F5 49
15:31:52.595 设备接收:07 03 1E 1D 3D 00 68 00 4D 1D D4 00 6C 00 52 1C A4 00 B5 00 84 1A 03 00 8E 00 5E 19 F4 00 87 00 5A 72 F1
15:31:52.604 设备发送:07 03 05 A2 00 0F A4 86
15:31:54.631 设备接收:07 03 1E 00 00 00 00 00 00 00 00 00 04 00 00 00 00 00 00 00 00 00 00 00 00 00 00 00 00 00 00 00 00 F5 3F
15:31:55.196 设备发送:07 03 05 B1 00 03 55 46
15:31:56.627 设备接收:07 03 06 00 00 00 00 00 00 0A D5
15:31:56.670 设备发送:07 03 04 2B 00 01 F5 54
15:31:58.665 设备接收:07 03 02 01 6F 71 F8
15:31:58.680 设备发送:07 03 04 20 00 01 84 96
15:32:00.679 设备接收:07 03 02 00 32 B1 91
15:32:00.805 设备发送:07 03 04 05 00 01 95 5D
15:32:02.711 设备接收:07 03 02 00 00 30 44
15:32:02.727 设备发送:08 03 04 84 00 04 05 89
15:32:04.703 设备接收:08 03 08 13 85 02 D9 FF FA 02 D9 E2 74
15:32:04.713 设备发送:08 03 04 8D 00 05 14 4B
15:32:06.750 设备接收:08 03 0A 09 06 04 36 00 00 00 00 00 00 95 00
15:32:06.766 设备发送:08 03 04 98 00 05 05 8F
15:32:08.771 设备接收:08 03 0A 09 0B 04 45 00 00 00 00 00 00 8F 57
15:32:08.939 设备发送:08 03 04 A3 00 05 74 42
15:32:10.799 设备接收:08 03 0A 09 12 04 64 00 00 00 00 00 00 19 C5
15:32:10.825 设备发送:08 03 06 84 00 04 04 31
15:32:12.802 设备接收:08 03 08 00 00 2F D3 00 0C F2 DB FC 3E
15:32:12.813 设备发送:08 03 04 04 00 01 C4 62
15:32:14.821 设备接收:08 03 02 00 02 E5 84
15:32:14.843 设备发送:08 03 05 84 00 0F 45 B2
15:32:16.853 设备接收:08 03 1E 1F AE 00 A1 00 82 1F C3 00 A5 00 86 1F AC 00 A9 00 89 04 E3 00 00 00 00 1D D0 00 AA 00 81 C9 BF
15:32:17.150 设备发送:08 03 05 93 00 0F F5 B6
15:32:18.856 设备接收:08 03 1E 1E 1E 00 A6 00 80 1E 6F 00 A3 00 7F 04 DD 00 00 00 00 04 DC 00 01 00 00 04 DD 00 00 00 00 28 56
15:32:18.878 设备发送:08 03 05 A2 00 0F A4 79
15:32:20.886 设备接收:08 03 1E 00 00 00 00 00 00 00 00 00 02 00 00 00 00 00 00 00 00 00 00 00 00 00 00 00 00 00 00 00 00 F7 5B
15:32:20.896 设备发送:08 03 05 B1 00 03 55 B9
15:32:22.902 设备接收:08 03 06 00 00 00 00 00 00 4B 25
15:32:23.201 设备发送:08 03 04 2B 00 01 F5 AB
15:32:24.921 设备接收:08 03 02 01 49 A4 23
15:32:24.936 设备发送:08 03 04 20 00 01 84 69
15:32:26.952 设备接收:08 03 02 00 26 E5 9F
15:32:26.972 设备发送:08 03 04 05 00 01 95 A2
15:32:28.980 设备接收:08 03 02 00 00 64 45
15:32:28.996 设备发送:09 03 04 84 00 04 04 58
15:32:30.988 设备接收:09 03 08 13 88 03 25 FF E1 03 26 5A 5A
15:32:31.221 设备发送:09 03 04 8D 00 05 15 9A
15:32:32.997 设备接收:09 03 0A 09 09 04 98 00 00 00 00 00 00 99 BB
15:32:33.018 设备发送:09 03 04 98 00 05 04 5E
15:32:35.020 设备接收:09 03 0A 09 0A 04 B3 00 00 00 00 00 00 16 49
15:32:35.036 设备发送:09 03 04 A3 00 05 75 93
15:32:37.035 设备接收:09 03 0A 09 17 04 C8 00 00 00 00 00 00 48 1E
15:32:37.139 设备发送:09 03 06 84 00 04 05 E0
15:32:39.070 设备接收:09 03 08 00 00 36 D7 00 0E D6 E9 30 1E
15:32:39.081 设备发送:09 03 04 04 00 01 C5 B3
15:32:41.074 设备接收:09 03 02 00 02 D8 44
15:32:41.105 设备发送:09 03 05 84 00 0F 44 63
15:32:43.109 设备接收:09 03 1E 1D CD 00 9D 00 78 1D AA 00 BA 00 8D 1D D7 00 AB 00 83 1E 49 00 54 00 41 1D D6 00 A7 00 80 C3 53
15:32:43.156 设备发送:09 03 05 93 00 0F F4 67
15:32:45.154 设备接收:09 03 1E 1D CA 00 AE 00 85 1E 7C 00 A7 00 82 1E 1C 00 54 00 41 05 44 00 04 00 00 05 49 00 03 00 00 62 83
15:32:45.533 设备发送:09 03 05 A2 00 0F A5 A8
15:32:47.166 设备接收:09 03 1E 00 07 00 00 00 00 00 04 00 01 00 00 00 00 00 00 00 00 00 00 00 00 00 00 00 00 00 00 00 00 DB 5E
15:32:47.228 设备发送:09 03 05 B1 00 03 54 68
15:32:49.175 设备接收:09 03 06 00 00 00 00 00 00 46 B5
15:32:49.195 设备发送:09 03 04 2B 00 01 F4 7A
15:32:51.220 设备接收:09 03 02 01 2C 59 C8
15:32:51.236 设备发送:09 03 04 20 00 01 85 B8
15:32:53.225 设备接收:09 03 02 00 2E D9 99
15:32:53.241 设备发送:09 03 04 05 00 01 94 73
15:32:55.239 设备接收:09 03 02 00 00 59 85
15:32:55.254 设备发送:0A 03 04 84 00 04 04 6B
15:32:57.271 设备接收:0A 03 08 13 8B 02 F6 00 12 02 F6 22 36
15:32:57.429 设备发送:0A 03 04 8D 00 05 15 A9
15:32:59.270 设备接收:0A 03 0A 09 09 04 67 00 00 00 00 00 00 93 77
15:32:59.316 设备发送:0A 03 04 98 00 05 04 6D
15:33:01.319 设备接收:0A 03 0A 09 0B 04 5C 00 00 00 00 00 00 00 D4
15:33:01.774 设备发送:0A 03 04 A3 00 05 75 A0
15:33:03.334 设备接收:0A 03 0A 09 16 04 88 00 00 00 00 00 00 01 89
15:33:03.410 设备发送:0A 03 06 84 00 04 05 D3
15:33:05.345 设备接收:0A 03 08 00 00 33 C0 00 0D AF 00 59 12
15:33:05.641 设备发送:0A 03 04 04 00 01 C5 80
15:33:07.374 设备接收:0A 03 02 00 02 9C 44
15:33:07.411 设备发送:0A 03 05 84 00 0F 44 50
15:33:09.391 设备接收:0A 03 1E 1D AD 00 B0 00 86 1D C9 00 9D 00 78 1D FD 00 A3 00 7D 1E 38 00 AE 00 86 1D F3 00 A7 00 80 7F 07
15:33:09.401 设备发送:0A 03 05 93 00 0F F4 54
15:33:11.400 设备接收:0A 03 1E 1D F5 00 A4 00 7E 1D 9C 00 54 00 40 04 F7 00 00 00 00 05 07 00 06 00 00 05 03 00 00 00 00 EE 27
15:33:11.447 设备发送:0A 03 05 A2 00 0F A5 9B
15:33:13.430 设备接收:0A 03 1E 00 0A 00 00 00 00 00 08 00 01 00 00 00 00 00 00 00 00 00 00 00 00 00 00 00 00 00 00 00 00 FA 03
15:33:13.449 设备发送:0A 03 05 B1 00 03 54 5B
15:33:15.451 设备接收:0A 03 06 00 00 00 00 00 00 52 45
15:33:15.461 设备发送:0A 03 04 2B 00 01 F4 49
15:33:17.491 设备接收:0A 03 02 01 52 9D E8
15:33:17.507 设备发送:0A 03 04 20 00 01 85 8B
15:33:19.504 设备接收:0A 03 02 00 21 DD 9D
15:33:19.660 设备发送:0A 03 04 05 00 01 94 40
15:33:21.504 设备接收:0A 03 02 00 00 1D 85
15:33:21.551 设备发送:0B 03 04 84 00 04 05 BA
15:33:23.551 设备接收:0B 03 08 13 8B 01 28 FF D5 01 37 CE 63
15:33:23.566 设备发送:0B 03 04 8D 00 05 14 78
15:33:25.559 设备接收:0B 03 0A 09 1E 01 B9 00 00 00 00 00 00 84 34
15:33:25.569 设备发送:0B 03 04 98 00 05 05 BC
15:33:27.573 设备接收:0B 03 0A 09 14 01 C5 00 00 00 00 00 00 47 53
15:33:27.595 设备发送:0B 03 04 A3 00 05 74 71
15:33:29.598 设备接收:0B 03 0A 09 1B 01 B7 00 00 00 00 00 00 54 A4
15:33:29.608 设备发送:0B 03 06 84 00 04 04 02
15:33:31.619 设备接收:0B 03 08 00 00 14 3E 00 04 90 B5 72 A8
15:33:31.626 设备发送:0B 03 04 04 00 01 C4 51
15:33:33.638 设备接收:0B 03 02 00 02 A1 84
15:33:33.658 设备发送:0B 03 05 84 00 0F 45 81
15:33:35.659 设备接收:0B 03 1E 1E 2D 00 A7 00 81 1B ED 00 60 00 45 1B F7 00 59 00 3F 1C 8A 00 57 00 40 00 00 00 00 00 00 1E 90
15:33:35.683 设备发送:0B 03 05 93 00 0F F5 85
15:33:37.689 设备接收:0B 03 1E 00 00 00 00 00 00 00 00 00 00 00 00 00 00 00 00 00 00 00 00 00 00 00 00 00 00 00 00 00 00 60 B9
15:33:37.698 设备发送:0B 03 05 A2 00 0F A4 4A
15:33:39.700 设备接收:0B 03 1E 00 00 00 00 00 00 00 00 00 00 00 00 00 00 00 00 00 00 00 00 00 00 00 00 00 00 00 00 00 00 60 B9
15:33:39.721 设备发送:0B 03 05 B1 00 03 55 8A
15:33:41.731 设备接收:0B 03 06 00 00 00 00 00 00 5F D5
15:33:41.747 设备发送:0B 03 04 2B 00 01 F5 98
15:33:43.728 设备接收:0B 03 02 01 55 E1 EA
15:33:43.749 设备发送:0B 03 04 20 00 01 84 5A
15:33:45.763 设备接收:0B 03 02 00 11 E0 49
15:33:45.779 设备发送:0B 03 04 05 00 01 95 91
15:33:47.787 设备接收:0B 03 02 00 00 20 45
15:33:47.803 设备发送:0C 03 04 84 00 04 04 0D
15:33:49.803 设备接收:0C 03 08 13 8A 00 ED FF D6 01 02 39 00
15:33:49.835 设备发送:0C 03 04 8D 00 05 15 CF
15:33:51.829 设备接收:0C 03 0A 09 1A 01 6C 00 00 00 00 00 00 39 7E
15:33:51.860 设备发送:0C 03 04 98 00 05 04 0B
15:33:53.863 设备接收:0C 03 0A 09 11 01 77 00 00 00 00 00 00 E1 4F
15:33:53.886 设备发送:0C 03 04 A3 00 05 75 C6
15:33:55.879 设备接收:0C 03 0A 09 19 01 6B 00 00 00 00 00 00 5B 4E
15:33:55.894 设备发送:0C 03 06 84 00 04 05 B5
15:33:57.899 设备接收:0C 03 08 00 00 10 32 00 03 FF A9 E4 A1
15:33:57.930 设备发送:0C 03 04 04 00 01 C5 E6
15:33:59.919 设备接收:0C 03 02 00 02 14 44
15:33:59.933 设备发送:0C 03 05 84 00 0F 44 36
15:34:01.919 设备接收:0C 03 1E 1C 20 00 9E 00 71 1D 35 00 AB 00 7F 04 3E 00 00 00 00 0C D1 00 00 00 00 00 00 00 00 00 00 5E E2
15:34:01.932 设备发送:0C 03 05 93 00 0F F4 32
15:34:03.961 设备接收:0C 03 1E 00 00 00 00 00 00 00 00 00 00 00 00 00 00 00 00 00 00 00 00 00 00 00 00 00 00 00 00 00 00 65 78
15:34:03.970 设备发送:0C 03 05 A2 00 0F A5 FD
15:34:05.969 设备接收:0C 03 1E 00 00 00 00 00 00 00 00 00 00 00 00 00 00 00 00 00 00 00 00 00 00 00 00 00 00 00 00 00 00 65 78
15:34:05.992 设备发送:0C 03 05 B1 00 03 54 3D
15:34:07.993 设备接收:0C 03 06 00 00 00 00 00 00 79 E5
15:34:08.013 设备发送:0C 03 04 2B 00 01 F4 2F
15:34:10.004 设备接收:0C 03 02 01 5A 14 2E
15:34:10.025 设备发送:0C 03 04 20 00 01 85 ED
15:34:12.029 设备接收:0C 03 02 00 21 55 9D
15:34:12.038 设备发送:0C 03 04 05 00 01 94 26
15:34:14.059 设备接收:0C 03 02 00 00 95 85
15:34:14.069 设备发送:01 03 04 84 00 04 05 10
15:34:16.060 设备接收:01 03 08 13 89 01 10 FF F2 01 11 5C 6F
15:34:16.085 设备发送:01 03 04 8D 00 05 14 D2
15:34:18.093 设备接收:01 03 0A 09 0C 01 FB 00 00 00 00 00 00 2A 9A
15:34:18.102 设备发送:01 03 04 98 00 05 05 16
15:34:20.099 设备接收:01 03 0A 09 07 02 00 00 00 00 00 00 00 53 70
15:34:20.120 设备发送:01 03 04 A3 00 05 74 DB
15:34:22.113 设备接收:01 03 0A 09 12 01 F3 00 00 00 00 00 00 22 FA
15:34:22.132 设备发送:01 03 06 84 00 04 04 A8
15:34:24.136 设备接收:01 03 08 00 00 1C 80 00 04 44 02 65 55
15:34:24.147 设备发送:01 03 04 04 00 01 C4 FB
15:34:26.179 设备接收:01 03 02 00 02 39 85
15:34:26.194 设备发送:01 03 05 84 00 0F 45 2B
15:34:28.202 设备接收:01 03 1E 03 8B 00 00 00 00 03 8C 00 00 00 00 1A 49 01 2A 00 C9 03 86 00 07 00 00 03 80 00 00 00 00 61 27
15:34:28.211 设备发送:01 03 05 93 00 0F F5 2F
15:34:30.226 设备接收:01 03 1E 1D 3F 00 92 00 6E 03 77 00 00 00 00 03 80 00 01 00 00 03 80 00 00 00 00 03 81 00 00 00 00 F8 BA
15:34:30.588 设备发送:01 03 05 A2 00 0F A4 E0
15:34:32.241 设备接收:01 03 1E 00 01 00 00 00 00 00 01 00 00 00 00 00 00 00 00 00 00 00 00 00 00 00 00 00 00 00 00 00 00 D5 27
15:34:32.256 设备发送:01 03 05 B1 00 03 55 20
15:34:34.243 设备接收:01 03 06 00 00 00 00 00 00 21 75
15:34:34.254 设备发送:01 03 04 2B 00 01 F5 32
15:34:36.271 设备接收:01 03 02 02 A8 B8 9A
15:34:36.427 设备发送:01 03 04 20 00 01 84 F0
15:34:38.290 设备接收:01 03 02 00 31 79 90
15:34:38.635 设备发送:01 03 04 05 00 01 95 3B
15:34:40.310 设备接收:01 03 02 00 00 B8 44
15:34:40.324 设备发送:02 03 04 84 00 04 05 23
15:34:42.338 设备接收:02 03 08 13 87 02 FB FF FC 02 FB 78 73
15:34:42.349 设备发送:02 03 04 8D 00 05 14 E1
15:34:44.366 设备接收:02 03 0A 09 11 04 5E 00 00 00 00 00 00 8F 3C
15:34:44.392 设备发送:02 03 04 98 00 05 05 25
15:34:46.377 设备接收:02 03 0A 09 0C 04 72 00 00 00 00 00 00 F7 AE
15:34:46.518 设备发送:02 03 04 A3 00 05 74 E8
15:34:48.395 设备接收:02 03 0A 09 15 04 8B 00 00 00 00 00 00 39 31
15:34:48.404 设备发送:02 03 06 84 00 04 04 9B
15:34:50.415 设备接收:02 03 08 00 00 50 38 00 0C 78 F1 14 81
15:34:50.434 设备发送:02 03 04 04 00 01 C4 C8
15:34:52.436 设备接收:02 03 02 00 02 7D 85
15:34:52.455 设备发送:02 03 05 84 00 0F 45 18
15:34:54.446 设备接收:02 03 1E 1D 79 01 2C 00 E2 1E 2B 00 9C 00 78 04 6B 00 00 00 00 04 6C 00 00 00 00 1D 65 01 1B 00 D5 DC D2
15:34:54.469 设备发送:02 03 05 93 00 0F F5 1C
15:34:56.452 设备接收:02 03 1E 1E 64 01 0C 00 D0 1D 96 00 95 00 71 04 6A 00 00 00 00 04 6D 00 00 00 00 04 6B 00 00 00 00 3F E5
15:34:56.472 设备发送:02 03 05 A2 00 0F A4 D3
15:34:58.478 设备接收:02 03 1E 00 00 00 00 00 00 00 01 00 05 00 00 00 00 00 00 00 00 00 00 00 00 00 00 00 00 00 00 00 00 F4 73
15:34:58.519 设备发送:02 03 05 B1 00 03 55 13
15:35:00.525 设备接收:02 03 06 00 00 00 00 00 00 35 85
15:35:01.136 设备发送:02 03 04 2B 00 01 F5 01
15:35:02.543 设备接收:02 03 02 02 2C FC F9
15:35:02.598 设备发送:02 03 04 20 00 01 84 C3
15:35:04.557 设备接收:02 03 02 00 25 3D 9F
15:35:04.919 设备发送:02 03 04 05 00 01 95 08
15:35:06.567 设备接收:02 03 02 00 00 FC 44
15:35:06.610 设备发送:03 03 04 84 00 04 04 F2
15:35:08.581 设备接收:03 03 08 13 85 04 2F 00 01 04 2F CD 20
15:35:08.637 设备发送:03 03 04 8D 00 05 15 30
15:35:10.627 设备接收:03 03 0A 09 0E 06 19 00 00 00 00 00 00 B7 50
15:35:10.647 设备发送:03 03 04 98 00 05 04 F4
15:35:12.629 设备接收:03 03 0A 09 0E 06 2B 00 00 00 00 00 00 A4 93
15:35:12.666 设备发送:03 03 04 A3 00 05 75 39
15:35:14.642 设备接收:03 03 0A 09 1B 06 3B 00 00 00 00 00 00 47 C2
15:35:14.685 设备发送:03 03 06 84 00 04 05 4A
15:35:16.674 设备接收:03 03 08 00 00 6F 5C 00 10 6D C5 AA 3B
15:35:16.706 设备发送:03 03 04 04 00 01 C5 19
15:35:18.704 设备接收:03 03 02 00 02 40 45
15:35:18.720 设备发送:03 03 05 84 00 0F 44 C9
15:35:20.720 设备接收:03 03 1E 1C 54 01 2F 00 DC 1C 41 01 2A 00 D8 1C 74 01 25 00 D5 1B A6 01 24 00 CE 1C 43 01 42 00 E9 21 22
15:35:20.765 设备发送:03 03 05 93 00 0F F4 CD
15:35:22.738 设备接收:03 03 1E 17 16 00 AC 00 65 04 5C 00 00 00 00 04 63 00 00 00 00 04 56 00 00 00 00 04 61 00 0B 00 01 C2 25
15:35:22.753 设备发送:03 03 05 A2 00 0F A5 02
15:35:24.778 设备接收:03 03 1E 00 0D 00 01 00 00 00 06 00 03 00 00 00 00 00 00 00 00 00 00 00 00 00 00 00 00 00 00 00 00 A7 49
15:35:24.788 设备发送:03 03 05 B1 00 03 54 C2
15:35:26.791 设备接收:03 03 06 00 00 00 00 00 00 38 15
15:35:26.809 设备发送:03 03 04 2B 00 01 F4 D0
15:35:28.805 设备接收:03 03 02 01 E1 00 5C
15:35:28.816 设备发送:03 03 04 20 00 01 85 12
15:35:30.818 设备接收:03 03 02 00 22 41 9D
15:35:30.830 设备发送:03 03 04 05 00 01 94 D9
15:35:32.833 设备接收:03 03 02 00 00 C1 84
15:35:32.974 设备发送:04 03 04 84 00 04 05 45
15:35:34.857 设备接收:04 03 08 13 86 02 E5 FF E1 02 E5 CE 37
15:35:34.888 设备发送:04 03 04 8D 00 05 14 87
15:35:36.889 设备接收:04 03 0A 09 05 04 53 00 00 00 00 00 00 A5 3A
15:35:36.898 设备发送:04 03 04 98 00 05 05 43
15:35:38.901 设备接收:04 03 0A 09 0E 04 49 00 00 00 00 00 00 6D CB
15:35:39.023 设备发送:04 03 04 A3 00 05 74 8E
15:35:40.935 设备接收:04 03 0A 09 13 04 87 00 00 00 00 00 00 D7 57
15:35:40.950 设备发送:04 03 06 84 00 04 04 FD
15:35:42.936 设备接收:04 03 08 00 00 22 70 00 09 F9 B9 90 B2
15:35:42.967 设备发送:04 03 04 04 00 01 C4 AE
15:35:44.989 设备接收:04 03 02 00 02 F5 85
15:35:45.004 设备发送:04 03 05 84 00 0F 45 7E
15:35:47.001 设备接收:04 03 1E 20 0D 00 B0 00 91 1F DE 00 60 00 4F 1F 98 00 55 00 44 1E 8E 00 9C 00 7A 1E 3E 00 B3 00 8A 10 18
15:35:47.017 设备发送:04 03 05 93 00 0F F5 7A
15:35:49.007 设备接收:04 03 1E 1D C1 00 C1 00 93 1D B1 00 62 00 4A 1F 34 00 5F 00 4C 05 6B 00 00 00 00 05 78 00 00 00 00 FD 50
15:35:49.019 设备发送:04 03 05 A2 00 0F A4 B5
15:35:51.028 设备接收:04 03 1E 00 00 00 00 00 00 00 04 00 01 00 00 00 00 00 00 00 00 00 00 00 00 00 00 00 00 00 00 00 00 26 99
15:35:51.090 设备发送:04 03 05 B1 00 03 55 75
15:35:53.060 设备接收:04 03 06 00 00 00 00 00 00 1E 25
15:35:53.275 设备发送:04 03 04 2B 00 01 F5 67
15:35:55.063 设备接收:04 03 02 02 D7 35 7A
15:35:55.072 设备发送:04 03 04 20 00 01 84 A5
15:35:57.099 设备接收:04 03 02 00 27 34 5E
15:35:57.125 设备发送:04 03 04 05 00 01 95 6E
15:35:59.098 设备接收:04 03 02 00 00 74 44
15:35:59.131 设备发送:05 03 04 84 00 04 04 94
15:36:01.143 设备接收:05 03 08 13 85 03 2F FF FC 03 2F 71 CB
15:36:01.159 设备发送:05 03 04 8D 00 05 15 56
15:36:03.143 设备接收:05 03 0A 09 04 04 A1 00 00 00 00 00 00 79 E4
15:36:03.190 设备发送:05 03 04 98 00 05 04 92
15:36:05.170 设备接收:05 03 0A 09 05 04 B5 00 00 00 00 00 00 20 75
15:36:05.201 设备发送:05 03 04 A3 00 05 75 5F
15:36:07.202 设备接收:05 03 0A 09 12 04 BA 00 00 00 00 00 00 34 85
15:36:07.224 设备发送:05 03 06 84 00 04 05 2C
15:36:09.218 设备接收:05 03 08 00 00 24 41 00 0E 5E 6A 63 80
15:36:10.176 设备发送:05 03 04 04 00 01 C5 7F
15:36:11.254 设备接收:05 03 02 00 02 C8 45
15:36:11.274 设备发送:05 03 05 84 00 0F 44 AF
15:36:13.243 设备接收:05 03 1E 1E 21 00 B5 00 8C 1D 6C 00 A2 00 7A 1E 5C 00 4C 00 3B 1D E5 00 BB 00 8F 1E 41 00 56 00 42 32 45
15:36:13.253 设备发送:05 03 05 93 00 0F F4 AB
15:36:15.268 设备接收:05 03 1E 1D F8 00 58 00 43 1E 00 00 57 00 43 1D 7C 00 57 00 41 1D 85 00 61 00 4A 1E 6B 00 60 00 4B 90 86
15:36:15.315 设备发送:05 03 05 A2 00 0F A5 64
15:36:17.281 设备接收:05 03 1E 00 00 00 00 00 00 00 00 00 02 00 00 00 00 00 00 00 00 00 00 00 00 00 00 00 00 00 00 00 00 4A 99
15:36:17.323 设备发送:05 03 05 B1 00 03 54 A4
15:36:19.312 设备接收:05 03 06 00 00 00 00 00 00 13 B5
15:36:19.322 设备发送:05 03 04 2B 00 01 F4 B6
15:36:21.344 设备接收:05 03 02 02 DC 49 7D
15:36:21.360 设备发送:05 03 04 20 00 01 85 74
15:36:23.358 设备接收:05 03 02 00 37 08 52
15:36:23.387 设备发送:05 03 04 05 00 01 94 BF
15:36:25.385 设备接收:05 03 02 00 00 49 84
15:36:25.401 设备发送:06 03 04 84 00 04 04 A7
15:36:27.415 设备接收:06 03 08 13 86 02 ED 00 13 02 EE F4 6E
15:36:27.430 设备发送:06 03 04 8D 00 05 15 65
15:36:29.412 设备接收:06 03 0A 09 05 04 56 00 00 00 00 00 00 F7 78
15:36:29.448 设备发送:06 03 04 98 00 05 04 A1
15:36:31.430 设备接收:06 03 0A 09 0B 04 50 00 00 00 00 00 00 DD 18
15:36:31.451 设备发送:06 03 04 A3 00 05 75 6C
15:36:33.470 设备接收:06 03 0A 09 11 04 6D 00 00 00 00 00 00 82 BB
15:36:33.485 设备发送:06 03 06 84 00 04 05 1F
15:36:35.502 设备接收:06 03 08 00 00 21 2F 00 0D 47 FF BE A7
15:36:35.517 设备发送:06 03 04 04 00 01 C5 4C
15:36:37.515 设备接收:06 03 02 00 02 8C 45
15:36:37.531 设备发送:06 03 05 84 00 0F 44 9C
15:36:39.537 设备接收:06 03 1E 1E 15 00 AE 00 86 1D CA 00 BF 00 91 1D 62 00 52 00 3D 1D A2 00 4E 00 3B 1D 7C 00 63 00 4A EA 19
15:36:39.548 设备发送:06 03 05 93 00 0F F4 98
15:36:41.555 设备接收:06 03 1E 1D 3A 00 61 00 49 1D AD 00 64 00 4C 1E 2B 00 67 00 4F 1D E8 00 40 00 31 1D DA 00 4A 00 38 A4 15
15:36:41.564 设备发送:06 03 05 A2 00 0F A5 57
15:36:43.565 设备接收:06 03 1E 00 00 00 00 00 00 00 00 00 07 00 00 00 00 00 00 00 00 00 00 00 00 00 00 00 00 00 00 00 00 AB CC
15:36:43.570 设备发送:06 03 05 B1 00 03 54 97
15:36:45.562 设备接收:06 03 06 00 00 00 00 00 00 07 45
15:36:45.613 设备发送:06 03 04 2B 00 01 F4 85
15:36:47.610 设备接收:06 03 02 02 DC 0D 7D
15:36:47.631 设备发送:06 03 04 20 00 01 85 47
15:36:49.620 设备接收:06 03 02 00 32 8C 51
15:36:49.630 设备发送:06 03 04 05 00 01 94 8C
15:36:51.625 设备接收:06 03 02 00 00 0D 84
15:36:51.666 设备发送:07 03 04 84 00 04 05 76
15:36:53.683 设备接收:07 03 08 13 89 03 08 FF F9 03 08 D2 6F
15:36:53.853 设备发送:07 03 04 8D 00 05 14 B4
15:36:55.680 设备接收:07 03 0A 09 05 04 77 00 00 00 00 00 00 C4 FB
15:36:55.719 设备发送:07 03 04 98 00 05 05 70
15:36:57.724 设备接收:07 03 0A 09 09 04 7D 00 00 00 00 00 00 3B FB
15:36:57.728 设备发送:07 03 04 A3 00 05 74 BD
15:36:59.719 设备接收:07 03 0A 09 10 04 AB 00 00 00 00 00 00 2B A6
15:36:59.729 设备发送:07 03 06 84 00 04 04 CE
15:37:01.757 设备接收:07 03 08 00 00 3B F9 00 0B 90 BE 8E 72
15:37:01.773 设备发送:07 03 04 04 00 01 C4 9D
15:37:03.755 设备接收:07 03 02 00 02 B1 85
15:37:03.786 设备发送:07 03 05 84 00 0F 45 4D
15:37:05.781 设备接收:07 03 1E 1D A6 00 BF 00 91 1D F9 00 5E 00 48 1D A6 00 5C 00 46 1D F8 00 56 00 42 1E 24 00 58 00 44 72 92
15:37:05.938 设备发送:07 03 05 93 00 0F F5 49
15:37:07.795 设备接收:07 03 1E 1E 2D 00 61 00 4B 1D D1 00 66 00 4E 1C 01 00 B1 00 7F 1A 02 00 86 00 59 1A 45 00 7F 00 55 91 22
15:37:07.826 设备发送:07 03 05 A2 00 0F A4 86
15:37:09.839 设备接收:07 03 1E 00 00 00 00 00 00 00 00 00 05 00 00 00 00 00 00 00 00 00 00 00 00 00 00 00 00 00 00 00 00 E5 EE
15:37:09.851 设备发送:07 03 05 B1 00 03 55 46
15:37:11.872 设备接收:07 03 06 00 00 00 00 00 00 0A D5
15:37:11.892 设备发送:07 03 04 2B 00 01 F5 54
15:37:12.07800

