
12:06:27.055 设备接收:07 03 0A 09 48 14 A1 00 00 00 00 00 00 1B 69
12:06:27.066 设备发送:07 03 06 84 00 04 04 CE
12:06:30.046 设备接收:07 03 08 00 00 22 B4 00 0B B2 9C 38 CC
12:06:30.078 设备发送:07 03 04 04 00 01 C4 9D
12:06:33.079 设备接收:07 03 02 00 02 B1 85
12:06:33.095 设备发送:07 03 05 84 00 0F 45 4D
12:06:36.108 设备接收:07 03 1E 1E FE 03 17 02 74 1F 2C 01 8E 01 3D 1E 82 01 96 01 3D 1E C9 01 91 01 3C 20 16 01 7B 01 37 CB 72
12:06:36.123 设备发送:07 03 05 93 00 0F F5 49
12:06:39.125 设备接收:07 03 1E 1F 51 01 91 01 42 1F 78 01 98 01 48 1D 77 03 1A 02 57 1B 3A 02 58 01 A2 19 F0 02 61 01 94 B9 02
12:06:39.140 设备发送:07 03 05 A2 00 0F A4 86
12:06:42.141 设备接收:07 03 1E 00 00 00 00 00 00 00 00 00 06 00 00 00 00 00 00 00 00 00 00 00 00 00 00 00 00 00 00 00 00 D6 DD
12:06:42.173 设备发送:07 03 05 B1 00 03 55 46
12:06:45.186 设备接收:07 03 06 00 00 00 00 00 00 0A D5
12:06:45.202 设备发送:07 03 04 2B 00 01 F5 54
12:06:48.195 设备接收:07 03 02 02 C8 30 B2
12:06:48.210 设备发送:07 03 04 20 00 01 84 96
12:06:51.228 设备接收:07 03 02 00 37 71 92
12:06:51.244 设备发送:07 03 04 05 00 01 95 5D
12:06:54.245 设备接收:07 03 02 00 00 30 44
12:06:54.261 设备发送:08 03 04 84 00 04 05 89
12:06:57.245 设备接收:08 03 08 13 85 0B AB FF BA 0B AC 1C 85
12:06:57.276 设备发送:08 03 04 8D 00 05 14 4B
12:07:00.281 设备接收:08 03 0A 09 3F 10 75 00 00 00 00 00 00 D9 6A
12:07:00.297 设备发送:08 03 04 98 00 05 05 8F
12:07:03.286 设备接收:08 03 0A 09 46 10 86 00 00 00 00 00 00 15 F7
12:07:03.301 设备发送:08 03 04 A3 00 05 74 42
12:07:06.319 设备接收:08 03 0A 09 48 10 A7 00 00 00 00 00 00 68 95
12:07:06.335 设备发送:08 03 06 84 00 04 04 31
12:07:09.322 设备接收:08 03 08 00 00 1B 38 00 0D 0D 30 8C 22
12:07:09.338 设备发送:08 03 04 04 00 01 C4 62
12:07:12.374 设备接收:08 03 02 00 02 E5 84
12:07:12.390 设备发送:08 03 05 84 00 0F 45 B2
12:07:15.397 设备接收:08 03 1E 21 58 02 9A 02 39 21 16 02 85 02 22 21 5E 02 5C 02 04 05 16 00 01 00 00 1F 6F 02 97 02 16 27 49
12:07:15.418 设备发送:08 03 05 93 00 0F F5 B6
12:07:18.415 设备接收:08 03 1E 1F B9 02 6F 01 FA 1F 98 02 66 01 F0 05 0E 00 00 00 00 05 0D 00 02 00 00 05 0D 00 00 00 00 12 80
12:07:18.431 设备发送:08 03 05 A2 00 0F A4 79
12:07:21.445 设备接收:08 03 1E 00 00 00 00 00 00 00 01 00 02 00 00 00 00 00 00 00 00 00 00 00 00 00 00 00 00 00 00 00 00 3A C7
12:07:21.459 设备发送:08 03 05 B1 00 03 55 B9
12:07:24.439 设备接收:08 03 06 00 00 00 00 00 00 4B 25
12:07:24.454 设备发送:08 03 04 2B 00 01 F5 AB
12:07:27.457 设备接收:08 03 02 02 D8 65 7F
12:07:27.488 设备发送:08 03 04 20 00 01 84 69
12:07:30.492 设备接收:08 03 02 00 34 65 92
12:07:30.508 设备发送:08 03 04 05 00 01 95 A2
12:07:33.496 设备接收:08 03 02 00 00 64 45
12:07:33.511 设备发送:09 03 04 84 00 04 04 58
12:07:36.516 设备接收:09 03 08 13 85 0D 57 FF E1 0D 57 7B FB
12:07:36.548 设备发送:09 03 04 8D 00 05 15 9A
12:07:39.552 设备接收:09 03 0A 09 46 12 C5 00 00 00 00 00 00 E4 6B
12:07:39.567 设备发送:09 03 04 98 00 05 04 5E
12:07:42.576 设备接收:09 03 0A 09 3C 12 C1 00 00 00 00 00 00 BA C9
12:07:42.591 设备发送:09 03 04 A3 00 05 75 93
12:07:45.597 设备接收:09 03 0A 09 51 12 CA 00 00 00 00 00 00 F0 9B
12:07:45.612 设备发送:09 03 06 84 00 04 05 E0
12:07:48.612 设备接收:09 03 08 00 00 1E C0 00 0E F4 9E 1A B3
12:07:48.628 设备发送:09 03 04 04 00 01 C5 B3
12:07:51.628 设备接收:09 03 02 00 02 D8 44
12:07:51.643 设备发送:09 03 05 84 00 0F 44 63
12:07:54.636 设备接收:09 03 1E 1E D5 02 97 02 0B 1F 0C 02 B7 02 28 1F 77 02 7C 02 00 1F 7E 01 38 00 FC 1F C8 02 69 01 F6 4E 9E
12:07:54.652 设备发送:09 03 05 93 00 0F F4 67
12:07:57.679 设备接收:09 03 1E 1F 5B 02 7A 01 FD 1F F3 02 6C 01 FB 1F 57 01 3F 00 FF 05 80 00 03 00 00 05 82 00 01 00 00 86 06
12:07:57.694 设备发送:09 03 05 A2 00 0F A5 A8
12:08:00.675 设备接收:09 03 1E 00 08 00 00 00 00 00 04 00 02 00 00 00 00 00 00 00 00 00 00 00 00 00 00 00 00 00 00 00 00 A8 66
12:08:00.737 设备发送:09 03 05 B1 00 03 54 68
12:08:03.722 设备接收:09 03 06 00 00 00 00 00 00 46 B5
12:08:03.737 设备发送:09 03 04 2B 00 01 F4 7A
12:08:06.740 设备接收:09 03 02 02 D4 58 BA
12:08:06.756 设备发送:09 03 04 20 00 01 85 B8
12:08:09.742 设备接收:09 03 02 00 2E D9 99
12:08:09.773 设备发送:09 03 04 05 00 01 94 73
12:08:12.767 设备接收:09 03 02 00 00 59 85
12:08:12.782 设备发送:0A 03 04 84 00 04 04 6B
12:08:15.793 设备接收:0A 03 08 13 85 0C 91 00 12 0C 91 BC 9A
12:08:15.809 设备发送:0A 03 04 8D 00 05 15 A9
12:08:18.816 设备接收:0A 03 0A 09 3F 11 B9 00 00 00 00 00 00 13 E8
12:08:18.847 设备发送:0A 03 04 98 00 05 04 6D
12:08:21.864 设备接收:0A 03 0A 09 47 11 B5 00 00 00 00 00 00 DD EA
12:08:21.879 设备发送:0A 03 04 A3 00 05 75 A0
12:08:24.887 设备接收:0A 03 0A 09 50 11 CE 00 00 00 00 00 00 FD 1D
12:08:24.903 设备发送:0A 03 06 84 00 04 05 D3
12:08:27.896 设备接收:0A 03 08 00 00 1D 72 00 0D CB 45 8C 75
12:08:27.912 设备发送:0A 03 04 04 00 01 C5 80
12:08:30.914 设备接收:0A 03 02 00 02 9C 44
12:08:30.930 设备发送:0A 03 05 84 00 0F 44 50
12:08:33.907 设备接收:0A 03 1E 1F 8A 02 A8 02 25 1F B8 02 80 02 08 1F C6 02 6C 01 F8 1F 73 02 7D 02 01 1F 96 02 9B 02 1C 09 10
12:08:33.938 设备发送:0A 03 05 93 00 0F F4 54
12:08:36.954 设备接收:0A 03 1E 1F 7E 02 8F 02 10 1F A7 01 43 01 06 05 33 00 00 00 00 05 43 00 06 00 00 05 41 00 00 00 00 40 C6
12:08:36.970 设备发送:0A 03 05 A2 00 0F A5 9B
12:08:39.977 设备接收:0A 03 1E 00 0A 00 00 00 00 00 09 00 02 00 00 00 00 00 00 00 00 00 00 00 00 00 00 00 00 00 00 00 00 04 AC
12:08:39.993 设备发送:0A 03 05 B1 00 03 54 5B
12:08:42.985 设备接收:0A 03 06 00 00 00 00 00 00 52 45
12:08:43.000 设备发送:0A 03 04 2B 00 01 F4 49
12:08:46.029 设备接收:0A 03 02 02 D9 DD 7F
12:08:46.045 设备发送:0A 03 04 20 00 01 85 8B
12:08:49.036 设备接收:0A 03 02 00 22 9D 9C
12:08:49.051 设备发送:0A 03 04 05 00 01 94 40
12:08:52.045 设备接收:0A 03 02 00 00 1D 85
12:08:52.107 设备发送:0B 03 04 84 00 04 05 BA
12:08:55.091 设备接收:0B 03 08 13 84 04 E4 FF D3 04 E5 42 2A
12:08:55.107 设备发送:0B 03 04 8D 00 05 14 78
12:08:58.085 设备接收:0B 03 0A 09 5A 06 D4 00 00 00 00 00 00 7A 17
12:08:58.149 设备发送:0B 03 04 98 00 05 05 BC
12:09:01.134 设备接收:0B 03 0A 09 51 06 DC 00 00 00 00 00 00 80 E7
12:09:01.150 设备发送:0B 03 04 A3 00 05 74 71
12:09:04.152 设备接收:0B 03 0A 09 57 06 CF 00 00 00 00 00 00 89 86
12:09:04.168 设备发送:0B 03 06 84 00 04 04 02
12:09:07.138 设备接收:0B 03 08 00 00 0B 57 00 04 9B A5 2A 32
12:09:07.170 设备发送:0B 03 04 04 00 01 C4 51
12:09:10.204 设备接收:0B 03 02 00 02 A1 84
12:09:10.219 设备发送:0B 03 05 84 00 0F 45 81
12:09:13.205 设备发送:0B 03 05 93 00 0F F5 85
12:09:13.220 设备接收:0B 03 1E 1F 61 02 72 01 F6 1D C6 01 8C 01 2E 1D AC 01 43 00 F5 1D 91 01 62 01 0C 00 00 00 00 00 00 83 52
12:09:16.253 设备接收:0B 03 1E 00 00 00 00 00 00 00 00 00 00 00 00 00 00 00 00 00 00 00 00 00 00 00 00 00 00 00 00 00 00 60 B9
12:09:16.269 设备发送:0B 03 05 A2 00 0F A4 4A
12:09:19.259 设备接收:0B 03 1E 00 00 00 00 00 00 00 00 00 00 00 00 00 00 00 00 00 00 00 00 00 00 00 00 00 00 00 00 00 00 60 B9
12:09:19.275 设备发送:0B 03 05 B1 00 03 55 8A
12:09:22.281 设备接收:0B 03 06 00 00 00 00 00 00 5F D5
12:09:22.297 设备发送:0B 03 04 2B 00 01 F5 98
12:09:25.288 设备接收:0B 03 02 01 D3 60 48
12:09:25.303 设备发送:0B 03 04 20 00 01 84 5A
12:09:28.298 设备接收:0B 03 02 00 28 20 5B
12:09:28.329 设备发送:0B 03 04 05 00 01 95 91
12:09:31.332 设备接收:0B 03 02 00 00 20 45
12:09:31.348 设备发送:0C 03 04 84 00 04 04 0D
12:09:34.353 设备接收:0C 03 08 13 85 03 D3 FF D3 03 D8 7F 0C
12:09:34.369 设备发送:0C 03 04 8D 00 05 15 CF
12:09:37.387 设备接收:0C 03 0A 09 56 05 5F 00 00 00 00 00 00 5F 4D
12:09:37.402 设备发送:0C 03 04 98 00 05 04 0B
12:09:40.415 设备接收:0C 03 0A 09 50 05 61 00 00 00 00 00 00 AB 2E
12:09:40.445 设备发送:0C 03 04 A3 00 05 75 C6
12:09:43.439 设备接收:0C 03 0A 09 53 05 5A 00 00 00 00 00 00 35 1D
12:09:43.454 设备发送:0C 03 06 84 00 04 05 B5
12:09:46.435 设备接收:0C 03 08 00 00 08 FE 00 04 08 41 00 D6
12:09:46.451 设备发送:0C 03 04 04 00 01 C5 E6
12:09:49.443 设备接收:0C 03 02 00 02 14 44
12:09:49.475 设备发送:0C 03 05 84 00 0F 44 36
12:09:52.500 设备接收:0C 03 1E 1D D3 02 7C 01 E5 1F 02 02 8E 02 07 06 06 00 00 00 00 0D A3 00 00 00 00 00 00 00 00 00 00 B8 FB
12:09:52.517 设备发送:0C 03 05 93 00 0F F4 32
12:09:55.521 设备接收:0C 03 1E 00 00 00 00 00 00 00 00 00 00 00 00 00 00 00 00 00 00 00 00 00 00 00 00 00 00 00 00 00 00 65 78
12:09:55.553 设备发送:0C 03 05 A2 00 0F A5 FD
12:09:58.530 设备接收:0C 03 1E 00 00 00 00 00 00 00 00 00 00 00 00 00 00 00 00 00 00 00 00 00 00 00 00 00 00 00 00 00 00 65 78
12:09:58.546 设备发送:0C 03 05 B1 00 03 54 3D
12:10:01.558 设备接收:0C 03 06 00 00 00 00 00 00 79 E5
12:10:01.574 设备发送:0C 03 04 2B 00 01 F4 2F
12:10:04.567 设备接收:0C 03 02 01 D7 D4 4B
12:10:04.586 设备发送:0C 03 04 20 00 01 85 ED
12:10:07.582 设备接收:0C 03 02 00 1C 94 4C
12:10:07.597 设备发送:0C 03 04 05 00 01 94 26
12:10:10.623 设备接收:0C 03 02 00 00 95 85
12:10:10.653 设备发送:01 03 04 84 00 04 05 10
12:10:13.642 设备接收:01 03 08 13 85 08 01 00 11 08 01 AA 8B
12:10:13.656 设备发送:01 03 04 8D 00 05 14 D2
12:10:16.675 设备接收:01 03 0A 09 40 0B 53 00 00 00 00 00 00 E7 EC
12:10:16.707 设备发送:01 03 04 98 00 05 05 16
12:10:19.678 设备接收:01 03 0A 09 3E 0B 50 00 00 00 00 00 00 FD 4E
12:10:19.709 设备发送:01 03 04 A3 00 05 74 DB
12:10:22.702 设备接收:01 03 0A 09 41 0B 66 00 00 00 00 00 00 8F 7F
12:10:22.718 设备发送:01 03 06 84 00 04 04 A8
12:10:25.737 设备接收:01 03 08 00 00 13 E5 00 04 56 75 65 24
12:10:25.751 设备发送:01 03 04 04 00 01 C4 FB
12:10:28.724 设备接收:01 03 02 00 02 39 85
12:10:28.787 设备发送:01 03 05 84 00 0F 45 2B
12:10:31.754 设备接收:01 03 1E 03 86 00 00 00 00 03 88 00 00 00 00 1A 6E 08 18 05 7A 03 82 00 06 00 00 03 7C 00 04 00 00 FB E6
12:10:31.770 设备发送:01 03 05 93 00 0F F5 2F
12:10:34.774 设备接收:01 03 1E 1D 91 03 F7 03 00 03 72 00 00 00 00 03 7D 00 03 00 00 03 7B 00 06 00 00 03 80 00 00 00 00 40 2A
12:10:34.790 设备发送:01 03 05 A2 00 0F A4 E0
12:10:37.803 设备接收:01 03 1E 00 02 00 00 00 00 00 02 00 00 00 00 00 00 00 00 00 00 00 00 00 00 00 00 00 00 00 00 00 00 C1 C0
12:10:37.818 设备发送:01 03 05 B1 00 03 55 20
12:10:40.821 设备接收:01 03 06 00 00 00 00 00 00 21 75
12:10:40.837 设备发送:01 03 04 2B 00 01 F5 32
12:10:43.842 设备接收:01 03 02 02 EF F8 A8
12:10:43.858 设备发送:01 03 04 20 00 01 84 F0
12:10:46.851 设备接收:01 03 02 00 22 38 5D
12:10:46.866 设备发送:01 03 04 05 00 01 95 3B
12:10:49.865 设备接收:01 03 02 00 00 B8 44
12:10:49.895 设备发送:02 03 04 84 00 04 05 23
12:10:52.922 设备接收:02 03 08 13 84 16 B2 FF CC 16 B2 5B 50
12:10:52.937 设备发送:02 03 04 8D 00 05 14 E1
12:10:55.934 设备接收:02 03 0A 09 50 1F CD 00 00 00 00 00 00 50 D9
12:10:55.950 设备发送:02 03 04 98 00 05 05 25
12:10:58.940 设备接收:02 03 0A 09 4D 1F B6 00 00 00 00 00 00 0E 8E
12:10:58.970 设备发送:02 03 04 A3 00 05 74 E8
12:11:01.975 设备接收:02 03 0A 09 55 1F B2 00 00 00 00 00 00 E1 4E
12:11:01.991 设备发送:02 03 06 84 00 04 04 9B
12:11:04.974 设备接收:02 03 08 00 00 35 BD 00 0C AB BE CC 6E
12:11:04.990 设备发送:02 03 04 04 00 01 C4 C8
12:11:07.992 设备接收:02 03 02 00 02 7D 85
12:11:08.006 设备发送:02 03 05 84 00 0F 45 18
12:11:11.013 设备接收:02 03 1E 1D 62 07 BD 05 D2 1D 77 03 FB 03 00 04 5E 00 00 00 00 04 5F 00 07 00 00 1D 44 07 B8 05 C9 CA 79
12:11:11.029 设备发送:02 03 05 93 00 0F F5 1C
12:11:14.057 设备接收:02 03 1E 1D 47 07 C5 05 D3 1D 79 03 EC 02 F5 04 5C 00 06 00 00 04 5F 00 00 00 00 04 59 00 00 00 00 D9 6A
12:11:14.072 设备发送:02 03 05 A2 00 0F A4 D3
12:11:17.066 设备接收:02 03 1E 00 00 00 00 00 00 00 01 00 05 00 00 00 00 00 00 00 00 00 00 00 00 00 00 00 00 00 00 00 00 F4 73
12:11:17.082 设备发送:02 03 05 B1 00 03 55 13
12:11:20.076 设备接收:02 03 06 00 00 00 00 00 00 35 85
12:11:20.091 设备发送:02 03 04 2B 00 01 F5 01
12:11:23.109 设备接收:02 03 02 02 E9 3C AA
12:11:23.139 设备发送:02 03 04 20 00 01 84 C3
12:11:26.143 设备接收:02 03 02 00 24 FC 5F
12:11:26.173 设备发送:02 03 04 05 00 01 95 08
12:11:29.144 设备接收:02 03 02 00 00 FC 44
12:11:29.160 设备发送:03 03 04 84 00 04 04 F2
12:11:32.181 设备接收:03 03 08 13 86 1D B3 FF 4D 1D B5 56 0D
12:11:32.196 设备发送:03 03 04 8D 00 05 15 30
12:11:35.206 设备接收:03 03 0A 09 62 29 3E 00 00 00 00 00 00 5F 08
12:11:35.299 设备发送:03 03 04 98 00 05 04 F4
12:11:38.211 设备接收:03 03 0A 09 5A 29 36 00 00 00 00 00 00 E5 09
12:11:38.226 设备发送:03 03 04 A3 00 05 75 39
12:11:41.247 设备接收:03 03 0A 09 6C 29 34 00 00 00 00 00 00 B9 68
12:11:41.263 设备发送:03 03 06 84 00 04 05 4A
12:11:44.232 设备接收:03 03 08 00 00 4F A1 00 10 B6 8D 9A 49
12:11:44.263 设备发送:03 03 04 04 00 01 C5 19
12:11:47.279 设备接收:03 03 02 00 02 40 45
12:11:47.295 设备发送:03 03 05 84 00 0F 44 C9
12:11:50.311 设备接收:03 03 1E 1C 86 07 A9 05 98 1C 2D 07 D6 05 A7 1C 1F 07 D4 05 A2 1C 78 07 B8 05 A0 1C 00 07 E8 05 AB 3C BF
12:11:50.340 设备发送:03 03 05 93 00 0F F4 CD
12:11:53.321 设备接收:03 03 1E 16 F7 04 10 02 63 04 5C 00 00 00 00 04 63 00 00 00 00 04 55 00 00 00 00 04 60 00 04 00 00 3B 20
12:11:53.336 设备发送:03 03 05 A2 00 0F A5 02
12:11:56.329 设备接收:03 03 1E 00 0D 00 01 00 00 00 06 00 03 00 00 00 00 00 00 00 00 00 00 00 00 00 00 00 00 00 00 00 00 A7 49
12:11:56.359 设备发送:03 03 05 B1 00 03 54 C2
12:11:59.355 设备接收:03 03 06 00 00 00 00 00 00 38 15
12:11:59.387 设备发送:03 03 04 2B 00 01 F4 D0
12:12:02.360 设备接收:03 03 02 02 E6 41 6E
12:12:02.391 设备发送:03 03 04 20 00 01 85 12
12:12:05.380 设备接收:03 03 02 00 18 C1 8E
12:12:05.398 设备发送:03 03 04 05 00 01 94 D9
12:12:08.388 设备接收:03 03 02 00 00 C1 84
12:12:08.419 设备发送:04 03 04 84 00 04 05 45
12:12:11.417 设备接收:04 03 08 13 85 0E 91 FF A4 0E 92 19 03
12:12:11.450 设备发送:04 03 04 8D 00 05 14 87
12:12:14.471 设备接收:04 03 0A 09 43 14 68 00 00 00 00 00 00 34 96
12:12:14.486 设备发送:04 03 04 98 00 05 05 43
12:12:17.473 设备接收:04 03 0A 09 53 14 4C 00 00 00 00 00 00 9D 54
12:12:17.488 设备发送:04 03 04 A3 00 05 74 8E
12:12:20.475 设备接收:04 03 0A 09 51 14 7C 00 00 00 00 00 00 B4 37
12:12:20.506 设备发送:04 03 06 84 00 04 04 FD
12:12:23.498 设备接收:04 03 08 00 00 24 3F 00 0A 1B 98 BD A2
12:12:23.513 设备发送:04 03 04 04 00 01 C4 AE
12:12:26.543 设备接收:04 03 02 00 02 F5 85
12:12:26.559 设备发送:04 03 05 84 00 0F 45 7E
12:12:29.541 设备接收:04 03 1E 20 8B 03 23 02 9D 20 F6 01 9F 01 5E 20 F8 01 98 01 59 1E 84 02 ED 02 49 1E CE 03 1D 02 74 70 4D
12:12:29.588 设备发送:04 03 05 93 00 0F F5 7A
12:12:32.585 设备接收:04 03 1E 1E DD 03 40 02 92 1E 61 01 9C 01 40 1F DA 01 A3 01 56 05 82 00 00 00 00 05 8D 00 0D 00 01 C6 2B
12:12:32.599 设备发送:04 03 05 A2 00 0F A4 B5
12:12:35.611 设备接收:04 03 1E 00 00 00 00 00 00 00 04 00 01 00 00 00 00 00 00 00 00 00 00 00 00 00 00 00 00 00 00 00 00 26 99
12:12:35.627 设备发送:04 03 05 B1 00 03 55 75
12:12:38.615 设备接收:04 03 06 00 00 00 00 00 00 1E 25
12:12:38.646 设备发送:04 03 04 2B 00 01 F5 67
12:12:41.638 设备接收:04 03 02 02 CC 75 71
12:12:41.670 设备发送:04 03 04 20 00 01 84 A5
12:12:44.682 设备接收:04 03 02 00 31 B5 90
12:12:44.697 设备发送:04 03 04 05 00 01 95 6E
12:12:47.698 设备接收:04 03 02 00 00 74 44
12:12:47.714 设备发送:05 03 04 84 00 04 04 94
12:12:50.699 设备接收:05 03 08 13 85 0E D1 FF A4 0E D2 1D C0
12:12:50.714 设备发送:05 03 04 8D 00 05 15 56
12:12:53.732 设备接收:05 03 0A 09 4B 14 CB 00 00 00 00 00 00 C2 DD
12:12:53.745 设备发送:05 03 04 98 00 05 04 92
12:12:56.764 设备接收:05 03 0A 09 42 14 DC 00 00 00 00 00 00 CF 8C
12:12:56.781 设备发送:05 03 04 A3 00 05 75 5F
12:12:59.796 设备接收:05 03 0A 09 55 14 CE 00 00 00 00 00 00 16 7D
12:12:59.810 设备发送:05 03 06 84 00 04 05 2C
12:13:02.794 设备接收:05 03 08 00 00 25 28 00 0E 81 48 E6 71
12:13:02.809 设备发送:05 03 04 04 00 01 C5 7F
12:13:05.821 设备接收:05 03 02 00 02 C8 45
12:13:05.837 设备发送:05 03 05 84 00 0F 44 AF
12:13:08.848 设备接收:05 03 1E 1F 28 03 12 02 73 1E D5 02 BB 02 27 1F 4B 01 94 01 44 1F 25 03 26 02 83 1E F6 01 91 01 3E 77 5B
12:13:08.864 设备发送:05 03 05 93 00 0F F4 AB
12:13:11.861 设备发送:05 03 05 A2 00 0F A5 64
12:13:11.876 设备接收:05 03 1E 1F 19 01 9E 01 4A 1F 03 01 8A 01 38 1B CA 01 A7 01 2D 1F 44 01 84 01 37 1E CC 01 9F 01 47 4B 5A
12:13:14.862 设备接收:05 03 1E 00 00 00 00 00 00 00 00 00 02 00 00 00 00 00 00 00 00 00 00 00 00 00 00 00 00 00 00 00 00 4A 99
12:13:14.878 设备发送:05 03 05 B1 00 03 54 A4
12:13:17.913 设备接收:05 03 06 00 00 00 00 00 00 13 B5
12:13:17.944 设备发送:05 03 04 2B 00 01 F4 B6
12:13:20.915 设备接收:05 03 02 02 BF 09 54
12:13:20.931 设备发送:05 03 04 20 00 01 85 74
12:13:23.941 设备接收:05 03 02 00 36 C9 92
12:13:23.956 设备发送:05 03 04 05 00 01 94 BF
12:13:26.986 设备接收:05 03 02 00 00 49 84
12:13:27.005 设备发送:06 03 04 84 00 04 04 A7
12:13:29.990 设备接收:06 03 08 13 84 0D 6E 00 13 0D 6E 96 DF
12:13:30.006 设备发送:06 03 04 8D 00 05 15 65
12:13:33.000 设备接收:06 03 0A 09 3E 12 E5 00 00 00 00 00 00 D3 A4
12:13:33.015 设备发送:06 03 04 98 00 05 04 A1
12:13:35.995 设备接收:06 03 0A 09 49 12 D7 00 00 00 00 00 00 83 95
12:13:36.058 设备发送:06 03 04 A3 00 05 75 6C
12:13:39.038 设备接收:06 03 0A 09 4B 12 D7 00 00 00 00 00 00 9A F5
12:13:39.069 设备发送:06 03 06 84 00 04 05 1F
12:13:42.055 设备接收:06 03 08 00 00 22 08 00 0D 67 8C D2 B6
12:13:42.070 设备发送:06 03 04 04 00 01 C5 4C
12:13:45.071 设备接收:06 03 02 00 02 8C 45
12:13:45.091 设备发送:06 03 05 84 00 0F 44 9C
12:13:48.093 设备接收:06 03 1E 1F 56 02 B3 02 2B 1F 02 02 B3 02 24 1E 80 01 8B 01 34 1F 54 01 8A 01 3C 1E 5C 01 8F 01 36 31 87
12:13:48.107 设备发送:06 03 05 93 00 0F F4 98
12:13:51.124 设备接收:06 03 1E 1E 2B 01 87 01 2E 1E AB 01 9D 01 44 1F 0C 01 99 01 45 1F 1D 01 87 01 38 1E 2E 01 8A 01 31 B2 30
12:13:51.139 设备发送:06 03 05 A2 00 0F A5 57
12:13:54.158 设备接收:06 03 1E 00 00 00 00 00 00 00 00 00 07 00 00 00 00 00 00 00 00 00 00 00 00 00 00 00 00 00 00 00 00 AB CC
12:13:54.174 设备发送:06 03 05 B1 00 03 54 97
12:13:57.174 设备接收:06 03 06 00 00 00 00 00 00 07 45
12:13:57.189 设备发送:06 03 04 2B 00 01 F4 85
12:14:00.181 设备接收:06 03 02 02 C0 0C B4
12:14:00.197 设备发送:06 03 04 20 00 01 85 47
12:14:03.196 设备接收:06 03 02 00 30 0D 90
12:14:03.244 设备发送:06 03 04 05 00 01 94 8C
12:14:06.220 设备接收:06 03 02 00 00 0D 84
12:14:06.267 设备发送:07 03 04 84 00 04 05 76
12:14:09.269 设备发送:07 03 04 8D 00 05 14 B4
12:14:09.285 设备接收:07 03 08 13 87 0E BD FF A5 0E BE F4 5C
12:14:12.276 设备接收:07 03 0A 09 42 14 B9 00 00 00 00 00 00 FD C8
12:14:12.292 设备发送:07 03 04 98 00 05 05 70
12:14:15.310 设备接收:07 03 0A 09 48 14 B4 00 00 00 00 00 00 5F A8
12:14:15.326 设备发送:07 03 04 A3 00 05 74 BD
12:14:18.313 设备接收:07 03 0A 09 4F 14 B8 00 00 00 00 00 00 B5 98
12:14:18.344 设备发送:07 03 06 84 00 04 04 CE
12:14:21.357 设备接收:07 03 08 00 00 24 A2 00 0B B2 CD B0 95
12:14:21.373 设备发送:07 03 04 04 00 01 C4 9D
12:14:24.348 设备接收:07 03 02 00 02 B1 85
12:14:24.363 设备发送:07 03 05 84 00 0F 45 4D
12:14:27.368 设备接收:07 03 1E 1F 29 03 17 02 77 1F 06 01 92 01 40 1E 39 01 9A 01 3D 1E F6 01 8F 01 3C 1F CA 01 82 01 3A 3E 51
12:14:27.414 设备发送:07 03 05 93 00 0F F5 49
12:14:30.419 设备接收:07 03 1E 1F 22 01 95 01 43 1F 73 01 9B 01 4B 1D 4A 03 1F 02 57 1A E5 02 61 01 A3 1B 7B 02 4A 01 9C CD 3B
12:14:30.435 设备发送:07 03 05 A2 00 0F A4 86
12:14:33.420 设备接收:07 03 1E 00 00 00 00 00 00 00 00 00 05 00 00 00 00 00 00 00 00 00 00 00 00 00 00 00 00 00 00 00 00 E5 EE
12:14:33.435 设备发送:07 03 05 B1 00 03 55 46
12:14:36.461 设备接收:07 03 06 00 00 00 00 00 00 0A D5
12:14:36.477 设备发送:07 03 04 2B 00 01 F5 54
12:14:39.468 设备接收:07 03 02 02 C8 30 B2
12:14:39.484 设备发送:07 03 04 20 00 01 84 96
12:14:42.505 设备接收:07 03 02 00 3F 70 54
12:14:42.522 设备发送:07 03 04 05 00 01 95 5D
12:14:45.507 设备接收:07 03 02 00 00 30 44
12:14:45.522 设备发送:08 03 04 84 00 04 05 89
12:14:48.542 设备接收:08 03 08 13 87 0B C4 FF B9 0B C5 DB 62
12:14:48.573 设备发送:08 03 04 8D 00 05 14 4B
12:14:51.557 设备接收:08 03 0A 09 3E 10 99 00 00 00 00 00 00 F9 34
12:14:51.573 设备发送:08 03 04 98 00 05 05 8F
12:14:54.562 设备接收:08 03 0A 09 44 10 97 00 00 00 00 00 00 0D 96
12:14:54.577 设备发送:08 03 04 A3 00 05 74 42
12:14:57.581 设备接收:08 03 0A 09 46 10 C6 00 00 00 00 00 00 54 33
12:14:57.597 设备发送:08 03 06 84 00 04 04 31
12:15:00.612 设备接收:08 03 08 00 00 1C C2 00 0D 0D 58 54 6F
12:15:00.628 设备发送:08 03 04 04 00 01 C4 62
12:15:03.638 设备接收:08 03 02 00 02 E5 84
12:15:03.651 设备发送:08 03 05 84 00 0F 45 B2
12:15:06.640 设备接收:08 03 1E 21 2A 02 AF 02 47 21 5C 02 84 02 26 21 5E 02 60 02 07 05 18 00 00 00 00 1F 97 02 99 02 1A B0 E5
12:15:06.670 设备发送:08 03 05 93 00 0F F5 B6
12:15:09.671 设备接收:08 03 1E 1F BC 02 76 01 FF 1F C2 02 67 01 F4 05 0F 00 00 00 00 05 0F 00 00 00 00 05 11 00 00 00 00 58 AB
12:15:09.702 设备发送:08 03 05 A2 00 0F A4 79
12:15:12.702 设备接收:08 03 1E 00 00 00 00 00 00 00 01 00 02 00 00 00 00 00 00 00 00 00 00 00 00 00 00 00 00 00 00 00 00 3A C7
12:15:12.734 设备发送:08 03 05 B1 00 03 55 B9
12:15:15.722 设备接收:08 03 06 00 00 00 00 00 00 4B 25
12:15:15.737 设备发送:08 03 04 2B 00 01 F5 AB
12:15:18.768 设备接收:08 03 02 02 D8 65 7F
12:15:18.783 设备发送:08 03 04 20 00 01 84 69
12:15:21.777 设备接收:08 03 02 00 24 64 5E
12:15:21.807 设备发送:08 03 04 05 00 01 95 A2
12:15:24.781 设备接收:08 03 02 00 00 64 45
12:15:24.797 设备发送:09 03 04 84 00 04 04 58
12:15:27.808 设备接收:09 03 08 13 87 0D 6D FF E1 0D 6E 40 2C
12:15:27.827 设备发送:09 03 04 8D 00 05 15 9A
12:15:30.837 设备接收:09 03 0A 09 47 12 DD 00 00 00 00 00 00 71 FA
12:15:30.853 设备发送:09 03 04 98 00 05 04 5E
12:15:33.857 设备接收:09 03 0A 09 3D 12 DB 00 00 00 00 00 00 0C 98
12:15:33.872 设备发送:09 03 04 A3 00 05 75 93
12:15:36.887 设备接收:09 03 0A 09 54 12 F5 00 00 00 00 00 00 00 C8
12:15:36.903 设备发送:09 03 06 84 00 04 05 E0
12:15:39.903 设备接收:09 03 08 00 00 20 81 00 0E F4 CB E2 5D
12:15:39.918 设备发送:09 03 04 04 00 01 C5 B3
12:15:42.904 设备接收:09 03 02 00 02 D8 44
12:15:42.919 设备发送:09 03 05 84 00 0F 44 63
12:15:45.912 设备接收:09 03 1E 1F 25 02 93 02 0D 1F 5D 02 B2 02 2A 1F 4E 02 83 02 03 1F 80 01 3A 00 FD 1F C6 02 6E 01 FA C9 B8
12:15:45.974 设备发送:09 03 05 93 00 0F F4 67
12:15:48.952 设备接收:09 03 1E 1F 30 02 7E 01 FE 1F C8 02 70 01 FC 1F A4 01 3A 00 FE 05 7D 00 04 00 00 05 80 00 00 00 00 8D 23
12:15:48.968 设备发送:09 03 05 A2 00 0F A5 A8
12:15:51.993 设备接收:09 03 1E 00 07 00 00 00 00 00 04 00 02 00 00 00 00 00 00 00 00 00 00 00 00 00 00 00 00 00 00 00 00 E8 6D
12:15:52.009 设备发送:09 03 05 B1 00 03 54 68
12:15:55.032 设备接收:09 03 06 00 00 00 00 00 00 46 B5
12:15:55.046 设备发送:09 03 04 2B 00 01 F4 7A
12:15:58.049 设备接收:09 03 02 02 D4 58 BA
12:15:58.067 设备发送:09 03 04 20 00 01 85 B8
12:16:01.083 设备接收:09 03 02 00 21 99 9D
12:16:01.098 设备发送:09 03 04 05 00 01 94 73
12:16:04.071 设备接收:09 03 02 00 00 59 85
12:16:04.087 设备发送:0A 03 04 84 00 04 04 6B
12:16:07.100 设备接收:0A 03 08 13 8C 0C 9F 00 15 0C 9F 7C 5E
12:16:07.130 设备发送:0A 03 04 8D 00 05 15 A9
12:16:10.142 设备接收:0A 03 0A 09 40 11 C3 00 00 00 00 00 00 EC 1D
12:16:10.157 设备发送:0A 03 04 98 00 05 04 6D
12:16:13.144 设备发送:0A 03 04 A3 00 05 75 A0
12:16:13.158 设备接收:0A 03 0A 09 49 11 D3 00 00 00 00 00 00 97 8C
12:16:16.140 设备接收:0A 03 0A 09 4E 11 E5 00 00 00 00 00 00 E7 BF
12:16:16.155 设备发送:0A 03 06 84 00 04 05 D3
12:16:19.181 设备接收:0A 03 08 00 00 1F 19 00 0D CB 70 68 49
12:16:19.212 设备发送:0A 03 04 04 00 01 C5 80
12:16:22.196 设备接收:0A 03 02 00 02 9C 44
12:16:22.227 设备发送:0A 03 05 84 00 0F 44 50
12:16:25.225 设备接收:0A 03 1E 1F 61 02 AF 02 28 1F 92 02 89 02 0C 1F EE 02 72 02 00 1F 74 02 86 02 08 1F BE 02 9B 02 1E 58 3C
12:16:25.239 设备发送:0A 03 05 93 00 0F F4 54
12:16:28.222 设备接收:0A 03 1E 1F 0A 02 96 02 0E 1F A9 01 4C 01 0D 05 32 00 00 00 00 05 43 00 02 00 00 05 42 00 00 00 00 0D 01
12:16:28.254 设备发送:0A 03 05 A2 00 0F A5 9B
12:16:31.270 设备接收:0A 03 1E 00 0A 00 00 00 00 00 09 00 02 00 00 00 00 00 00 00 00 00 00 00 00 00 00 00 00 00 00 00 00 04 AC
12:16:31.285 设备发送:0A 03 05 B1 00 03 54 5B
12:16:34.288 设备接收:0A 03 06 00 00 00 00 00 00 52 45
12:16:34.303 设备发送:0A 03 04 2B 00 01 F4 49
12:16:37.304 设备接收:0A 03 02 02 D9 DD 7F
12:16:37.320 设备发送:0A 03 04 20 00 01 85 8B
12:16:40.344 设备接收:0A 03 02 00 35 DD 92
12:16:40.360 设备发送:0A 03 04 05 00 01 94 40
12:16:43.359 设备接收:0A 03 02 00 00 1D 85
12:16:43.381 设备发送:0B 03 04 84 00 04 05 BA
12:16:46.372 设备接收:0B 03 08 13 8B 04 F0 FF D3 04 F1 8D 26
12:16:46.387 设备发送:0B 03 04 8D 00 05 14 78
12:16:49.379 设备接收:0B 03 0A 09 58 06 E0 00 00 00 00 00 00 16 B4
12:16:49.394 设备发送:0B 03 04 98 00 05 05 BC
12:16:52.419 设备接收:0B 03 0A 09 54 06 E7 00 00 00 00 00 00 35 74
12:16:52.440 设备发送:0B 03 04 A3 00 05 74 71
12:16:55.450 设备接收:0B 03 0A 09 59 06 DA 00 00 00 00 00 00 81 27
12:16:55.466 设备发送:0B 03 06 84 00 04 04 02
12:16:58.453 设备接收:0B 03 08 00 00 0B FC 00 04 9B B5 0E 26
12:16:58.469 设备发送:0B 03 04 04 00 01 C4 51
12:17:01.488 设备接收:0B 03 02 00 02 A1 84
12:17:01.504 设备发送:0B 03 05 84 00 0F 45 81
12:17:04.499 设备接收:0B 03 1E 1F 61 02 75 01 F9 1D 76 01 8E 01 2C 1E 4C 01 3D 00 F6 1D 40 01 65 01 0C 00 00 00 00 00 00 D1 4D
12:17:04.515 设备发送:0B 03 05 93 00 0F F5 85
12:17:07.520 设备接收:0B 03 1E 00 00 00 00 00 00 00 00 00 00 00 00 00 00 00 00 00 00 00 00 00 00 00 00 00 00 00 00 00 00 60 B9
12:17:07.536 设备发送:0B 03 05 A2 00 0F A4 4A
12:17:10.553 设备接收:0B 03 1E 00 00 00 00 00 00 00 00 00 00 00 00 00 00 00 00 00 00 00 00 00 00 00 00 00 00 00 00 00 00 60 B9
12:17:10.568 设备发送:0B 03 05 B1 00 03 55 8A
12:17:13.559 设备接收:0B 03 06 00 00 00 00 00 00 5F D5
12:17:13.575 设备发送:0B 03 04 2B 00 01 F5 98
12:17:16.598 设备接收:0B 03 02 01 D3 60 48
12:17:16.614 设备发送:0B 03 04 20 00 01 84 5A
12:17:19.615 设备接收:0B 03 02 00 25 E1 9E
12:17:19.632 设备发送:0B 03 04 05 00 01 95 91
12:17:22.625 设备接收:0B 03 02 00 00 20 45
12:17:22.640 设备发送:0C 03 04 84 00 04 04 0D
12:17:25.639 设备接收:0C 03 08 13 8A 03 DB FF CB 03 E0 E0 18
12:17:25.669 设备发送:0C 03 04 8D 00 05 15 CF
12:17:28.666 设备接收:0C 03 0A 09 56 05 66 00 00 00 00 00 00 F6 4E
12:17:28.682 设备发送:0C 03 04 98 00 05 04 0B
12:17:31.701 设备接收:0C 03 0A 09 51 05 6F 00 00 00 00 00 00 49 7E
12:17:31.732 设备发送:0C 03 04 A3 00 05 75 C6
12:17:34.732 设备接收:0C 03 0A 09 56 05 68 00 00 00 00 00 00 19 8E
12:17:34.747 设备发送:0C 03 06 84 00 04 05 B5
12:17:37.737 设备接收:0C 03 08 00 00 09 7F 00 04 08 4E 7D 1D
12:17:37.815 设备发送:0C 03 04 04 00 01 C5 E6
12:17:40.769 设备接收:0C 03 02 00 02 14 44
12:17:40.784 设备发送:0C 03 05 84 00 0F 44 36
12:17:43.774 设备接收:0C 03 1E 1D AC 02 87 01 EB 1F 7A 02 8D 02 0E 05 5F 00 00 00 00 0D CC 00 00 00 00 00 00 00 00 00 00 6D 25
12:17:43.788 设备发送:0C 03 05 93 00 0F F4 32
12:17:46.792 设备接收:0C 03 1E 00 00 00 00 00 00 00 00 00 00 00 00 00 00 00 00 00 00 00 00 00 00 00 00 00 00 00 00 00 00 65 78
12:17:46.839 设备发送:0C 03 05 A2 00 0F A5 FD
12:17:49.823 设备接收:0C 03 1E 00 00 00 00 00 00 00 00 00 00 00 00 00 00 00 00 00 00 00 00 00 00 00 00 00 00 00 00 00 00 65 78
12:17:49.853 设备发送:0C 03 05 B1 00 03 54 3D
12:17:52.834 设备接收:0C 03 06 00 00 00 00 00 00 79 E5
12:17:52.896 设备发送:0C 03 04 2B 00 01 F4 2F
12:17:55.883 设备接收:0C 03 02 01 D7 D4 4B
12:17:55.899 设备发送:0C 03 04 20 00 01 85 ED
12:17:58.893 设备发送:0C 03 04 05 00 01 94 26
12:17:58.927 设备接收:0C 03 02 00 1B D5 8E
12:18:01.924 设备发送:01 03 04 84 00 04 05 10
12:18:01.939 设备接收:0C 03 02 00 00 95 85
12:18:04.925 设备接收:01 03 08 13 87 07 FB FF D5 07 FC E4 38
12:18:04.941 设备发送:01 03 04 8D 00 05 14 D2
12:18:07.969 设备接收:01 03 0A 09 3F 0B 48 00 00 00 00 00 00 68 DF
12:18:07.985 设备发送:01 03 04 98 00 05 05 16
12:18:10.976 设备接收:01 03 0A 09 3C 0B 4D 00 00 00 00 00 00 29 2F
12:18:10.990 设备发送:01 03 04 A3 00 05 74 DB
12:18:13.970 设备接收:01 03 0A 09 4B 0B 5D 00 00 00 00 00 00 7B 1C
12:18:14.002 设备发送:01 03 06 84 00 04 04 A8
12:18:17.031 设备接收:01 03 08 00 00 14 F2 00 04 56 90 D1 1B
12:18:17.046 设备发送:01 03 04 04 00 01 C4 FB
12:18:20.047 设备接收:01 03 02 00 02 39 85
12:18:20.062 设备发送:01 03 05 84 00 0F 45 2B
12:18:23.065 设备接收:01 03 1E 03 84 00 00 00 00 03 84 00 00 00 00 1A 44 08 22 05 78 03 80 00 06 00 00 03 77 00 02 00 00 E2 F1
12:18:23.085 设备发送:01 03 05 93 00 0F F5 2F
12:18:26.074 设备接收:01 03 1E 1D 66 03 FD 03 00 03 6E 00 00 00 00 03 78 00 01 00 00 03 78 00 02 00 00 03 7A 00 00 00 00 EC 10
12:18:26.105 设备发送:01 03 05 A2 00 0F A4 E0
12:18:29.089 设备接收:01 03 1E 00 01 00 00 00 00 00 01 00 00 00 00 00 00 00 00 00 00 00 00 00 00 00 00 00 00 00 00 00 00 D5 27
12:18:29.105 设备发送:01 03 05 B1 00 03 55 20
12:18:32.111 设备接收:01 03 06 00 00 00 00 00 00 21 75
12:18:32.127 设备发送:01 03 04 2B 00 01 F5 32
12:18:35.141 设备接收:01 03 02 02 EF F8 A8
12:18:35.155 设备发送:01 03 04 20 00 01 84 F0
12:18:38.144 设备接收:01 03 02 00 2C B9 99
12:18:38.161 设备发送:01 03 04 05 00 01 95 3B
12:18:41.172 设备接收:01 03 02 00 00 B8 44
12:18:41.187 设备发送:02 03 04 84 00 04 05 23
12:18:44.195 设备接收:02 03 08 13 85 16 AD FF CD 16 AE 8E 5B
12:18:44.210 设备发送:02 03 04 8D 00 05 14 E1
12:18:47.212 设备接收:02 03 0A 09 52 1F C5 00 00 00 00 00 00 C0 79
12:18:47.228 设备发送:02 03 04 98 00 05 05 25
12:18:50.248 设备接收:02 03 0A 09 4C 1F B2 00 00 00 00 00 00 46 DE
12:18:50.263 设备发送:02 03 04 A3 00 05 74 E8
12:18:53.251 设备接收:02 03 0A 09 56 1F BA 00 00 00 00 00 00 7C 7E
12:18:53.267 设备发送:02 03 06 84 00 04 04 9B
12:18:56.291 设备接收:02 03 08 00 00 38 B4 00 0C AC 0A 13 35
12:18:56.306 设备发送:02 03 04 04 00 01 C4 C8
12:18:59.282 设备接收:02 03 02 00 02 7D 85
12:18:59.314 设备发送:02 03 05 84 00 0F 45 18
12:19:02.307 设备接收:02 03 1E 1D 37 07 C6 05 D0 1D 9F 03 F5 03 00 04 5A 00 00 00 00 04 5B 00 0B 00 01 1D 44 07 B7 05 C7 4D 8C
12:19:02.338 设备发送:02 03 05 93 00 0F F5 1C
12:19:05.346 设备接收:02 03 1E 1D 6C 07 BD 05 D4 1D 72 03 E8 02 F2 04 59 00 05 00 00 04 5A 00 00 00 00 04 56 00 00 00 00 E5 C6
12:19:05.361 设备发送:02 03 05 A2 00 0F A4 D3
12:19:08.355 设备接收:02 03 1E 00 00 00 00 00 00 00 01 00 05 00 00 00 00 00 00 00 00 00 00 00 00 00 00 00 00 00 00 00 00 F4 73
12:19:08.402 设备发送:02 03 05 B1 00 03 55 13
12:19:11.380 设备接收:02 03 06 00 00 00 00 00 00 35 85
12:19:11.412 设备发送:02 03 04 2B 00 01 F5 01
12:19:14.395 设备接收:02 03 02 02 E9 3C AA
12:19:14.428 设备发送:02 03 04 20 00 01 84 C3
12:19:17.444 设备接收:02 03 02 00 25 3D 9F
12:19:17.460 设备发送:02 03 04 05 00 01 95 08
12:19:20.441 设备接收:02 03 02 00 00 FC 44
12:19:20.456 设备发送:03 03 04 84 00 04 04 F2
12:19:23.462 设备接收:03 03 08 13 84 1D B2 00 31 1D B3 39 C3
12:19:23.477 设备发送:03 03 04 8D 00 05 15 30
12:19:26.478 设备接收:03 03 0A 09 60 29 46 00 00 00 00 00 00 BE 6F
12:19:26.494 设备发送:03 03 04 98 00 05 04 F4
12:19:29.502 设备发送:03 03 04 A3 00 05 75 39
12:19:29.517 设备接收:03 03 0A 09 56 29 4B 00 00 00 00 00 00 1D 0E
12:19:32.539 设备接收:03 03 0A 09 6C 29 33 00 00 00 00 00 00 CF A8
12:19:32.569 设备发送:03 03 06 84 00 04 05 4A
12:19:35.532 设备接收:03 03 08 00 00 53 83 00 10 B6 F0 A0 33
12:19:35.578 设备发送:03 03 04 04 00 01 C5 19
12:19:38.577 设备接收:03 03 02 00 02 40 45
12:19:38.593 设备发送:03 03 05 84 00 0F 44 C9
12:19:41.574 设备接收:03 03 1E 1C 39 07 C7 05 9F 1C 2D 07 D3 05 A4 1C 1F 07 D2 05 A1 1C 79 07 B7 05 A0 1C 2A 07 DB 05 AA D6 72
12:19:41.590 设备发送:03 03 05 93 00 0F F4 CD
12:19:44.597 设备接收:03 03 1E 16 F5 04 0C 02 61 04 5D 00 00 00 00 04 63 00 00 00 00 04 56 00 02 00 00 04 5F 00 05 00 00 71 9F
12:19:44.628 设备发送:03 03 05 A2 00 0F A5 02
12:19:47.616 设备接收:03 03 1E 00 0C 00 00 00 00 00 06 00 03 00 00 00 00 00 00 00 00 00 00 00 00 00 00 00 00 00 00 00 00 99 CA
12:19:47.631 设备发送:03 03 05 B1 00 03 54 C2
12:19:50.661 设备接收:03 03 06 00 00 00 00 00 00 38 15
12:19:50.676 设备发送:03 03 04 2B 00 01 F4 D0
12:19:53.664 设备接收:03 03 02 02 E6 41 6E
12:19:53.679 设备发送:03 03 04 20 00 01 85 12
12:19:56.685 设备接收:03 03 02 00 18 C1 8E
12:19:56.700 设备发送:03 03 04 05 00 01 94 D9
12:19:59.714 设备接收:03 03 02 00 00 C1 84
12:19:59.730 设备发送:04 03 04 84 00 04 05 45
12:20:02.730 设备接收:04 03 08 13 85 0E 8A 00 12 0E 8A AC F9
12:20:02.746 设备发送:04 03 04 8D 00 05 14 87
12:20:05.740 设备接收:04 03 0A 09 42 14 73 00 00 00 00 00 00 92 07
12:20:05.771 设备发送:04 03 04 98 00 05 05 43
12:20:08.756 设备接收:04 03 0A 09 4C 14 61 00 00 00 00 00 00 EC 66
12:20:08.771 设备发送:04 03 04 A3 00 05 74 8E
12:20:11.770 设备接收:04 03 0A 09 4F 14 85 00 00 00 00 00 00 5C 98
12:20:11.786 设备发送:04 03 06 84 00 04 04 FD
12:20:14.801 设备接收:04 03 08 00 00 26 26 00 0A 1B C9 60 7E
12:20:14.816 设备发送:04 03 04 04 00 01 C4 AE
12:20:17.827 设备接收:04 03 02 00 02 F5 85
12:20:17.842 设备发送:04 03 05 84 00 0F 45 7E
12:20:20.858 设备接收:04 03 1E 20 8B 03 25 02 9F 20 C9 01 A1 01 5E 20 CA 01 98 01 56 1E 5C 02 EA 02 44 1E A9 03 23 02 76 5A BF
12:20:20.879 设备发送:04 03 05 93 00 0F F5 7A
12:20:23.860 设备接收:04 03 1E 1E B5 03 47 02 93 1F 26 01 8E 01 3D 1F B2 01 A2 01 53 05 7E 00 00 00 00 05 8A 00 0C 00 01 9D F7
12:20:23.891 设备发送:04 03 05 A2 00 0F A4 B5
12:20:26.871 设备接收:04 03 1E 00 00 00 00 00 00 00 04 00 02 00 00 00 00 00 00 00 00 00 00 00 00 00 00 00 00 00 00 00 00 15 AA
12:20:26.888 设备发送:04 03 05 B1 00 03 55 75
12:20:29.915 设备接收:04 03 06 00 00 00 00 00 00 1E 25
12:20:29.931 设备发送:04 03 04 2B 00 01 F5 67
12:20:32.933 设备接收:04 03 02 02 CC 75 71
12:20:32.955 设备发送:04 03 04 20 00 01 84 A5
12:20:35.961 设备接收:04 03 02 00 26 F5 9E
12:20:35.977 设备发送:04 03 04 05 00 01 95 6E
12:20:38.965 设备接收:04 03 02 00 00 74 44
12:20:38.981 设备发送:05 03 04 84 00 04 04 94
12:20:41.997 设备接收:05 03 08 13 85 0E CA FF DD 0E CA A8 11
12:20:42.028 设备发送:05 03 04 8D 00 05 15 56
12:20:45.001 设备接收:05 03 0A 09 47 14 C8 00 00 00 00 00 00 A4 DD
12:20:45.032 设备发送:05 03 04 98 00 05 04 92
12:20:48.049 设备接收:05 03 0A 09 40 14 BA 00 00 00 00 00 00 D0 EA
12:20:48.080 设备发送:05 03 04 A3 00 05 75 5F
12:20:51.051 设备接收:05 03 0A 09 54 14 C2 00 00 00 00 00 00 D7 ED
12:20:51.083 设备发送:05 03 06 84 00 04 05 2C
12:20:54.088 设备接收:05 03 08 00 00 27 19 00 0E 81 79 5B 83
12:20:54.109 设备发送:05 03 04 04 00 01 C5 7F
12:20:57.105 设备接收:05 03 02 00 02 C8 45
12:20:57.121 设备发送:05 03 05 84 00 0F 44 AF
12:21:00.112 设备接收:05 03 1E 1E FE 03 11 02 6F 1E D2 02 B8 02 25 1F 21 01 97 01 44 1E D3 03 2F 02 83 1F 43 01 87 01 39 9B 8B
12:21:00.128 设备发送:05 03 05 93 00 0F F4 AB
12:21:03.133 设备接收:05 03 1E 1E CB 01 9F 01 47 1E 89 01 90 01 39 1C 6D 01 99 01 29 1E 7E 01 8E 01 37 1E F5 01 A0 01 4A 2A FF
12:21:03.180 设备发送:05 03 05 A2 00 0F A5 64
12:21:06.164 设备接收:05 03 1E 00 00 00 00 00 00 00 00 00 02 00 00 00 00 00 00 00 00 00 00 00 00 00 00 00 00 00 00 00 00 4A 99
12:21:06.180 设备发送:05 03 05 B1 00 03 54 A4
12:21:09.187 设备接收:05 03 06 00 00 00 00 00 00 13 B5
12:21:09.203 设备发送:05 03 04 2B 00 01 F4 B6
12:21:12.223 设备接收:05 03 02 02 BF 09 54
12:21:12.246 设备发送:05 03 04 20 00 01 85 74
12:21:15.231 设备接收:05 03 02 00 41 89 B4
12:21:15.246 设备发送:05 03 04 05 00 01 94 BF
12:21:18.266 设备发送:06 03 04 84 00 04 04 A7
12:21:18.281 设备接收:05 03 02 00 00 49 84
12:21:21.278 设备接收:06 03 08 13 85 0D 62 FF AF 0D 63 A6 2B
12:21:21.309 设备发送:06 03 04 8D 00 05 15 65
12:21:24.295 设备接收:06 03 0A 09 3C 12 C7 00 00 00 00 00 00 C8 C6
12:21:24.310 设备发送:06 03 04 98 00 05 04 A1
12:21:27.316 设备接收:06 03 0A 09 4A 12 C5 00 00 00 00 00 00 A5 64
12:21:27.332 设备发送:06 03 04 A3 00 05 75 6C
12:21:30.333 设备接收:06 03 0A 09 4F 12 BF 00 00 00 00 00 00 41 F3
12:21:30.349 设备发送:06 03 06 84 00 04 05 1F
12:21:33.359 设备接收:06 03 08 00 00 23 C9 00 0D 67 B9 2E A1
12:21:33.391 设备发送:06 03 04 04 00 01 C5 4C
12:21:36.365 设备接收:06 03 02 00 02 8C 45
12:21:36.395 设备发送:06 03 05 84 00 0F 44 9C
12:21:39.395 设备接收:06 03 1E 1F 53 02 AF 02 27 1E D7 02 B1 02 20 1E 82 01 8C 01 35 1F 03 01 86 01 36 1F 26 01 82 01 34 D8 63
12:21:39.411 设备发送:06 03 05 93 00 0F F4 98
12:21:42.408 设备接收:06 03 1E 1E CF 01 7E 01 2D 1E AE 01 99 01 41 1E E2 01 96 01 41 1F 20 01 8B 01 3B 1E 2C 01 89 01 2F AF 5B
12:21:42.431 设备发送:06 03 05 A2 00 0F A5 57
12:21:45.441 设备接收:06 03 1E 00 00 00 00 00 00 00 00 00 07 00 00 00 00 00 00 00 00 00 00 00 00 00 00 00 00 00 00 00 00 AB CC
12:21:45.459 设备发送:06 03 05 B1 00 03 54 97
12:21:48.464 设备接收:06 03 06 00 00 00 00 00 00 07 45
12:21:48.480 设备发送:06 03 04 2B 00 01 F4 85
12:21:51.480 设备接收:06 03 02 02 C0 0C B4
12:21:51.496 设备发送:06 03 04 20 00 01 85 47
12:21:54.489 设备接收:06 03 02 00 3B 4C 57
12:21:54.504 设备发送:06 03 04 05 00 01 94 8C
12:21:57.508 设备接收:06 03 02 00 00 0D 84
12:21:57.539 设备发送:07 03 04 84 00 04 05 76
12:22:00.540 设备接收:07 03 08 13 8B 0E CB FF A6 0E CC 81 B2
12:22:00.555 设备发送:07 03 04 8D 00 05 14 B4
12:22:03.556 设备接收:07 03 0A 09 44 14 CC 00 00 00 00 00 00 F2 AF
12:22:03.585 设备发送:07 03 04 98 00 05 05 70
12:22:06.571 设备接收:07 03 0A 09 4C 14 C9 00 00 00 00 00 00 C0 6F
12:22:06.587 设备发送:07 03 04 A3 00 05 74 BD
12:22:09.594 设备接收:07 03 0A 09 4C 14 D3 00 00 00 00 00 00 7B AE
12:22:09.619 设备发送:07 03 06 84 00 04 04 CE
12:22:12.600 设备接收:07 03 08 00 00 26 92 00 0B B2 FF 70 A6
12:22:12.636 设备发送:07 03 04 04 00 01 C4 9D
12:22:15.642 设备接收:07 03 02 00 02 B1 85
12:22:15.674 设备发送:07 03 05 84 00 0F 45 4D
12:22:18.660 设备接收:07 03 1E 1F 2A 03 1A 02 7A 1F 56 01 90 01 40 1E 8F 01 96 01 3E 1E CE 01 91 01 3C 1F 79 01 85 01 3A 8F 1D
12:22:18.675 设备发送:07 03 05 93 00 0F F5 49
12:22:21.662 设备接收:07 03 1E 1F 20 01 96 01 44 1F 73 01 97 01 48 1D 70 03 1C 02 58 1B 0E 02 60 01 A5 1B 7A 02 4F 01 A0 C2 DE
12:22:21.709 设备发送:07 03 05 A2 00 0F A4 86
12:22:24.689 设备接收:07 03 1E 00 00 00 00 00 00 00 00 00 05 00 00 00 00 00 00 00 00 00 00 00 00 00 00 00 00 00 00 00 00 E5 EE
12:22:24.703 设备发送:07 03 05 B1 00 03 55 46
12:22:27.706 设备接收:07 03 06 00 00 00 00 00 00 0A D5
12:22:27.738 设备发送:07 03 04 2B 00 01 F5 54
12:22:30.736 设备接收:07 03 02 02 C8 30 B2
12:22:30.751 设备发送:07 03 04 20 00 01 84 96
12:22:33.771 设备接收:07 03 02 00 37 71 92
12:22:33.787 设备发送:07 03 04 05 00 01 95 5D
12:22:36.784 设备接收:07 03 02 00 00 30 44
12:22:36.799 设备发送:08 03 04 84 00 04 05 89
12:22:39.792 设备接收:08 03 08 13 8B 0B C2 FF E4 0B C2 4F 72
12:22:39.823 设备发送:08 03 04 8D 00 05 14 4B
12:22:42.838 设备接收:08 03 0A 09 40 10 92 00 00 00 00 00 00 6A 56
12:22:42.854 设备发送:08 03 04 98 00 05 05 8F
12:22:45.854 设备接收:08 03 0A 09 49 10 94 00 00 00 00 00 00 66 06
12:22:45.871 设备发送:08 03 04 A3 00 05 74 42
12:22:48.851 设备接收:08 03 0A 09 4A 10 BA 00 00 00 00 00 00 BC F4
12:22:48.867 设备发送:08 03 06 84 00 04 04 31
12:22:51.874 设备接收:08 03 08 00 00 1E 4D 00 0D 0D 7F 40 48
12:22:51.890 设备发送:08 03 04 04 00 01 C4 62
12:22:54.904 设备接收:08 03 02 00 02 E5 84
12:22:55.123 设备发送:08 03 05 84 00 0F 45 B2
12:22:57.924 设备接收:08 03 1E 21 09 02 A6 02 3D 21 0D 02 88 02 24 20 88 02 6B 02 04 05 0E 00 00 00 00 1F 45 02 9B 02 16 2A F0
12:22:57.939 设备发送:08 03 05 93 00 0F F5 B6
12:23:00.947 设备接收:08 03 1E 1F 6F 02 79 01 FE 1F 75 02 6B 01 F2 05 05 00 00 00 00 05 05 00 01 00 00 05 06 00 00 00 00 2F 0F
12:23:00.969 设备发送:08 03 05 A2 00 0F A4 79
12:23:03.983 设备接收:08 03 1E 00 00 00 00 00 00 00 01 00 02 00 00 00 00 00 00 00 00 00 00 00 00 00 00 00 00 00 00 00 00 3A C7
12:23:03.999 设备发送:08 03 05 B1 00 03 55 B9
12:23:06.970 设备接收:08 03 06 00 00 00 00 00 00 4B 25
12:23:07.002 设备发送:08 03 04 2B 00 01 F5 AB
12:23:10.008 设备接收:08 03 02 02 D8 65 7F
12:23:10.039 设备发送:08 03 04 20 00 01 84 69
12:23:13.043 设备接收:08 03 02 00 35 A4 52
12:23:13.059 设备发送:08 03 04 05 00 01 95 A2
12:23:16.040 设备接收:08 03 02 00 00 64 45
12:23:16.055 设备发送:09 03 04 84 00 04 04 58
12:23:19.064 设备接收:09 03 08 13 8A 0D 63 00 13 0D 63 A5 0F
12:23:19.083 设备发送:09 03 04 8D 00 05 15 9A
12:23:22.079 设备接收:09 03 0A 09 45 12 D1 00 00 00 00 00 00 A4 9A
12:23:22.094 设备发送:09 03 04 98 00 05 04 5E
12:23:25.096 设备接收:09 03 0A 09 40 12 CF 00 00 00 00 00 00 65 CB
12:23:25.112 设备发送:09 03 04 A3 00 05 75 93
12:23:28.160 设备接收:09 03 0A 09 56 12 DB 00 00 00 00 00 00 D7 AA
12:23:28.175 设备发送:09 03 06 84 00 04 05 E0
12:23:31.162 设备接收:09 03 08 00 00 22 42 00 0E F4 F8 E7 BB
12:23:31.177 设备发送:09 03 04 04 00 01 C5 B3
12:23:34.177 设备接收:09 03 02 00 02 D8 44
12:23:34.192 设备发送:09 03 05 84 00 0F 44 63
12:23:37.167 设备接收:09 03 1E 1E FD 02 96 02 0D 1F 0C 02 BA 02 2B 1F 26 02 85 02 02 1F 2F 01 3C 00 FC 1F 9F 02 70 01 F9 56 57
12:23:37.199 设备发送:09 03 05 93 00 0F F4 67
12:23:40.220 设备接收:09 03 1E 1F 81 02 79 01 FE 1F F0 02 6B 01 FA 1F 02 01 44 01 01 05 7B 00 05 00 00 05 7F 00 01 00 00 C5 2B
12:23:40.236 设备发送:09 03 05 A2 00 0F A5 A8
12:23:43.242 设备接收:09 03 1E 00 07 00 00 00 00 00 04 00 02 00 00 00 00 00 00 00 00 00 00 00 00 00 00 00 00 00 00 00 00 E8 6D
12:23:43.256 设备发送:09 03 05 B1 00 03 54 68
12:23:46.268 设备接收:09 03 06 00 00 00 00 00 00 46 B5
12:23:46.282 设备发送:09 03 04 2B 00 01 F4 7A
12:23:49.300 设备接收:09 03 02 02 D4 58 BA
12:23:49.315 设备发送:09 03 04 20 00 01 85 B8
12:23:52.295 设备接收:09 03 02 00 37 18 53
12:23:52.327 设备发送:09 03 04 05 00 01 94 73
12:23:55.325 设备接收:09 03 02 00 00 59 85
12:23:55.339 设备发送:0A 03 04 84 00 04 04 6B
12:23:58.332 设备接收:0A 03 08 13 8A 0C A4 FF E4 0C A4 DF AF
12:23:58.348 设备发送:0A 03 04 8D 00 05 15 A9
12:24:01.375 设备接收:0A 03 0A 09 43 11 CE 00 00 00 00 00 00 24 2D
12:24:01.390 设备发送:0A 03 04 98 00 05 04 6D
12:24:04.397 设备接收:0A 03 0A 09 4C 11 CD 00 00 00 00 00 00 56 DD
12:24:04.413 设备发送:0A 03 04 A3 00 05 75 A0
12:24:07.399 设备接收:0A 03 0A 09 4E 11 E5 00 00 00 00 00 00 E7 BF
12:24:07.415 设备发送:0A 03 06 84 00 04 05 D3
12:24:10.426 设备接收:0A 03 08 00 00 20 C0 00 0D CB 9A F1 1A
12:24:10.442 设备发送:0A 03 04 04 00 01 C5 80
12:24:13.480 设备接收:0A 03 02 00 02 9C 44
12:24:13.495 设备发送:0A 03 05 84 00 0F 44 50
12:24:16.465 设备接收:0A 03 1E 1F 39 02 B4 02 29 1F 69 02 86 02 07 1F 9C 02 71 01 FA 1F 9A 02 84 02 09 1F 6C 02 A4 02 20 92 46
12:24:16.527 设备发送:0A 03 05 93 00 0F F4 54
12:24:19.505 设备接收:0A 03 1E 1F 54 02 97 02 14 1F 52 01 45 01 05 05 2F 00 00 00 00 05 3F 00 07 00 01 05 3C 00 00 00 00 6E 2E
12:24:19.535 设备发送:0A 03 05 A2 00 0F A5 9B
12:24:22.517 设备接收:0A 03 1E 00 0A 00 00 00 00 00 08 00 02 00 00 00 00 00 00 00 00 00 00 00 00 00 00 00 00 00 00 00 00 C9 30
12:24:22.532 设备发送:0A 03 05 B1 00 03 54 5B
12:24:25.534 设备接收:0A 03 06 00 00 00 00 00 00 52 45
12:24:25.581 设备发送:0A 03 04 2B 00 01 F4 49
12:24:28.554 设备接收:0A 03 02 02 D9 DD 7F
12:24:28.574 设备发送:0A 03 04 20 00 01 85 8B
12:24:31.587 设备接收:0A 03 02 00 27 5D 9F
12:24:31.603 设备发送:0A 03 04 05 00 01 94 40
12:24:34.610 设备接收:0A 03 02 00 00 1D 85
12:24:34.626 设备发送:0B 03 04 84 00 04 05 BA
12:24:37.643 设备接收:0B 03 08 13 86 04 F1 FF DD 04 F1 0D E5
12:24:37.658 设备发送:0B 03 04 8D 00 05 14 78
12:24:40.648 设备接收:0B 03 0A 09 5B 06 E4 00 00 00 00 00 00 47 84
12:24:40.680 设备发送:0B 03 04 98 00 05 05 BC
12:24:43.665 设备接收:0B 03 0A 09 55 06 EB 00 00 00 00 00 00 F4 E4
12:24:43.681 设备发送:0B 03 04 A3 00 05 74 71
12:24:46.701 设备接收:0B 03 0A 09 57 06 DC 00 00 00 00 00 00 AB 47
12:24:46.733 设备发送:0B 03 06 84 00 04 04 02
12:24:49.705 设备接收:0B 03 08 00 00 0C A1 00 04 9B C6 A3 B9
12:24:49.721 设备发送:0B 03 04 04 00 01 C4 51
12:24:52.727 设备接收:0B 03 02 00 02 A1 84
12:24:52.758 设备发送:0B 03 05 84 00 0F 45 81
12:24:55.743 设备接收:0B 03 1E 1F 11 02 79 01 F7 1E 15 01 84 01 2B 1D FB 01 45 00 F9 1D 90 01 5E 01 09 00 00 00 00 00 00 04 BB
12:24:55.774 设备发送:0B 03 05 93 00 0F F5 85
12:24:58.779 设备接收:0B 03 1E 00 00 00 00 00 00 00 00 00 00 00 00 00 00 00 00 00 00 00 00 00 00 00 00 00 00 00 00 00 00 60 B9
12:24:58.794 设备发送:0B 03 05 A2 00 0F A4 4A
12:25:01.794 设备接收:0B 03 1E 00 00 00 00 00 00 00 00 00 00 00 00 00 00 00 00 00 00 00 00 00 00 00 00 00 00 00 00 00 00 60 B9
12:25:01.826 设备发送:0B 03 05 B1 00 03 55 8A
12:25:04.808 设备接收:0B 03 06 00 00 00 00 00 00 5F D5
12:25:04.840 设备发送:0B 03 04 2B 00 01 F5 98
12:25:07.827 设备接收:0B 03 02 01 D3 60 48
12:25:07.843 设备发送:0B 03 04 20 00 01 84 5A
12:25:10.848 设备接收:0B 03 02 00 22 A0 5C
12:25:10.865 设备发送:0B 03 04 05 00 01 95 91
12:25:13.860 设备接收:0B 03 02 00 00 20 45
12:25:13.906 设备发送:0C 03 04 84 00 04 04 0D
12:25:16.906 设备接收:0C 03 08 13 8A 03 D8 FF CB 03 DD 65 C9
12:25:16.924 设备发送:0C 03 04 8D 00 05 15 CF
12:25:19.909 设备接收:0C 03 0A 09 54 05 63 00 00 00 00 00 00 BA 2E
12:25:19.927 设备发送:0C 03 04 98 00 05 04 0B
12:25:22.947 设备接收:0C 03 0A 09 4F 05 68 00 00 00 00 00 00 BE 1E
12:25:22.979 设备发送:0C 03 04 A3 00 05 75 C6
12:25:25.952 设备接收:0C 03 0A 09 56 05 61 00 00 00 00 00 00 80 8E
12:25:25.967 设备发送:0C 03 06 84 00 04 05 B5
12:25:28.997 设备接收:0C 03 08 00 00 0A 00 00 04 08 5B A9 2B
12:25:29.028 设备发送:0C 03 04 04 00 01 C5 E6
12:25:32.017 设备接收:0C 03 02 00 02 14 44
12:25:32.032 设备发送:0C 03 05 84 00 0F 44 36
12:25:35.032 设备接收:0C 03 1E 1D 83 02 84 01 E6 1F 51 02 8C 02 0B 04 D4 00 00 00 00 0D B5 00 00 00 00 00 00 00 00 00 00 31 7B
12:25:35.047 设备发送:0C 03 05 93 00 0F F4 32
12:25:38.054 设备接收:0C 03 1E 00 00 00 00 00 00 00 00 00 00 00 00 00 00 00 00 00 00 00 00 00 00 00 00 00 00 00 00 00 00 65 78
12:25:38.070 设备发送:0C 03 05 A2 00 0F A5 FD
12:25:41.070 设备接收:0C 03 1E 00 00 00 00 00 00 00 00 00 00 00 00 00 00 00 00 00 00 00 00 00 00 00 00 00 00 00 00 00 00 65 78
12:25:41.085 设备发送:0C 03 05 B1 00 03 54 3D
12:25:44.089 设备接收:0C 03 06 00 00 00 00 00 00 79 E5
12:25:44.104 设备发送:0C 03 04 2B 00 01 F4 2F
12:25:47.115 设备接收:0C 03 02 01 D7 D4 4B
12:25:47.130 设备发送:0C 03 04 20 00 01 85 ED
12:25:50.119 设备接收:0C 03 02 00 1A 14 4E
12:25:50.135 设备发送:0C 03 04 05 00 01 94 26
12:25:53.153 设备接收:0C 03 02 00 00 95 85
12:25:53.185 设备发送:01 03 04 84 00 04 05 10
12:25:56.179 设备发送:01 03 04 8D 00 05 14 D2
12:25:56.195 设备接收:01 03 08 13 86 07 F9 00 0F 07 F9 5C D4
12:25:59.194 设备接收:01 03 0A 09 3E 0B 43 00 00 00 00 00 00 DF 8F
12:25:59.210 设备发送:01 03 04 98 00 05 05 16
12:26:02.231 设备接收:01 03 0A 09 3A 0B 46 00 00 00 00 00 00 B8 4F
12:26:02.244 设备发送:01 03 04 A3 00 05 74 DB
12:26:05.255 设备接收:01 03 0A 09 48 0B 52 00 00 00 00 00 00 90 EC
12:26:05.270 设备发送:01 03 06 84 00 04 04 A8
12:26:08.258 设备接收:01 03 08 00 00 15 FD 00 04 56 AA 04 D8
12:26:08.273 设备发送:01 03 04 04 00 01 C4 FB
12:26:11.295 设备接收:01 03 02 00 02 39 85
12:26:11.309 设备发送:01 03 05 84 00 0F 45 2B
12:26:14.299 设备接收:01 03 1E 03 80 00 00 00 00 03 81 00 00 00 00 1A 96 08 00 05 72 03 7A 00 00 00 00 03 73 00 02 00 00 A3 A8
12:26:14.314 设备发送:01 03 05 93 00 0F F5 2F
12:26:17.293 设备接收:01 03 1E 1D B5 03 EE 02 FD 03 6C 00 00 00 00 03 76 00 00 00 00 03 76 00 01 00 00 03 76 00 00 00 00 0A 5C
12:26:17.324 设备发送:01 03 05 A2 00 0F A4 E0
12:26:20.345 设备接收:01 03 1E 00 00 00 00 00 00 00 00 00 00 00 00 00 00 00 00 00 00 00 00 00 00 00 00 00 00 00 00 00 00 D8 BA
12:26:20.361 设备发送:01 03 05 B1 00 03 55 20
12:26:23.358 设备接收:01 03 06 00 00 00 00 00 00 21 75
12:26:23.374 设备发送:01 03 04 2B 00 01 F5 32
12:26:26.390 设备接收:01 03 02 02 EF F8 A8
12:26:26.405 设备发送:01 03 04 20 00 01 84 F0
12:26:29.397 设备接收:01 03 02 00 34 B9 93
12:26:29.427 设备发送:01 03 04 05 00 01 95 3B
12:26:32.428 设备接收:01 03 02 00 00 B8 44
12:26:32.459 设备发送:02 03 04 84 00 04 05 23
12:26:35.432 设备接收:02 03 08 13 8B 16 72 00 20 16 72 55 F0
12:26:35.446 设备发送:02 03 04 8D 00 05 14 E1
12:26:38.454 设备接收:02 03 0A 09 4D 1F 72 00 00 00 00 00 00 8B 42
12:26:38.470 设备发送:02 03 04 98 00 05 05 25
12:26:41.491 设备接收:02 03 0A 09 45 1F 68 00 00 00 00 00 00 57 43
12:26:41.514 设备发送:02 03 04 A3 00 05 74 E8
12:26:44.507 设备接收:02 03 0A 09 57 1F 69 00 00 00 00 00 00 93 23
12:26:44.522 设备发送:02 03 06 84 00 04 04 9B
12:26:47.529 设备接收:02 03 08 00 00 3B A8 00 0C AC 56 C2 FD
12:26:47.544 设备发送:02 03 04 04 00 01 C4 C8
12:26:50.529 设备接收:02 03 02 00 02 7D 85
12:26:50.545 设备发送:02 03 05 84 00 0F 45 18
12:26:53.548 设备接收:02 03 1E 1D 11 07 C4 05 C7 1D 75 03 F3 02 FB 04 56 00 00 00 00 04 57 00 06 00 00 1C F3 07 B9 05 B9 DC 31
12:26:53.564 设备发送:02 03 05 93 00 0F F5 1C
12:26:56.584 设备接收:02 03 1E 1D 1F 07 BB 05 C3 1D 51 03 E6 02 ED 04 54 00 06 00 00 04 56 00 00 00 00 04 55 00 00 00 00 44 63
12:26:56.599 设备发送:02 03 05 A2 00 0F A4 D3
12:26:59.591 设备接收:02 03 1E 00 00 00 00 00 00 00 01 00 05 00 00 00 00 00 00 00 00 00 00 00 00 00 00 00 00 00 00 00 00 F4 73
12:26:59.605 设备发送:02 03 05 B1 00 03 55 13
12:27:02.607 设备接收:02 03 06 00 00 00 00 00 00 35 85
12:27:02.622 设备发送:02 03 04 2B 00 01 F5 01
12:27:05.621 设备接收:02 03 02 02 E9 3C AA
12:27:05.637 设备发送:02 03 04 20 00 01 84 C3
12:27:08.641 设备接收:02 03 02 00 25 3D 9F
12:27:08.657 设备发送:02 03 04 05 00 01 95 08
12:27:11.696 设备接收:02 03 02 00 00 FC 44
12:27:11.713 设备发送:03 03 04 84 00 04 04 F2
12:27:14.684 设备接收:03 03 08 13 88 1D 53 00 2F 1D 53 28 5B
12:27:14.713 设备发送:03 03 04 8D 00 05 15 30
12:27:17.719 设备接收:03 03 0A 09 5C 28 CC 00 00 00 00 00 00 55 6A
12:27:17.734 设备发送:03 03 04 98 00 05 04 F4
12:27:20.752 设备接收:03 03 0A 09 53 28 C5 00 00 00 00 00 00 8D 9A
12:27:20.768 设备发送:03 03 04 A3 00 05 75 39
12:27:23.757 设备接收:03 03 0A 09 67 28 BE 00 00 00 00 00 00 20 5C
12:27:23.772 设备发送:03 03 06 84 00 04 05 4A
12:27:26.757 设备接收:03 03 08 00 00 57 5E 00 10 B7 53 0C 4D
12:27:26.788 设备发送:03 03 04 04 00 01 C5 19
12:27:29.802 设备接收:03 03 02 00 02 40 45
12:27:29.818 设备发送:03 03 05 84 00 0F 44 C9
12:27:32.813 设备接收:03 03 1E 1B EA 07 C2 05 8B 1B DC 07 D2 05 94 1B F8 07 C5 05 90 1B DA 07 CE 05 90 1B D9 07 D6 05 96 91 37
12:27:32.835 设备发送:03 03 05 93 00 0F F4 CD
12:27:35.846 设备接收:03 03 1E 16 A6 04 11 02 5B 04 4F 00 00 00 00 04 55 00 00 00 00 04 47 00 02 00 00 04 52 00 07 00 00 B1 E1
12:27:35.862 设备发送:03 03 05 A2 00 0F A5 02
12:27:38.864 设备接收:03 03 1E 00 0D 00 00 00 00 00 07 00 03 00 00 00 00 00 00 00 00 00 00 00 00 00 00 00 00 00 00 00 00 94 57
12:27:38.879 设备发送:03 03 05 B1 00 03 54 C2
12:27:41.873 设备接收:03 03 06 00 00 00 00 00 00 38 15
12:27:41.889 设备发送:03 03 04 2B 00 01 F4 D0
12:27:44.907 设备接收:03 03 02 02 E6 41 6E
12:27:44.922 设备发送:03 03 04 20 00 01 85 12
12:27:47.913 设备接收:03 03 02 00 19 00 4E
12:27:47.928 设备发送:03 03 04 05 00 01 94 D9
12:27:50.953 设备接收:03 03 02 00 00 C1 84
12:27:50.969 设备发送:04 03 04 84 00 04 05 45
12:27:53.962 设备接收:04 03 08 13 85 0E 7E FF DB 0E 7E FC 81
12:27:53.977 设备发送:04 03 04 8D 00 05 14 87
12:27:56.965 设备接收:04 03 0A 09 40 14 6D 00 00 00 00 00 00 75 66
12:27:56.996 设备发送:04 03 04 98 00 05 05 43
12:27:59.997 设备接收:04 03 0A 09 4C 14 5F 00 00 00 00 00 00 33 A5
12:28:00.020 设备发送:04 03 04 A3 00 05 74 8E
12:28:03.023 设备接收:04 03 0A 09 4C 14 6D 00 00 00 00 00 00 20 66
12:28:03.039 设备发送:04 03 06 84 00 04 04 FD
12:28:06.041 设备接收:04 03 08 00 00 28 0C 00 0A 1B FA 38 83
12:28:06.056 设备发送:04 03 04 04 00 01 C4 AE
12:28:09.044 设备接收:04 03 02 00 02 F5 85
12:28:09.059 设备发送:04 03 05 84 00 0F 45 7E
12:28:12.066 设备接收:04 03 1E 20 BB 03 22 02 A0 20 BD 01 A4 01 60 20 46 01 9B 01 53 1E 0D 02 F2 02 44 1E D2 03 1D 02 74 3B 74
12:28:12.080 设备发送:04 03 05 93 00 0F F5 7A
12:28:15.111 设备接收:04 03 1E 1E B6 03 44 02 91 1E 60 01 97 01 3C 1F 88 01 A5 01 54 05 7D 00 00 00 00 05 86 00 0C 00 01 62 F5
12:28:15.127 设备发送:04 03 05 A2 00 0F A4 B5
12:28:18.136 设备接收:04 03 1E 00 00 00 00 00 00 00 04 00 02 00 00 00 00 00 00 00 00 00 00 00 00 00 00 00 00 00 00 00 00 15 AA
12:28:18.150 设备发送:04 03 05 B1 00 03 55 75
12:28:21.132 设备接收:04 03 06 00 00 00 00 00 00 1E 25
12:28:21.147 设备发送:04 03 04 2B 00 01 F5 67
12:28:24.159 设备接收:04 03 02 02 CC 75 71
12:28:24.190 设备发送:04 03 04 20 00 01 84 A5
12:28:27.186 设备接收:04 03 02 00 24 74 5F
12:28:27.217 设备发送:04 03 04 05 00 01 95 6E
12:28:30.203 设备接收:04 03 02 00 00 74 44
12:28:30.219 设备发送:05 03 04 84 00 04 04 94
12:28:33.242 设备接收:05 03 08 13 88 0E CC FF DE 0E CC 8C D3
12:28:33.257 设备发送:05 03 04 8D 00 05 15 56
12:28:36.254 设备接收:05 03 0A 09 45 14 CB 00 00 00 00 00 00 8E BD
12:28:36.281 设备发送:05 03 04 98 00 05 04 92
12:28:39.278 设备发送:05 03 04 A3 00 05 75 5F
12:28:39.292 设备接收:05 03 0A 09 40 14 CB 00 00 00 00 00 00 B1 ED
12:28:42.271 设备接收:05 03 0A 09 53 14 C2 00 00 00 00 00 00 F1 DD
12:28:42.287 设备发送:05 03 06 84 00 04 05 2C
12:28:45.286 设备接收:05 03 08 00 00 29 08 00 0E 81 AB 26 F3
12:28:45.334 设备发送:05 03 04 04 00 01 C5 7F
12:28:48.336 设备接收:05 03 02 00 02 C8 45
12:28:48.351 设备发送:05 03 05 84 00 0F 44 AF
12:28:51.358 设备接收:05 03 1E 1F 28 03 0E 02 70 1E AC 02 BC 02 26 1F 22 01 95 01 43 1E AC 03 34 02 84 1E A3 01 94 01 3D 45 CE
12:28:51.373 设备发送:05 03 05 93 00 0F F4 AB
12:28:54.387 设备接收:05 03 1E 1E C2 01 9F 01 47 1E D8 01 91 01 3C 1B EF 01 99 01 24 1E C6 01 8B 01 37 1E F0 01 A0 01 49 AF 0D
12:28:54.402 设备发送:05 03 05 A2 00 0F A5 64
12:28:57.393 设备接收:05 03 1E 00 00 00 00 00 00 00 00 00 02 00 00 00 00 00 00 00 00 00 00 00 00 00 00 00 00 00 00 00 00 4A 99
12:28:57.409 设备发送:05 03 05 B1 00 03 54 A4
12:29:00.415 设备接收:05 03 06 00 00 00 00 00 00 13 B5
12:29:00.430 设备发送:05 03 04 2B 00 01 F4 B6
12:29:03.430 设备接收:05 03 02 02 BF 09 54
12:29:03.445 设备发送:05 03 04 20 00 01 85 74
12:29:06.449 设备接收:05 03 02 00 35 89 93
12:29:06.464 设备发送:05 03 04 05 00 01 94 BF
12:29:09.472 设备接收:05 03 02 00 00 49 84
12:29:09.487 设备发送:06 03 04 84 00 04 04 A7
12:29:12.478 设备接收:06 03 08 13 89 0D 70 FF E4 0D 70 E3 F3
12:29:12.494 设备发送:06 03 04 8D 00 05 15 65
12:29:15.497 设备接收:06 03 0A 09 3F 12 DB 00 00 00 00 00 00 01 F7
12:29:15.512 设备发送:06 03 04 98 00 05 04 A1
12:29:18.530 设备接收:06 03 0A 09 4C 12 D8 00 00 00 00 00 00 43 C5
12:29:18.559 设备发送:06 03 04 A3 00 05 75 6C
12:29:21.545 设备接收:06 03 0A 09 4F 12 DE 00 00 00 00 00 00 31 35
12:29:21.561 设备发送:06 03 06 84 00 04 05 1F
12:29:24.567 设备接收:06 03 08 00 00 25 8D 00 0D 67 E6 9E F0
12:29:24.598 设备发送:06 03 04 04 00 01 C5 4C
12:29:27.575 设备接收:06 03 02 00 02 8C 45
12:29:27.637 设备发送:06 03 05 84 00 0F 44 9C
12:29:30.609 设备接收:06 03 1E 1F 2F 02 B6 02 2A 1E DA 02 B7 02 25 1E 84 01 8D 01 36 1F 52 01 86 01 39 1E D8 01 8F 01 3B 9A EC
12:29:30.625 设备发送:06 03 05 93 00 0F F4 98
12:29:33.647 设备接收:06 03 1E 1E 7B 01 86 01 30 1E 80 01 A0 01 44 1F 08 01 99 01 45 1E 7D 01 89 01 33 1E CC 01 86 01 33 02 55
12:29:33.662 设备发送:06 03 05 A2 00 0F A5 57
12:29:36.669 设备接收:06 03 1E 00 00 00 00 00 00 00 00 00 07 00 00 00 00 00 00 00 00 00 00 00 00 00 00 00 00 00 00 00 00 AB CC
12:29:36.699 设备发送:06 03 05 B1 00 03 54 97
12:29:39.672 设备发送:06 03 04 2B 00 01 F4 85
12:29:39.688 设备接收:06 03 06 00 00 00 00 00 00 07 45
12:29:42.713 设备接收:06 03 02 02 C0 0C B4
12:29:42.729 设备发送:06 03 04 20 00 01 85 47
12:29:45.717 设备接收:06 03 02 00 31 CC 50
12:29:45.749 设备发送:06 03 04 05 00 01 94 8C
12:29:48.723 设备接收:06 03 02 00 00 0D 84
12:29:48.754 设备发送:07 03 04 84 00 04 05 76
12:29:51.742 设备接收:07 03 08 13 8B 0E DD FF DB 0E DD 98 65
12:29:51.764 设备发送:07 03 04 8D 00 05 14 B4
12:29:54.778 设备接收:07 03 0A 09 44 14 DC 00 00 00 00 00 00 E3 6E
12:29:54.794 设备发送:07 03 04 98 00 05 05 70
12:29:57.797 设备接收:07 03 0A 09 4A 14 DA 00 00 00 00 00 00 C9 0E
12:29:57.813 设备发送:07 03 04 A3 00 05 74 BD
12:30:00.819 设备接收:07 03 0A 09 4C 14 E4 00 00 00 00 00 00 3D 6D
12:30:00.850 设备发送:07 03 06 84 00 04 04 CE
12:30:03.849 设备接收:07 03 08 00 00 28 82 00 0B B3 31 30 4F
12:30:03.864 设备发送:07 03 04 04 00 01 C4 9D
12:30:06.869 设备接收:07 03 02 00 02 B1 85
12:30:06.885 设备发送:07 03 05 84 00 0F 45 4D
12:30:09.878 设备发送:07 03 05 93 00 0F F5 49
12:30:09.897 设备接收:07 03 1E 1F 29 03 1B 02 7A 1F 2E 01 93 01 41 1E 64 01 9A 01 3F 1E F6 01 8F 01 3C 1F 79 01 87 01 3B 3F 52
12:30:12.888 设备接收:07 03 1E 1E FE 01 9A 01 45 1F 2A 01 9F 01 4B 1D 77 03 1F 02 5B 1B 3C 02 5B 01 A4 1B 59 02 58 01 A4 CB 9E
12:30:12.904 设备发送:07 03 05 A2 00 0F A4 86
12:30:15.912 设备接收:07 03 1E 00 00 00 00 00 00 00 00 00 06 00 00 00 00 00 00 00 00 00 00 00 00 00 00 00 00 00 00 00 00 D6 DD
12:30:15.926 设备发送:07 03 05 B1 00 03 55 46
12:30:18.926 设备接收:07 03 06 00 00 00 00 00 00 0A D5
12:30:18.942 设备发送:07 03 04 2B 00 01 F5 54
12:30:21.948 设备接收:07 03 02 02 C8 30 B2
12:30:21.987 设备发送:07 03 04 20 00 01 84 96
12:30:24.966 设备接收:07 03 02 00 3B 71 97
12:30:24.981 设备发送:07 03 04 05 00 01 95 5D
12:30:28.000 设备接收:07 03 02 00 00 30 44
12:30:28.032 设备发送:08 03 04 84 00 04 05 89
12:30:31.034 设备接收:08 03 08 13 8C 0B C1 FF E6 0B C1 9C 73
12:30:31.050 设备发送:08 03 04 8D 00 05 14 4B
12:30:34.019 设备接收:08 03 0A 09 41 10 89 00 00 00 00 00 00 CC C7
12:30:34.035 设备发送:08 03 04 98 00 05 05 8F
12:30:37.044 设备接收:08 03 0A 09 48 10 9A 00 00 00 00 00 00 84 56
12:30:37.060 设备发送:08 03 04 A3 00 05 74 42
12:30:40.097 设备接收:08 03 0A 09 4B 10 AE 00 00 00 00 00 00 E5 65
12:30:40.113 设备发送:08 03 06 84 00 04 04 31
12:30:43.079 设备接收:08 03 08 00 00 1F D7 00 0D 0D A7 19 DF
12:30:43.095 设备发送:08 03 04 04 00 01 C4 62
12:30:46.122 设备接收:08 03 02 00 02 E5 84
12:30:46.141 设备发送:08 03 05 84 00 0F 45 B2
12:30:49.127 设备接收:08 03 1E 20 E0 02 A6 02 3A 21 34 02 88 02 27 21 37 02 62 02 07 05 12 00 00 00 00 1F 44 02 9C 02 17 03 7E
12:30:49.158 设备发送:08 03 05 93 00 0F F5 B6
12:30:52.176 设备接收:08 03 1E 1F 97 02 76 01 FD 1F 9D 02 69 01 F3 05 09 00 00 00 00 05 09 00 02 00 00 05 0A 00 00 00 00 91 B3
12:30:52.206 设备发送:08 03 05 A2 00 0F A4 79
12:30:55.191 设备接收:08 03 1E 00 00 00 00 00 00 00 01 00 03 00 00 00 00 00 00 00 00 00 00 00 00 00 00 00 00 00 00 00 00 2A 16
12:30:55.206 设备发送:08 03 05 B1 00 03 55 B9
12:30:58.235 设备接收:08 03 06 00 00 00 00 00 00 4B 25
12:30:58.250 设备发送:08 03 04 2B 00 01 F5 AB
12:31:01.237 设备接收:08 03 02 02 D8 65 7F
12:31:01.252 设备发送:08 03 04 20 00 01 84 69
12:31:04.258 设备接收:08 03 02 00 26 E5 9F
12:31:04.274 设备发送:08 03 04 05 00 01 95 A2
12:31:07.280 设备发送:09 03 04 84 00 04 04 58
12:31:07.296 设备接收:08 03 02 00 00 64 45
12:31:10.297 设备接收:09 03 08 13 8C 0D 5D 00 12 0D 5D 3A DA
12:31:10.312 设备发送:09 03 04 8D 00 05 15 9A
12:31:13.319 设备接收:09 03 0A 09 4A 12 D6 00 00 00 00 00 00 93 AA
12:31:13.334 设备发送:09 03 04 98 00 05 04 5E
12:31:16.324 设备接收:09 03 0A 09 3E 12 C6 00 00 00 00 00 00 D5 69
12:31:16.340 设备发送:09 03 04 A3 00 05 75 93
12:31:19.359 设备接收:09 03 0A 09 55 12 DC 00 00 00 00 00 00 B5 9A
12:31:19.375 设备发送:09 03 06 84 00 04 05 E0
12:31:22.377 设备接收:09 03 08 00 00 24 03 00 0E F5 24 DB DB
12:31:22.393 设备发送:09 03 04 04 00 01 C5 B3
12:31:25.401 设备接收:09 03 02 00 02 D8 44
12:31:25.425 设备发送:09 03 05 84 00 0F 44 63
12:31:28.426 设备接收:09 03 1E 1E FE 02 95 02 0D 1E BC 02 BE 02 29 1F 9E 02 79 02 01 1F 2E 01 3B 00 FB 1F 76 02 6F 01 F6 3A F6
12:31:28.440 设备发送:09 03 05 93 00 0F F4 67
12:31:31.441 设备接收:09 03 1E 1F 0C 02 80 01 FD 1F A3 02 71 01 FA 1F 07 01 43 01 01 05 7B 00 03 00 00 05 7E 00 00 00 00 FE BF
12:31:31.472 设备发送:09 03 05 A2 00 0F A5 A8
12:31:34.451 设备接收:09 03 1E 00 07 00 00 00 00 00 04 00 02 00 00 00 00 00 00 00 00 00 00 00 00 00 00 00 00 00 00 00 00 E8 6D
12:31:34.481 设备发送:09 03 05 B1 00 03 54 68
12:31:37.484 设备接收:09 03 06 00 00 00 00 00 00 46 B5
12:31:37.499 设备发送:09 03 04 2B 00 01 F4 7A
12:31:40.516 设备接收:09 03 02 02 D4 58 BA
12:31:40.531 设备发送:09 03 04 20 00 01 85 B8
12:31:43.527 设备接收:09 03 02 00 2B 19 9A
12:31:43.543 设备发送:09 03 04 05 00 01 94 73
12:31:46.532 设备接收:09 03 02 00 00 59 85
12:31:46.547 设备发送:0A 03 04 84 00 04 04 6B
12:31:49.557 设备接收:0A 03 08 13 8B 0C 97 FF E4 0C 97 8B 7E
12:31:49.572 设备发送:0A 03 04 8D 00 05 15 A9
12:31:52.591 设备接收:0A 03 0A 09 44 11 B2 00 00 00 00 00 00 BF DA
12:31:52.623 设备发送:0A 03 04 98 00 05 04 6D
12:31:55.596 设备接收:0A 03 0A 09 4B 11 B6 00 00 00 00 00 00 BB EA
12:31:55.612 设备发送:0A 03 04 A3 00 05 75 A0
12:31:58.633 设备接收:0A 03 0A 09 4F 11 C9 00 00 00 00 00 00 07 ED
12:31:58.648 设备发送:0A 03 06 84 00 04 05 D3
12:32:01.633 设备接收:0A 03 08 00 00 22 67 00 0D CB C4 44 D9
12:32:01.649 设备发送:0A 03 04 04 00 01 C5 80
12:32:04.658 设备接收:0A 03 02 00 02 9C 44
12:32:04.673 设备发送:0A 03 05 84 00 0F 44 50
12:32:07.681 设备接收:0A 03 1E 1F 62 02 AB 02 24 1F 69 02 88 02 09 1F 9F 02 77 01 FE 1F 75 02 89 02 0B 1F 6E 02 A0 02 1D 9F E2
12:32:07.711 设备发送:0A 03 05 93 00 0F F4 54
12:32:10.699 设备接收:0A 03 1E 1F 80 02 8E 02 10 1F 57 01 48 01 07 05 30 00 00 00 00 05 40 00 05 00 00 05 40 00 00 00 00 64 B9
12:32:10.731 设备发送:0A 03 05 A2 00 0F A5 9B
12:32:13.735 设备接收:0A 03 1E 00 0A 00 00 00 00 00 08 00 02 00 00 00 00 00 00 00 00 00 00 00 00 00 00 00 00 00 00 00 00 C9 30
12:32:13.751 设备发送:0A 03 05 B1 00 03 54 5B
12:32:16.755 设备接收:0A 03 06 00 00 00 00 00 00 52 45
12:32:16.770 设备发送:0A 03 04 2B 00 01 F4 49
12:32:19.784 设备接收:0A 03 02 02 D9 DD 7F
12:32:19.800 设备发送:0A 03 04 20 00 01 85 8B
12:32:22.801 设备接收:0A 03 02 00 35 DD 92
12:32:22.833 设备发送:0A 03 04 05 00 01 94 40
12:32:25.830 设备接收:0A 03 02 00 00 1D 85
12:32:25.846 设备发送:0B 03 04 84 00 04 05 BA
12:32:28.840 设备接收:0B 03 08 13 8C 04 EA FF D4 04 EB 92 2E
12:32:28.886 设备发送:0B 03 04 8D 00 05 14 78
12:32:31.877 设备接收:0B 03 0A 09 5B 06 D8 00 00 00 00 00 00 BB 87
12:32:31.891 设备发送:0B 03 04 98 00 05 05 BC
12:32:34.904 设备接收:0B 03 0A 09 58 06 E3 00 00 00 00 00 00 25 B4
12:32:34.920 设备发送:0B 03 04 A3 00 05 74 71
12:32:37.909 设备接收:0B 03 0A 09 5A 06 E7 00 00 00 00 00 00 79 14
12:32:37.924 设备发送:0B 03 06 84 00 04 04 02
12:32:40.922 设备接收:0B 03 08 00 00 0D 47 00 04 9B D6 AA 72
12:32:40.937 设备发送:0B 03 04 04 00 01 C4 51
12:32:43.961 设备接收:0B 03 02 00 02 A1 84
12:32:43.977 设备发送:0B 03 05 84 00 0F 45 81
12:32:46.965 设备接收:0B 03 1E 1F 39 02 74 01 F6 1E 16 01 88 01 2E 1D FA 01 41 00 F6 1D 91 01 62 01 0C 00 00 00 00 00 00 EA AE
12:32:47.013 设备发送:0B 03 05 93 00 0F F5 85
12:32:50.006 设备接收:0B 03 1E 00 00 00 00 00 00 00 00 00 00 00 00 00 00 00 00 00 00 00 00 00 00 00 00 00 00 00 00 00 00 60 B9
12:32:50.037 设备发送:0B 03 05 A2 00 0F A4 4A
12:32:53.036 设备接收:0B 03 1E 00 00 00 00 00 00 00 00 00 00 00 00 00 00 00 00 00 00 00 00 00 00 00 00 00 00 00 00 00 00 60 B9
12:32:53.051 设备发送:0B 03 05 B1 00 03 55 8A
12:32:56.070 设备接收:0B 03 06 00 00 00 00 00 00 5F D5
12:32:56.086 设备发送:0B 03 04 2B 00 01 F5 98
12:32:59.080 设备接收:0B 03 02 01 D3 60 48
12:32:59.093 设备发送:0B 03 04 20 00 01 84 5A
12:33:02.100 设备接收:0B 03 02 00 1F 61 8D
12:33:02.116 设备发送:0B 03 04 05 00 01 95 91
12:33:05.118 设备接收:0B 03 02 00 00 20 45
12:33:05.133 设备发送:0C 03 04 84 00 04 04 0D
12:33:08.125 设备接收:0C 03 08 13 8C 03 D8 FF DB 03 DC C3 CC
12:33:08.140 设备发送:0C 03 04 8D 00 05 15 CF
12:33:11.146 设备接收:0C 03 0A 09 5A 05 63 00 00 00 00 00 00 F6 4E
12:33:11.178 设备发送:0C 03 04 98 00 05 04 0B
12:33:14.154 设备接收:0C 03 0A 09 55 05 65 00 00 00 00 00 00 D1 BE
12:33:14.185 设备发送:0C 03 04 A3 00 05 75 C6
12:33:17.176 设备接收:0C 03 0A 09 5A 05 5F 00 00 00 00 00 00 0A 4D
12:33:17.192 设备发送:0C 03 06 84 00 04 05 B5
12:33:20.222 设备接收:0C 03 08 00 00 0A 81 00 04 08 68 D5 20
12:33:20.237 设备发送:0C 03 04 04 00 01 C5 E6
12:33:23.228 设备接收:0C 03 02 00 02 14 44
12:33:23.243 设备发送:0C 03 05 84 00 0F 44 36
12:33:26.242 设备接收:0C 03 1E 1D 85 02 87 01 E9 1F 29 02 8E 02 0A 03 DE 00 00 00 00 0D 9A 00 00 00 00 00 00 00 00 00 00 A6 01
12:33:26.289 设备发送:0C 03 05 93 00 0F F4 32
12:33:29.297 设备接收:0C 03 1E 00 00 00 00 00 00 00 00 00 00 00 00 00 00 00 00 00 00 00 00 00 00 00 00 00 00 00 00 00 00 65 78
12:33:29.313 设备发送:0C 03 05 A2 00 0F A5 FD
12:33:32.324 设备接收:0C 03 1E 00 00 00 00 00 00 00 00 00 00 00 00 00 00 00 00 00 00 00 00 00 00 00 00 00 00 00 00 00 00 65 78
12:33:32.339 设备发送:0C 03 05 B1 00 03 54 3D
12:33:35.321 设备接收:0C 03 06 00 00 00 00 00 00 79 E5
12:33:35.337 设备发送:0C 03 04 2B 00 01 F4 2F
12:33:38.363 设备接收:0C 03 02 01 D7 D4 4B
12:33:38.377 设备发送:0C 03 04 20 00 01 85 ED
12:33:41.350 设备接收:0C 03 02 00 1A 14 4E
12:33:41.411 设备发送:0C 03 04 05 00 01 94 26
12:33:44.384 设备接收:0C 03 02 00 00 95 85
12:33:44.431 设备发送:01 03 04 84 00 04 05 10
12:33:47.404 设备接收:01 03 08 13 8C 07 F8 FF D1 07 F9 9B 3A
12:33:47.419 设备发送:01 03 04 8D 00 05 14 D2
12:33:50.448 设备接收:01 03 0A 09 42 0B 3A 00 00 00 00 00 00 07 8A
12:33:50.479 设备发送:01 03 04 98 00 05 05 16
12:33:53.448 设备接收:01 03 0A 09 41 0B 43 00 00 00 00 00 00 FB BD
12:33:53.479 设备发送:01 03 04 A3 00 05 74 DB
12:33:56.491 设备接收:01 03 0A 09 4C 0B 50 00 00 00 00 00 00 81 EC
12:33:56.507 设备发送:01 03 06 84 00 04 04 A8
12:33:59.508 设备接收:01 03 08 00 00 17 08 00 04 56 C5 C9 03
12:33:59.523 设备发送:01 03 04 04 00 01 C4 FB
12:34:02.534 设备接收:01 03 02 00 02 39 85
12:34:02.566 设备发送:01 03 05 84 00 0F 45 2B
12:34:05.536 设备接收:01 03 1E 03 7F 00 00 00 00 03 80 00 00 00 00 1A 48 08 16 05 71 03 7B 00 06 00 00 03 74 00 06 00 00 5F 81
12:34:05.551 设备发送:01 03 05 93 00 0F F5 2F
12:34:08.575 设备接收:01 03 1E 1D 64 03 FC 02 FF 03 6B 00 00 00 00 03 74 00 00 00 00 03 73 00 06 00 00 03 75 00 00 00 00 D4 03
12:34:08.591 设备发送:01 03 05 A2 00 0F A4 E0
12:34:11.569 设备接收:01 03 1E 00 02 00 00 00 00 00 01 00 00 00 00 00 00 00 00 00 00 00 00 00 00 00 00 00 00 00 00 00 00 95 25
12:34:11.588 设备发送:01 03 05 B1 00 03 55 20
12:34:14.599 设备接收:01 03 06 00 00 00 00 00 00 21 75
12:34:14.615 设备发送:01 03 04 2B 00 01 F5 32
12:34:17.621 设备接收:01 03 02 02 EF F8 A8
12:34:17.637 设备发送:01 03 04 20 00 01 84 F0
12:34:20.670 设备接收:01 03 02 00 1C B9 8D
12:34:20.693 设备发送:01 03 04 05 00 01 95 3B
12:34:23.688 设备接收:01 03 02 00 00 B8 44
12:34:23.702 设备发送:02 03 04 84 00 04 05 23
12:34:26.689 设备接收:02 03 08 13 8B 16 97 FF CC 16 97 28 4C
12:34:26.705 设备发送:02 03 04 8D 00 05 14 E1
12:34:29.731 设备接收:02 03 0A 09 52 1F 9B 00 00 00 00 00 00 7F BC
12:34:29.747 设备发送:02 03 04 98 00 05 05 25
12:34:32.724 设备接收:02 03 0A 09 4D 1F A5 00 00 00 00 00 00 2C 4F
12:34:32.756 设备发送:02 03 04 A3 00 05 74 E8
12:34:35.742 设备接收:02 03 0A 09 59 1F 9B 00 00 00 00 00 00 0C 8C
12:34:35.758 设备发送:02 03 06 84 00 04 04 9B
12:34:38.783 设备接收:02 03 08 00 00 3E 9B 00 0C AC A1 87 2A
12:34:38.798 设备发送:02 03 04 04 00 01 C4 C8
12:34:41.791 设备接收:02 03 02 00 02 7D 85
12:34:41.808 设备发送:02 03 05 84 00 0F 45 18
12:34:44.801 设备接收:02 03 1E 1D 37 07 C5 05 D0 1D 26 04 03 02 FF 04 54 00 00 00 00 04 55 00 0B 00 01 1D 1A 07 B7 05 C0 CC 28
12:34:44.817 设备发送:02 03 05 93 00 0F F5 1C
12:34:47.849 设备接收:02 03 1E 1D 4B 07 B5 05 C8 1D 29 03 EF 02 F0 04 53 00 06 00 00 04 55 00 00 00 00 04 51 00 00 00 00 D4 52
12:34:47.865 设备发送:02 03 05 A2 00 0F A4 D3
12:34:50.866 设备接收:02 03 1E 00 00 00 00 00 00 00 00 00 05 00 00 00 00 00 00 00 00 00 00 00 00 00 00 00 00 00 00 00 00 39 EF
12:34:50.882 设备发送:02 03 05 B1 00 03 55 13
12:34:53.881 设备接收:02 03 06 00 00 00 00 00 00 35 85
12:34:53.897 设备发送:02 03 04 2B 00 01 F5 01
12:34:56.903 设备接收:02 03 02 02 E9 3C AA
12:34:56.919 设备发送:02 03 04 20 00 01 84 C3
12:34:59.903 设备接收:02 03 02 00 26 7D 9E
12:34:59.919 设备发送:02 03 04 05 00 01 95 08
12:35:02.911 设备接收:02 03 02 00 00 FC 44
12:35:02.943 设备发送:03 03 04 84 00 04 04 F2
12:35:05.963 设备接收:03 03 08 13 8A 1D 6C FF BF 1D 6C 6F B7
12:35:05.979 设备发送:03 03 04 8D 00 05 15 30
12:35:08.980 设备接收:03 03 0A 09 5F 28 D8 00 00 00 00 00 00 15 9B
12:35:08.995 设备发送:03 03 04 98 00 05 04 F4
12:35:12.007 设备接收:03 03 0A 09 55 28 ED 00 00 00 00 00 00 0E 38
12:35:12.038 设备发送:03 03 04 A3 00 05 75 39
12:35:15.005 设备接收:03 03 0A 09 6C 28 DD 00 00 00 00 00 00 00 6A
12:35:15.022 设备发送:03 03 06 84 00 04 05 4A
12:35:18.033 设备接收:03 03 08 00 00 5B 37 00 10 B7 B6 91 03
12:35:18.049 设备发送:03 03 04 04 00 01 C5 19
12:35:21.053 设备接收:03 03 02 00 02 40 45
12:35:21.069 设备发送:03 03 05 84 00 0F 44 C9
12:35:24.074 设备接收:03 03 1E 1B EA 07 CD 05 93 1C 06 07 D2 05 9C 1C 1F 07 BC 05 91 1B DA 07 D1 05 93 1B 8B 07 F2 05 9A C3 DD
12:35:24.105 设备发送:03 03 05 93 00 0F F4 CD
12:35:27.082 设备发送:03 03 05 A2 00 0F A5 02
12:35:27.113 设备接收:03 03 1E 16 A9 04 12 02 5C 04 50 00 00 00 00 04 57 00 00 00 00 04 4A 00 00 00 00 04 55 00 06 00 00 F1 53
12:35:30.131 设备接收:03 03 1E 00 0D 00 00 00 00 00 06 00 03 00 00 00 00 00 00 00 00 00 00 00 00 00 00 00 00 00 00 00 00 59 CB
12:35:30.149 设备发送:03 03 05 B1 00 03 54 C2
12:35:33.138 设备接收:03 03 06 00 00 00 00 00 00 38 15
12:35:33.154 设备发送:03 03 04 2B 00 01 F4 D0
12:35:36.155 设备接收:03 03 02 02 E6 41 6E
12:35:36.185 设备发送:03 03 04 20 00 01 85 12
12:35:39.172 设备接收:03 03 02 00 19 00 4E
12:35:39.204 设备发送:03 03 04 05 00 01 94 D9
12:35:42.197 设备接收:03 03 02 00 00 C1 84
12:35:42.213 设备发送:04 03 04 84 00 04 05 45
12:35:45.210 设备接收:04 03 08 13 86 0E 80 FF DC 0E 80 D6 14
12:35:45.225 设备发送:04 03 04 8D 00 05 14 87
12:35:48.241 设备接收:04 03 0A 09 41 14 73 00 00 00 00 00 00 86 F7
12:35:48.257 设备发送:04 03 04 98 00 05 05 43
12:35:51.262 设备接收:04 03 0A 09 4C 14 60 00 00 00 00 00 00 FC A6
12:35:51.286 设备发送:04 03 04 A3 00 05 74 8E
12:35:54.273 设备接收:04 03 0A 09 4D 14 85 00 00 00 00 00 00 45 F8
12:35:54.304 设备发送:04 03 06 84 00 04 04 FD
12:35:57.290 设备接收:04 03 08 00 00 29 F3 00 0A 1C 2A 2E EA
12:35:57.304 设备发送:04 03 04 04 00 01 C4 AE
12:36:00.311 设备接收:04 03 02 00 02 F5 85
12:36:00.343 设备发送:04 03 05 84 00 0F 45 7E
12:36:03.322 设备接收:04 03 1E 20 9D 03 23 02 9E 20 15 01 AC 01 60 20 A1 01 9E 01 5A 1E 0D 02 F7 02 48 1E D2 03 1E 02 76 53 E5
12:36:03.353 设备发送:04 03 05 93 00 0F F5 7A
12:36:06.363 设备接收:04 03 1E 1E B6 03 43 02 91 1E 38 01 A2 01 43 1F 8A 01 A4 01 53 05 7E 00 00 00 00 05 8A 00 0C 00 01 1A 3A
12:36:06.388 设备发送:04 03 05 A2 00 0F A4 B5
12:36:09.388 设备接收:04 03 1E 00 00 00 00 00 00 00 06 00 01 00 00 00 00 00 00 00 00 00 00 00 00 00 00 00 00 00 00 00 00 BF E0
12:36:09.417 设备发送:04 03 05 B1 00 03 55 75
12:36:12.407 设备接收:04 03 06 00 00 00 00 00 00 1E 25
12:36:12.422 设备发送:04 03 04 2B 00 01 F5 67
12:36:15.414 设备接收:04 03 02 02 CC 75 71
12:36:15.453 设备发送:04 03 04 20 00 01 84 A5
12:36:18.447 设备接收:04 03 02 00 32 F5 91
12:36:18.479 设备发送:04 03 04 05 00 01 95 6E
12:36:21.468 设备接收:04 03 02 00 00 74 44
12:36:21.483 设备发送:05 03 04 84 00 04 04 94
12:36:24.496 设备接收:05 03 08 13 89 0F 05 00 17 0F 05 60 3E
12:36:24.510 设备发送:05 03 04 8D 00 05 15 56
12:36:27.502 设备接收:05 03 0A 09 48 15 10 00 00 00 00 00 00 7C EC
12:36:27.533 设备发送:05 03 04 98 00 05 04 92
12:36:30.524 设备接收:05 03 0A 09 41 15 08 00 00 00 00 00 00 8E BD
12:36:30.555 设备发送:05 03 04 A3 00 05 75 5F
12:36:33.546 设备接收:05 03 0A 09 55 15 09 00 00 00 00 00 00 61 7D
12:36:33.561 设备发送:05 03 06 84 00 04 05 2C
12:36:36.552 设备接收:05 03 08 00 00 2A FD 00 0E 81 DD 2B 33
12:36:36.567 设备发送:05 03 04 04 00 01 C5 7F
12:36:39.566 设备接收:05 03 02 00 02 C8 45
12:36:39.597 设备发送:05 03 05 84 00 0F 44 AF
12:36:42.615 设备接收:05 03 1E 1E D6 03 16 02 70 1D BB 03 1E 02 5F 1F 23 01 93 01 41 1E AC 03 34 02 84 1E CC 01 91 01 3C 91 F7
12:36:42.631 设备发送:05 03 05 93 00 0F F4 AB
12:36:45.615 设备接收:05 03 1E 1E F1 01 9F 01 49 1E DC 01 8E 01 3B 1B C9 01 9C 01 25 1E 79 01 90 01 38 1E A2 01 A1 01 47 A2 18
12:36:45.631 设备发送:05 03 05 A2 00 0F A5 64
12:36:48.642 设备接收:05 03 1E 00 00 00 00 00 00 00 00 00 02 00 00 00 00 00 00 00 00 00 00 00 00 00 00 00 00 00 00 00 00 4A 99
12:36:48.673 设备发送:05 03 05 B1 00 03 54 A4
12:36:51.666 设备接收:05 03 06 00 00 00 00 00 00 13 B5
12:36:51.696 设备发送:05 03 04 2B 00 01 F4 B6
12:36:54.669 设备接收:05 03 02 02 BF 09 54
12:36:54.703 设备发送:05 03 04 20 00 01 85 74
12:36:57.690 设备接收:05 03 02 00 44 49 B7
12:36:57.721 设备发送:05 03 04 05 00 01 94 BF
12:37:00.728 设备接收:05 03 02 00 00 49 84
12:37:00.744 设备发送:06 03 04 84 00 04 04 A7
12:37:03.732 设备接收:06 03 08 13 86 0D 60 FF AE 0D 61 3C EA
12:37:03.747 设备发送:06 03 04 8D 00 05 15 65
12:37:06.770 设备接收:06 03 0A 09 41 12 C6 00 00 00 00 00 00 E5 54
12:37:06.786 设备发送:06 03 04 98 00 05 04 A1
12:37:09.797 设备接收:06 03 0A 09 4A 12 C0 00 00 00 00 00 00 F0 64
12:37:09.813 设备发送:06 03 04 A3 00 05 75 6C
12:37:12.820 设备接收:06 03 0A 09 53 12 C0 00 00 00 00 00 00 57 F4
12:37:12.836 设备发送:06 03 06 84 00 04 05 1F
12:37:15.838 设备接收:06 03 08 00 00 27 4E 00 0D 68 13 1E B4
12:37:15.854 设备发送:06 03 04 04 00 01 C5 4C
12:37:18.858 设备接收:06 03 02 00 02 8C 45
12:37:18.872 设备发送:06 03 05 84 00 0F 44 9C
12:37:21.871 设备接收:06 03 1E 1F 2F 02 B9 02 2C 1E DA 02 B4 02 22 1E 5C 01 8E 01 36 1F 53 01 85 01 38 1E 8B 01 92 01 3A AE 1B
12:37:21.885 设备发送:06 03 05 93 00 0F F4 98
12:37:24.892 设备接收:06 03 1E 1E 79 01 83 01 2E 1E 82 01 9F 01 44 1F 0B 01 93 01 40 1D DB 01 8D 01 2F 1E CC 01 84 01 32 30 1F
12:37:24.908 设备发送:06 03 05 A2 00 0F A5 57
12:37:27.911 设备接收:06 03 1E 00 00 00 00 00 00 00 00 00 08 00 00 00 00 00 00 00 00 00 00 00 00 00 00 00 00 00 00 00 00 54 33
12:37:27.941 设备发送:06 03 05 B1 00 03 54 97
12:37:30.943 设备接收:06 03 06 00 00 00 00 00 00 07 45
12:37:30.958 设备发送:06 03 04 2B 00 01 F4 85
12:37:33.933 设备接收:06 03 02 02 C0 0C B4
12:37:33.948 设备发送:06 03 04 20 00 01 85 47
12:37:36.972 设备接收:06 03 02 00 3B 4C 57
12:37:36.987 设备发送:06 03 04 05 00 01 94 8C
12:37:39.986 设备接收:06 03 02 00 00 0D 84
12:37:40.021 设备发送:07 03 04 84 00 04 05 76
12:37:43.022 设备接收:07 03 08 13 85 0E CD FF DC 0E CD 06 6B
12:37:43.037 设备发送:07 03 04 8D 00 05 14 B4
12:37:46.021 设备接收:07 03 0A 09 41 14 C6 00 00 00 00 00 00 67 FF
12:37:46.036 设备发送:07 03 04 98 00 05 05 70
12:37:49.048 设备接收:07 03 0A 09 4D 14 C2 00 00 00 00 00 00 77 3F
12:37:49.063 设备发送:07 03 04 A3 00 05 74 BD
12:37:52.067 设备接收:07 03 0A 09 4D 14 C9 00 00 00 00 00 00 CD FF
12:37:52.098 设备发送:07 03 06 84 00 04 04 CE
12:37:55.072 设备接收:07 03 08 00 00 2A 73 00 0B B3 62 0C 45
12:37:55.102 设备发送:07 03 04 04 00 01 C4 9D
12:37:58.112 设备接收:07 03 02 00 02 B1 85
12:37:58.127 设备发送:07 03 05 84 00 0F 45 4D
12:38:01.109 设备接收:07 03 1E 1F 28 03 17 02 77 1E DD 01 96 01 41 1E B1 01 96 01 3F 1E A3 01 94 01 3D 1F 7A 01 85 01 39 9A 2D
12:38:01.155 设备发送:07 03 05 93 00 0F F5 49
12:38:04.151 设备接收:07 03 1E 1E D4 01 99 01 42 1E D5 01 9F 01 47 1D 75 03 1B 02 58 1B 10 02 5E 01 A4 1B A6 02 4C 01 A0 FA 85
12:38:04.198 设备发送:07 03 05 A2 00 0F A4 86
12:38:07.186 设备接收:07 03 1E 00 00 00 00 00 00 00 00 00 05 00 00 00 00 00 00 00 00 00 00 00 00 00 00 00 00 00 00 00 00 E5 EE
12:38:07.218 设备发送:07 03 05 B1 00 03 55 46
12:38:10.191 设备接收:07 03 06 00 00 00 00 00 00 0A D5
12:38:10.224 设备发送:07 03 04 2B 00 01 F5 54
12:38:13.246 设备接收:07 03 02 02 C8 30 B2
12:38:13.262 设备发送:07 03 04 20 00 01 84 96
12:38:16.258 设备接收:07 03 02 00 42 B0 75
12:38:16.273 设备发送:07 03 04 05 00 01 95 5D
12:38:19.275 设备接收:07 03 02 00 00 30 44
12:38:19.290 设备发送:08 03 04 84 00 04 05 89
12:38:22.294 设备接收:08 03 08 13 85 0B CA FF B8 0B CB 41 67
12:38:22.310 设备发送:08 03 04 8D 00 05 14 4B
12:38:25.303 设备接收:08 03 0A 09 41 10 9B 00 00 00 00 00 00 FE C6
12:38:25.334 设备发送:08 03 04 98 00 05 05 8F
12:38:28.343 设备接收:08 03 0A 09 4A 10 A7 00 00 00 00 00 00 71 F5
12:38:28.359 设备发送:08 03 04 A3 00 05 74 42
12:38:31.344 设备接收:08 03 0A 09 4D 10 C3 00 00 00 00 00 00 72 03
12:38:31.360 设备发送:08 03 06 84 00 04 04 31
12:38:34.374 设备接收:08 03 08 00 00 21 62 00 0D 0D CE 50 F5
12:38:34.405 设备发送:08 03 04 04 00 01 C4 62
12:38:37.392 设备接收:08 03 02 00 02 E5 84
12:38:37.407 设备发送:08 03 05 84 00 0F 45 B2
12:38:40.414 设备接收:08 03 1E 21 2F 02 A3 02 3D 20 FF 02 85 02 21 21 35 02 61 02 06 05 0F 00 00 00 00 1F 1D 02 9F 02 16 2C 85
12:38:40.429 设备发送:08 03 05 93 00 0F F5 B6
12:38:43.446 设备接收:08 03 1E 1F BC 02 75 01 FF 1F 73 02 6D 01 F4 05 07 00 00 00 00 05 06 00 01 00 00 05 0A 00 00 00 00 C1 E5
12:38:43.461 设备发送:08 03 05 A2 00 0F A4 79
12:38:46.457 设备发送:08 03 05 B1 00 03 55 B9
12:38:46.473 设备接收:08 03 1E 00 00 00 00 00 00 00 01 00 02 00 00 00 00 00 00 00 00 00 00 00 00 00 00 00 00 00 00 00 00 3A C7
12:38:49.482 设备接收:08 03 06 00 00 00 00 00 00 4B 25
12:38:49.496 设备发送:08 03 04 2B 00 01 F5 AB
12:38:52.503 设备接收:08 03 02 02 D8 65 7F
12:38:52.535 设备发送:08 03 04 20 00 01 84 69
12:38:55.515 设备接收:08 03 02 00 37 25 93
12:38:55.531 设备发送:08 03 04 05 00 01 95 A2
12:38:58.522 设备接收:08 03 02 00 00 64 45
12:38:58.553 设备发送:09 03 04 84 00 04 04 58
12:39:01.563 设备接收:09 03 08 13 85 0D 70 00 13 0D 70 9E 01
12:39:01.579 设备发送:09 03 04 8D 00 05 15 9A
12:39:04.584 设备接收:09 03 0A 09 45 12 DE 00 00 00 00 00 00 5B 9A
12:39:04.607 设备发送:09 03 04 98 00 05 04 5E
12:39:07.582 设备接收:09 03 0A 09 43 12 E2 00 00 00 00 00 00 8C 39
12:39:07.613 设备发送:09 03 04 A3 00 05 75 93
12:39:10.640 设备接收:09 03 0A 09 55 12 EB 00 00 00 00 00 00 F3 59
12:39:10.655 设备发送:09 03 06 84 00 04 05 E0
12:39:13.622 设备接收:09 03 08 00 00 25 C4 00 0E F5 51 AE 3C
12:39:13.669 设备发送:09 03 04 04 00 01 C5 B3
12:39:16.670 设备接收:09 03 02 00 02 D8 44
12:39:16.686 设备发送:09 03 05 84 00 0F 44 63
12:39:19.681 设备接收:09 03 1E 1E AE 02 9F 02 0F 1E E6 02 BE 02 2B 1E FE 02 88 02 02 1F 2E 01 3D 00 FD 1F A0 02 72 01 FA 36 76
12:39:19.712 设备发送:09 03 05 93 00 0F F4 67
12:39:22.692 设备接收:09 03 1E 1F 5A 02 7E 02 00 1F A2 02 73 01 FB 1F 07 01 44 01 01 05 7A 00 05 00 00 05 7C 00 00 00 00 E7 B4
12:39:22.739 设备发送:09 03 05 A2 00 0F A5 A8
12:39:25.740 设备接收:09 03 1E 00 08 00 00 00 00 00 05 00 02 00 00 00 00 00 00 00 00 00 00 00 00 00 00 00 00 00 00 00 00 65 FA
12:39:25.755 设备发送:09 03 05 B1 00 03 54 68
12:39:28.760 设备接收:09 03 06 00 00 00 00 00 00 46 B5
12:39:28.790 设备发送:09 03 04 2B 00 01 F4 7A
12:39:31.791 设备接收:09 03 02 02 D4 58 BA
12:39:31.806 设备发送:09 03 04 20 00 01 85 B8
12:39:34.828 设备接收:09 03 02 00 20 58 5D
12:39:34.844 设备发送:09 03 04 05 00 01 94 73
12:39:37.803 设备接收:09 03 02 00 00 59 85
12:39:37.834 设备发送:0A 03 04 84 00 04 04 6B
12:39:40.853 设备接收:0A 03 08 13 85 0C A5 FF E3 0C A5 6D 6E
12:39:40.869 设备发送:0A 03 04 8D 00 05 15 A9
12:39:43.848 设备接收:0A 03 0A 09 44 11 C9 00 00 00 00 00 00 74 DD
12:39:43.880 设备发送:0A 03 04 98 00 05 04 6D
12:39:46.898 设备接收:0A 03 0A 09 4F 11 C0 00 00 00 00 00 00 9E ED
12:39:46.914 设备发送:0A 03 04 A3 00 05 75 A0
12:39:49.888 设备接收:0A 03 0A 09 55 11 D4 00 00 00 00 00 00 79 8C
12:39:49.904 设备发送:0A 03 06 84 00 04 05 D3
12:39:52.927 设备接收:0A 03 08 00 00 24 0F 00 0D CB EF 65 69
12:39:52.943 设备发送:0A 03 04 04 00 01 C5 80
12:39:55.932 设备接收:0A 03 02 00 02 9C 44
12:39:55.947 设备发送:0A 03 05 84 00 0F 44 50
12:39:58.952 设备接收:0A 03 1E 1F 39 02 B2 02 27 1F 6A 02 8A 02 0A 1F 4C 02 79 01 FB 1F 72 02 84 02 06 1F 44 02 A7 02 1F 74 1A
12:39:58.967 设备发送:0A 03 05 93 00 0F F4 54
12:40:01.991 设备接收:0A 03 1E 1F 2B 02 99 02 13 1F 58 01 45 01 05 05 2D 00 00 00 00 05 3D 00 08 00 01 05 3A 00 00 00 00 E7 71
12:40:02.007 设备发送:0A 03 05 A2 00 0F A5 9B
12:40:05.024 设备接收:0A 03 1E 00 0A 00 00 00 00 00 09 00 03 00 00 00 00 00 00 00 00 00 00 00 00 00 00 00 00 00 00 00 00 14 7D
12:40:05.045 设备发送:0A 03 05 B1 00 03 54 5B
12:40:08.007 设备接收:0A 03 06 00 00 00 00 00 00 52 45
12:40:08.038 设备发送:0A 03 04 2B 00 01 F4 49
12:40:11.026 设备接收:0A 03 02 02 D9 DD 7F
12:40:11.041 设备发送:0A 03 04 20 00 01 85 8B
12:40:14.079 设备接收:0A 03 02 00 2D DD 98
12:40:14.094 设备发送:0A 03 04 05 00 01 94 40
12:40:17.066 设备接收:0A 03 02 00 00 1D 85
12:40:17.129 设备发送:0B 03 04 84 00 04 05 BA
12:40:20.119 设备接收:0B 03 08 13 8A 04 E7 FF DE 04 E7 F9 E8
12:40:20.135 设备发送:0B 03 04 8D 00 05 14 78
12:40:23.137 设备接收:0B 03 0A 09 5B 06 D4 00 00 00 00 00 00 77 87
12:40:23.151 设备发送:0B 03 04 98 00 05 05 BC
12:40:26.161 设备接收:0B 03 0A 09 56 06 DA 00 00 00 00 00 00 C0 D7
12:40:26.176 设备发送:0B 03 04 A3 00 05 74 71
12:40:29.180 设备接收:0B 03 0A 09 55 06 CD 00 00 00 00 00 00 B3 26
12:40:29.196 设备发送:0B 03 06 84 00 04 04 02
12:40:32.203 设备接收:0B 03 08 00 00 0D EB 00 04 9B E7 FB BE
12:40:32.219 设备发送:0B 03 04 04 00 01 C4 51
12:40:35.201 设备接收:0B 03 02 00 02 A1 84
12:40:35.252 设备发送:0B 03 05 84 00 0F 45 81
12:40:38.242 设备接收:0B 03 1E 1F 11 02 77 01 F6 1D 4E 01 8F 01 2B 1D 5A 01 44 00 F4 1D 42 01 63 01 09 00 00 00 00 00 00 6E 36
12:40:38.263 设备发送:0B 03 05 93 00 0F F5 85
12:40:41.241 设备接收:0B 03 1E 00 00 00 00 00 00 00 00 00 00 00 00 00 00 00 00 00 00 00 00 00 00 00 00 00 00 00 00 00 00 60 B9
12:40:41.273 设备发送:0B 03 05 A2 00 0F A4 4A
12:40:44.292 设备接收:0B 03 1E 00 00 00 00 00 00 00 00 00 00 00 00 00 00 00 00 00 00 00 00 00 00 00 00 00 00 00 00 00 00 60 B9
12:40:44.308 设备发送:0B 03 05 B1 00 03 55 8A
12:40:47.308 设备接收:0B 03 06 00 00 00 00 00 00 5F D5
12:40:47.327 设备发送:0B 03 04 2B 00 01 F5 98
12:40:50.346 设备接收:0B 03 02 01 D3 60 48
12:40:50.362 设备发送:0B 03 04 20 00 01 84 5A
12:40:53.341 设备接收:0B 03 02 00 26 A1 9F
12:40:53.372 设备发送:0B 03 04 05 00 01 95 91
12:40:56.366 设备接收:0B 03 02 00 00 20 45
12:40:56.382 设备发送:0C 03 04 84 00 04 04 0D
12:40:59.379 设备接收:0C 03 08 13 8B 03 D4 FF CB 03 D9 64 CB
12:40:59.410 设备发送:0C 03 04 8D 00 05 15 CF
12:41:02.398 设备接收:0C 03 0A 09 57 05 5D 00 00 00 00 00 00 71 1D
12:41:02.414 设备发送:0C 03 04 98 00 05 04 0B
12:41:05.410 设备接收:0C 03 0A 09 51 05 62 00 00 00 00 00 00 95 BE
12:41:05.441 设备发送:0C 03 04 A3 00 05 75 C6
12:41:08.428 设备接收:0C 03 0A 09 55 05 59 00 00 00 00 00 00 2D BD
12:41:08.500 设备发送:0C 03 06 84 00 04 05 B5
12:41:11.485 设备接收:0C 03 08 00 00 0B 02 00 04 08 75 51 26
12:41:11.500 设备发送:0C 03 04 04 00 01 C5 E6
12:41:14.505 设备接收:0C 03 02 00 02 14 44
12:41:14.521 设备发送:0C 03 05 84 00 0F 44 36
12:41:17.501 设备接收:0C 03 1E 1D 84 02 7F 01 E3 1F 2A 02 8C 02 08 07 39 00 00 00 00 0D BC 00 00 00 00 00 00 00 00 00 00 9A 5E
12:41:17.532 设备发送:0C 03 05 93 00 0F F4 32
12:41:20.535 设备接收:0C 03 1E 00 00 00 00 00 00 00 00 00 00 00 00 00 00 00 00 00 00 00 00 00 00 00 00 00 00 00 00 00 00 65 78
12:41:20.566 设备发送:0C 03 05 A2 00 0F A5 FD
12:41:23.577 设备接收:0C 03 1E 00 00 00 00 00 00 00 00 00 00 00 00 00 00 00 00 00 00 00 00 00 00 00 00 00 00 00 00 00 00 65 78
12:41:23.608 设备发送:0C 03 05 B1 00 03 54 3D
12:41:26.619 设备接收:0C 03 06 00 00 00 00 00 00 79 E5
12:41:26.635 设备发送:0C 03 04 2B 00 01 F4 2F
12:41:29.613 设备接收:0C 03 02 01 D7 D4 4B
12:41:29.628 设备发送:0C 03 04 20 00 01 85 ED
12:41:32.639 设备接收:0C 03 02 00 1E 15 8D
12:41:32.659 设备发送:0C 03 04 05 00 01 94 26
12:41:35.659 设备接收:0C 03 02 00 00 95 85
12:41:35.706 设备发送:01 03 04 84 00 04 05 10
12:41:38.707 设备接收:01 03 08 13 8C 07 F5 FF F0 07 F5 E6 F4
12:41:38.722 设备发送:01 03 04 8D 00 05 14 D2
12:41:41.711 设备接收:01 03 0A 09 46 0B 35 00 00 00 00 00 00 CA 4A
12:41:41.727 设备发送:01 03 04 98 00 05 05 16
12:41:44.751 设备接收:01 03 0A 09 45 0B 3E 00 00 00 00 00 00 64 7A
12:41:44.766 设备发送:01 03 04 A3 00 05 74 DB
12:41:47.756 设备接收:01 03 0A 09 48 0B 52 00 00 00 00 00 00 90 EC
12:41:47.772 设备发送:01 03 06 84 00 04 04 A8
12:41:50.756 设备接收:01 03 08 00 00 18 14 00 04 56 E0 D9 E5
12:41:50.772 设备发送:01 03 04 04 00 01 C4 FB
12:41:53.774 设备接收:01 03 02 00 02 39 85
12:41:53.789 设备发送:01 03 05 84 00 0F 45 2B
12:41:56.795 设备接收:01 03 1E 03 7E 00 00 00 00 03 7F 00 00 00 00 1A 46 08 1C 05 74 03 79 00 0A 00 00 03 73 00 04 00 00 3D A9
12:41:56.832 设备发送:01 03 05 93 00 0F F5 2F
12:41:59.846 设备接收:01 03 1E 1D 90 03 F2 02 FC 03 6A 00 00 00 00 03 74 00 04 00 00 03 72 00 02 00 00 03 73 00 00 00 00 A2 C1
12:41:59.861 设备发送:01 03 05 A2 00 0F A4 E0
12:42:02.862 设备接收:01 03 1E 00 02 00 00 00 00 00 01 00 00 00 00 00 00 00 00 00 00 00 00 00 00 00 00 00 00 00 00 00 00 95 25
12:42:02.881 设备发送:01 03 05 B1 00 03 55 20
12:42:05.881 设备接收:01 03 06 00 00 00 00 00 00 21 75
12:42:05.897 设备发送:01 03 04 2B 00 01 F5 32
12:42:08.903 设备接收:01 03 02 02 EF F8 A8
12:42:08.933 设备发送:01 03 04 20 00 01 84 F0
12:42:11.934 设备接收:01 03 02 00 24 B8 5F
12:42:11.950 设备发送:01 03 04 05 00 01 95 3B
12:42:14.937 设备接收:01 03 02 00 00 B8 44
12:42:14.951 设备发送:02 03 04 84 00 04 05 23
12:42:17.946 设备接收:02 03 08 13 8C 16 7B FF D0 16 7B 0F 10
12:42:17.977 设备发送:02 03 04 8D 00 05 14 E1
12:42:20.972 设备接收:02 03 0A 09 51 1F 7C 00 00 00 00 00 00 FC 42
12:42:20.987 设备发送:02 03 04 98 00 05 05 25
12:42:24.019 设备接收:02 03 0A 09 49 1F 7B 00 00 00 00 00 00 20 82
12:42:24.035 设备发送:02 03 04 A3 00 05 74 E8
12:42:27.040 设备接收:02 03 0A 09 54 1F 72 00 00 00 00 00 00 2C D2
12:42:27.056 设备发送:02 03 06 84 00 04 04 9B
12:42:30.042 设备接收:02 03 08 00 00 41 8F 00 0C AC ED BD 13
12:42:30.056 设备发送:02 03 04 04 00 01 C4 C8
12:42:33.081 设备接收:02 03 02 00 02 7D 85
12:42:33.097 设备发送:02 03 05 84 00 0F 45 18
12:42:36.069 设备接收:02 03 1E 1D 38 07 BC 05 C9 1D 4D 03 FB 02 FC 04 54 00 00 00 00 04 55 00 0B 00 01 1D 1B 07 AA 05 B6 76 03
12:42:36.116 设备发送:02 03 05 93 00 0F F5 1C
12:42:39.094 设备接收:02 03 1E 1C F5 07 C5 05 C2 1D 4D 03 E7 02 ED 04 53 00 04 00 00 04 54 00 00 00 00 04 50 00 00 00 00 EF 79
12:42:39.110 设备发送:02 03 05 A2 00 0F A4 D3
12:42:42.113 设备接收:02 03 1E 00 00 00 00 00 00 00 01 00 05 00 00 00 00 00 00 00 00 00 00 00 00 00 00 00 00 00 00 00 00 F4 73
12:42:42.128 设备发送:02 03 05 B1 00 03 55 13
12:42:45.120 设备接收:02 03 06 00 00 00 00 00 00 35 85
12:42:45.151 设备发送:02 03 04 2B 00 01 F5 01
12:42:48.165 设备接收:02 03 02 02 E9 3C AA
12:42:48.180 设备发送:02 03 04 20 00 01 84 C3
12:42:51.190 设备接收:02 03 02 00 27 BC 5E
12:42:51.220 设备发送:02 03 04 05 00 01 95 08
12:42:54.199 设备接收:02 03 02 00 00 FC 44
12:42:54.215 设备发送:03 03 04 84 00 04 04 F2
12:42:57.233 设备接收:03 03 08 13 8B 1D 68 00 30 1D 69 4F 4B
12:42:57.248 设备发送:03 03 04 8D 00 05 15 30
12:43:00.236 设备接收:03 03 0A 09 61 28 E4 00 00 00 00 00 00 F1 F9
12:43:00.251 设备发送:03 03 04 98 00 05 04 F4
12:43:03.259 设备接收:03 03 0A 09 57 28 D0 00 00 00 00 00 00 FB 9B
12:43:03.289 设备发送:03 03 04 A3 00 05 75 39
12:43:06.279 设备接收:03 03 0A 09 6C 28 C4 00 00 00 00 00 00 88 AB
12:43:06.298 设备发送:03 03 06 84 00 04 05 4A
12:43:09.290 设备接收:03 03 08 00 00 5F 10 00 10 B8 18 20 CC
12:43:09.306 设备发送:03 03 04 04 00 01 C5 19
12:43:12.330 设备接收:03 03 02 00 02 40 45
12:43:12.361 设备发送:03 03 05 84 00 0F 44 C9
12:43:15.363 设备接收:03 03 1E 1C 11 07 BD 05 8F 1C 2B 07 BF 05 96 1B D0 07 D1 05 91 1B DB 07 D0 05 92 1C 02 07 D1 05 9B 73 0B
12:43:15.369 设备发送:03 03 05 93 00 0F F4 CD
12:43:18.360 设备接收:03 03 1E 16 CB 04 09 02 5B 04 50 00 00 00 00 04 56 00 00 00 00 04 49 00 01 00 00 04 55 00 07 00 00 D9 CD
12:43:18.376 设备发送:03 03 05 A2 00 0F A5 02
12:43:21.409 设备接收:03 03 1E 00 0D 00 00 00 00 00 06 00 02 00 00 00 00 00 00 00 00 00 00 00 00 00 00 00 00 00 00 00 00 49 1A
12:43:21.425 设备发送:03 03 05 B1 00 03 54 C2
12:43:24.401 设备接收:03 03 06 00 00 00 00 00 00 38 15
12:43:24.432 设备发送:03 03 04 2B 00 01 F4 D0
12:43:27.409 设备接收:03 03 02 02 E6 41 6E
12:43:27.440 设备发送:03 03 04 20 00 01 85 12
12:43:30.456 设备接收:03 03 02 00 18 C1 8E
12:43:30.472 设备发送:03 03 04 05 00 01 94 D9
12:43:33.465 设备接收:03 03 02 00 00 C1 84
12:43:33.481 设备发送:04 03 04 84 00 04 05 45
12:43:36.480 设备接收:04 03 08 13 8B 0E 75 FF DB 0E 75 F7 47
12:43:36.494 设备发送:04 03 04 8D 00 05 14 87
12:43:39.482 设备接收:04 03 0A 09 3E 14 5F 00 00 00 00 00 00 4F 07
12:43:39.545 设备发送:04 03 04 98 00 05 05 43
12:43:42.538 设备接收:04 03 0A 09 4A 14 49 00 00 00 00 00 00 6F C4
12:43:42.554 设备发送:04 03 04 A3 00 05 74 8E
12:43:45.535 设备接收:04 03 0A 09 4F 14 74 00 00 00 00 00 00 BC 57
12:43:45.552 设备发送:04 03 06 84 00 04 04 FD
12:43:48.572 设备接收:04 03 08 00 00 2B D9 00 0A 1C 5B F6 EA
12:43:48.588 设备发送:04 03 04 04 00 01 C4 AE
12:43:51.569 设备接收:04 03 02 00 02 F5 85
12:43:51.600 设备发送:04 03 05 84 00 0F 45 7E
12:43:54.583 设备接收:04 03 1E 20 95 03 24 02 9F 1F FC 01 AE 01 60 1F F0 01 9F 01 53 1E 5A 02 ED 02 46 1E F7 03 19 02 74 25 B6
12:43:54.614 设备发送:04 03 05 93 00 0F F5 7A
12:43:57.623 设备接收:04 03 1E 1E DB 03 3C 02 8E 1E 0D 01 9D 01 3D 1F B0 01 A4 01 55 05 7A 00 00 00 00 05 81 00 0D 00 01 F9 51
12:43:57.643 设备发送:04 03 05 A2 00 0F A4 B5
12:44:00.650 设备接收:04 03 1E 00 00 00 00 00 00 00 04 00 02 00 00 00 00 00 00 00 00 00 00 00 00 00 00 00 00 00 00 00 00 15 AA
12:44:00.687 设备发送:04 03 05 B1 00 03 55 75
12:44:03.679 设备接收:04 03 06 00 00 00 00 00 00 1E 25
12:44:03.694 设备发送:04 03 04 2B 00 01 F5 67
12:44:06.711 设备接收:04 03 02 02 CC 75 71
12:44:06.726 设备发送:04 03 04 20 00 01 84 A5
12:44:09.689 设备接收:04 03 02 00 27 34 5E
12:44:09.753 设备发送:04 03 04 05 00 01 95 6E
12:44:12.746 设备接收:04 03 02 00 00 74 44
12:44:12.761 设备发送:05 03 04 84 00 04 04 94
12:44:15.767 设备接收:05 03 08 13 8B 0E ED FF DD 0E EE 73 CD
12:44:15.782 设备发送:05 03 04 8D 00 05 15 56
12:44:18.754 设备接收:05 03 0A 09 43 14 F6 00 00 00 00 00 00 49 DE
12:44:18.773 设备发送:05 03 04 98 00 05 04 92
12:44:21.781 设备接收:05 03 0A 09 3E 14 F1 00 00 00 00 00 00 02 4C
12:44:21.797 设备发送:05 03 04 A3 00 05 75 5F
12:44:24.815 设备接收:05 03 0A 09 52 14 F9 00 00 00 00 00 00 76 8E
12:44:24.846 设备发送:05 03 06 84 00 04 05 2C
12:44:27.834 设备接收:05 03 08 00 00 2C F2 00 0E 82 0F FF F9
12:44:27.865 设备发送:05 03 04 04 00 01 C5 7F
12:44:30.859 设备接收:05 03 02 00 02 C8 45
12:44:30.874 设备发送:05 03 05 84 00 0F 44 AF
12:44:33.869 设备发送:05 03 05 93 00 0F F4 AB
12:44:33.885 设备接收:05 03 1E 1E D7 03 0F 02 6A 1D 94 03 1A 02 59 1F 22 01 93 01 41 1E AC 03 30 02 81 1E 7E 01 91 01 39 63 0D
12:44:36.895 设备接收:05 03 1E 1E C6 01 9F 01 47 1E 89 01 94 01 3B 1B A0 01 9C 01 23 1E 79 01 89 01 33 1E CB 01 9E 01 46 4F 90
12:44:36.910 设备发送:05 03 05 A2 00 0F A5 64
12:44:39.899 设备接收:05 03 1E 00 00 00 00 00 00 00 00 00 02 00 00 00 00 00 00 00 00 00 00 00 00 00 00 00 00 00 00 00 00 4A 99
12:44:39.929 设备发送:05 03 05 B1 00 03 54 A4
12:44:42.926 设备接收:05 03 06 00 00 00 00 00 00 13 B5
12:44:42.942 设备发送:05 03 04 2B 00 01 F4 B6
12:44:45.938 设备接收:05 03 02 02 BF 09 54
12:44:45.986 设备发送:05 03 04 20 00 01 85 74
12:44:48.962 设备接收:05 03 02 00 3A C9 97
12:44:49.008 设备发送:05 03 04 05 00 01 94 BF
12:44:51.972 设备接收:05 03 02 00 00 49 84
12:44:51.987 设备发送:06 03 04 84 00 04 04 A7
12:44:54.994 设备接收:06 03 08 13 8B 0D 43 FF E1 0D 43 94 23
12:44:55.025 设备发送:06 03 04 8D 00 05 15 65
12:44:58.029 设备接收:06 03 0A 09 3C 12 A6 00 00 00 00 00 00 B8 00
12:44:58.060 设备发送:06 03 04 98 00 05 04 A1
12:45:01.037 设备接收:06 03 0A 09 4A 12 9D 00 00 00 00 00 00 7C A1
12:45:01.053 设备发送:06 03 04 A3 00 05 75 6C
12:45:04.075 设备接收:06 03 0A 09 4C 12 A6 00 00 00 00 00 00 DD C2
12:45:04.091 设备发送:06 03 06 84 00 04 05 1F
12:45:07.080 设备接收:06 03 08 00 00 29 0D 00 0D 68 3F 5B 88
12:45:07.094 设备发送:06 03 04 04 00 01 C5 4C
12:45:10.122 设备接收:06 03 02 00 02 8C 45
12:45:10.151 设备发送:06 03 05 84 00 0F 44 9C
12:45:13.127 设备接收:06 03 1E 1E DF 02 B2 02 22 1E 8B 02 B1 02 1B 1E 5E 01 89 01 32 1E B4 01 89 01 35 1E B0 01 89 01 35 F0 49
12:45:13.143 设备发送:06 03 05 93 00 0F F4 98
12:45:16.149 设备接收:06 03 1E 1E 27 01 86 01 2D 1E A7 01 9A 01 42 1F 05 01 93 01 40 1E 2A 01 87 01 2E 1E 7D 01 88 01 31 02 70
12:45:16.165 设备发送:06 03 05 A2 00 0F A5 57
12:45:19.171 设备接收:06 03 1E 00 00 00 00 00 00 00 00 00 07 00 00 00 00 00 00 00 00 00 00 00 00 00 00 00 00 00 00 00 00 AB CC
12:45:19.187 设备发送:06 03 05 B1 00 03 54 97
12:45:22.196 设备接收:06 03 06 00 00 00 00 00 00 07 45
12:45:22.212 设备发送:06 03 04 2B 00 01 F4 85
12:45:25.218 设备接收:06 03 02 02 C0 0C B4
12:45:25.234 设备发送:06 03 04 20 00 01 85 47
12:45:28.226 设备接收:06 03 02 00 31 CC 50
12:45:28.241 设备发送:06 03 04 05 00 01 94 8C
12:45:31.265 设备接收:06 03 02 00 00 0D 84
12:45:31.296 设备发送:07 03 04 84 00 04 05 76
12:45:34.291 设备接收:07 03 08 13 8C 0E A6 FF DD 0E A6 AA 8D
12:45:34.306 设备发送:07 03 04 8D 00 05 14 B4
12:45:37.298 设备接收:07 03 0A 09 3D 14 9F 00 00 00 00 00 00 9E 38
12:45:37.330 设备发送:07 03 04 98 00 05 05 70
12:45:40.333 设备接收:07 03 0A 09 48 14 A0 00 00 00 00 00 00 0B A9
12:45:40.348 设备发送:07 03 04 A3 00 05 74 BD
12:45:43.362 设备接收:07 03 0A 09 4C 14 9C 00 00 00 00 00 00 C5 6A
12:45:43.377 设备发送:07 03 06 84 00 04 04 CE
12:45:46.371 设备接收:07 03 08 00 00 2C 5F 00 0B B3 93 5C 61
12:45:46.387 设备发送:07 03 04 04 00 01 C4 9D
12:45:49.413 设备接收:07 03 02 00 02 B1 85
12:45:49.430 设备发送:07 03 05 84 00 0F 45 4D
12:45:52.421 设备接收:07 03 1E 1E D8 03 19 02 72 1F 07 01 92 01 3F 1E 3C 01 97 01 3B 1E 7D 01 93 01 3B 1F 29 01 84 01 36 50 15
12:45:52.437 设备发送:07 03 05 93 00 0F F5 49
12:45:55.428 设备接收:07 03 1E 1F 22 01 90 01 3F 1F 24 01 99 01 46 1D 4B 03 1C 02 55 1B 0D 02 5A 01 A1 1B 53 02 49 01 99 C8 56
12:45:55.443 设备发送:07 03 05 A2 00 0F A4 86
12:45:58.457 设备接收:07 03 1E 00 00 00 00 00 00 00 00 00 05 00 00 00 00 00 00 00 00 00 00 00 00 00 00 00 00 00 00 00 00 E5 EE
12:45:58.472 设备发送:07 03 05 B1 00 03 55 46
12:46:01.466 设备接收:07 03 06 00 00 00 00 00 00 0A D5
12:46:01.482 设备发送:07 03 04 2B 00 01 F5 54
12:46:04.513 设备接收:07 03 02 02 C8 30 B2
12:46:04.527 设备发送:07 03 04 20 00 01 84 96
12:46:07.532 设备接收:07 03 02 00 38 31 96
12:46:07.546 设备发送:07 03 04 05 00 01 95 5D
12:46:10.550 设备接收:07 03 02 00 00 30 44
12:46:10.566 设备发送:08 03 04 84 00 04 05 89
12:46:13.562 设备接收:08 03 08 13 85 0B BE FF E5 0B BF 60 99
12:46:13.577 设备发送:08 03 04 8D 00 05 14 4B
12:46:16.576 设备接收:08 03 0A 09 3B 10 91 00 00 00 00 00 00 4F A4
12:46:16.592 设备发送:08 03 04 98 00 05 05 8F
12:46:19.599 设备接收:08 03 0A 09 46 10 91 00 00 00 00 00 00 72 F6
12:46:19.614 设备发送:08 03 04 A3 00 05 74 42
12:46:22.622 设备接收:08 03 0A 09 49 10 B3 00 00 00 00 00 00 31 04
12:46:22.636 设备发送:08 03 06 84 00 04 04 31
12:46:25.626 设备接收:08 03 08 00 00 22 EB 00 0D 0D F5 CC CA
12:46:25.662 设备发送:08 03 04 04 00 01 C4 62
12:46:28.663 设备接收:08 03 02 00 02 E5 84
12:46:28.678 设备发送:08 03 05 84 00 0F 45 B2
12:46:31.662 设备接收:08 03 1E 21 09 02 A6 02 3E 21 0E 02 89 02 25 21 0E 02 63 02 05 05 0D 00 01 00 00 1F 46 02 98 02 14 42 54
12:46:31.677 设备发送:08 03 05 93 00 0F F5 B6
12:46:34.712 设备接收:08 03 1E 1F B8 02 6D 01 F8 1F 45 02 6C 01 F1 05 03 00 00 00 00 05 03 00 01 00 00 05 03 00 00 00 00 C5 FA
12:46:34.742 设备发送:08 03 05 A2 00 0F A4 79
12:46:37.707 设备接收:08 03 1E 00 00 00 00 00 00 00 01 00 03 00 00 00 00 00 00 00 00 00 00 00 00 00 00 00 00 00 00 00 00 2A 16
12:46:37.723 设备发送:08 03 05 B1 00 03 55 B9
12:46:40.726 设备接收:08 03 06 00 00 00 00 00 00 4B 25
12:46:40.742 设备发送:08 03 04 2B 00 01 F5 AB
12:46:43.744 设备接收:08 03 02 02 D8 65 7F
12:46:43.759 设备发送:08 03 04 20 00 01 84 69
12:46:46.774 设备接收:08 03 02 00 29 A5 9B
12:46:46.790 设备发送:08 03 04 05 00 01 95 A2
12:46:49.803 设备接收:08 03 02 00 00 64 45
12:46:49.834 设备发送:09 03 04 84 00 04 04 58
12:46:52.801 设备接收:09 03 08 13 87 0D 52 FF E0 0D 52 05 F8
12:46:52.817 设备发送:09 03 04 8D 00 05 15 9A
12:46:55.854 设备接收:09 03 0A 09 44 12 C2 00 00 00 00 00 00 8B CB
12:46:55.869 设备发送:09 03 04 98 00 05 04 5E
12:46:58.877 设备接收:09 03 0A 09 42 12 B9 00 00 00 00 00 00 6B 6C
12:46:58.891 设备发送:09 03 04 A3 00 05 75 93
12:47:01.895 设备接收:09 03 0A 09 55 12 C4 00 00 00 00 00 00 2D 9B
12:47:01.926 设备发送:09 03 06 84 00 04 05 E0
12:47:04.897 设备接收:09 03 08 00 00 27 83 00 0E F5 7E 5A 0D
12:47:04.913 设备发送:09 03 04 04 00 01 C5 B3
12:47:07.922 设备接收:09 03 02 00 02 D8 44
12:47:07.938 设备发送:09 03 05 84 00 0F 44 63
12:47:10.951 设备接收:09 03 1E 1E D6 02 97 02 0B 1E E5 02 B7 02 25 1E FE 02 83 01 FE 1F 31 01 3C 00 FC 1F 78 02 70 01 F6 DA A0
12:47:10.974 设备发送:09 03 05 93 00 0F F4 67
12:47:13.942 设备接收:09 03 1E 1F 5A 02 78 01 FB 1F A2 02 6C 01 F6 1E B3 01 42 00 FD 05 78 00 05 00 00 05 79 00 00 00 00 0B A4
12:47:13.958 设备发送:09 03 05 A2 00 0F A5 A8
12:47:16.980 设备接收:09 03 1E 00 07 00 00 00 00 00 04 00 02 00 00 00 00 00 00 00 00 00 00 00 00 00 00 00 00 00 00 00 00 E8 6D
12:47:17.011 设备发送:09 03 05 B1 00 03 54 68
12:47:20.001 设备接收:09 03 06 00 00 00 00 00 00 46 B5
12:47:20.019 设备发送:09 03 04 2B 00 01 F4 7A
12:47:23.036 设备接收:09 03 02 02 D4 58 BA
12:47:23.051 设备发送:09 03 04 20 00 01 85 B8
12:47:26.025 设备接收:09 03 02 00 36 D9 93
12:47:26.041 设备发送:09 03 04 05 00 01 94 73
12:47:29.051 设备接收:09 03 02 00 00 59 85
12:47:29.066 设备发送:0A 03 04 84 00 04 04 6B
12:47:32.090 设备接收:0A 03 08 13 85 0C 8E FF E5 0C 8E E9 76
12:47:32.121 设备发送:0A 03 04 8D 00 05 15 A9
12:47:35.092 设备接收:0A 03 0A 09 40 11 A8 00 00 00 00 00 00 36 DB
12:47:35.108 设备发送:0A 03 04 98 00 05 04 6D
12:47:38.099 设备接收:0A 03 0A 09 4B 11 9C 00 00 00 00 00 00 30 28
12:47:38.114 设备发送:0A 03 04 A3 00 05 75 A0
12:47:41.140 设备接收:0A 03 0A 09 52 11 BF 00 00 00 00 00 00 85 7A
12:47:41.156 设备发送:0A 03 06 84 00 04 05 D3
12:47:44.144 设备接收:0A 03 08 00 00 25 B4 00 0D CC 19 02 D5
12:47:44.175 设备发送:0A 03 04 04 00 01 C5 80
12:47:47.169 设备接收:0A 03 02 00 02 9C 44
12:47:47.185 设备发送:0A 03 05 84 00 0F 44 50
12:47:50.179 设备接收:0A 03 1E 1F 0F 02 B0 02 23 1F 3F 02 86 02 05 1F 75 02 73 01 F9 1F 99 02 7B 02 01 1F 45 02 A1 02 1B 11 1A
12:47:50.242 设备发送:0A 03 05 93 00 0F F4 54
12:47:53.219 设备接收:0A 03 1E 1F 7D 02 93 02 13 1F 56 01 42 01 02 05 2A 00 00 00 00 05 3A 00 06 00 00 05 36 00 00 00 00 8C 00
12:47:53.235 设备发送:0A 03 05 A2 00 0F A5 9B
12:47:56.234 设备接收:0A 03 1E 00 0A 00 00 00 00 00 09 00 02 00 00 00 00 00 00 00 00 00 00 00 00 00 00 00 00 00 00 00 00 04 AC
12:47:56.264 设备发送:0A 03 05 B1 00 03 54 5B
12:47:59.276 设备接收:0A 03 06 00 00 00 00 00 00 52 45
12:47:59.292 设备发送:0A 03 04 2B 00 01 F4 49
12:48:02.269 设备接收:0A 03 02 02 D9 DD 7F
12:48:02.299 设备发送:0A 03 04 20 00 01 85 8B
12:48:05.324 设备接收:0A 03 02 00 20 1C 5D
12:48:05.340 设备发送:0A 03 04 05 00 01 94 40
12:48:08.330 设备接收:0A 03 02 00 00 1D 85
12:48:08.346 设备发送:0B 03 04 84 00 04 05 BA
12:48:11.386 设备接收:0B 03 08 13 85 04 E1 FF C9 04 E2 FE EF
12:48:11.390 设备发送:0B 03 04 8D 00 05 14 78
12:48:14.380 设备接收:0B 03 0A 09 57 06 CB 00 00 00 00 00 00 CC 46
12:48:14.396 设备发送:0B 03 04 98 00 05 05 BC
12:48:17.391 设备接收:0B 03 0A 09 56 06 D5 00 00 00 00 00 00 3F D7
12:48:17.421 设备发送:0B 03 04 A3 00 05 74 71
12:48:20.416 设备接收:0B 03 0A 09 58 06 C3 00 00 00 00 00 00 04 76
12:48:20.432 设备发送:0B 03 06 84 00 04 04 02
12:48:23.450 设备接收:0B 03 08 00 00 0E 8F 00 04 9B F7 8B 89
12:48:23.482 设备发送:0B 03 04 04 00 01 C4 51
12:48:26.472 设备接收:0B 03 02 00 02 A1 84
12:48:26.488 设备发送:0B 03 05 84 00 0F 45 81
12:48:29.483 设备接收:0B 03 1E 1E 9A 02 7B 01 F1 1D 76 01 8D 01 2B 1D AB 01 44 00 F6 1D 91 01 5A 01 06 00 00 00 00 00 00 E3 5E
12:48:29.514 设备发送:0B 03 05 93 00 0F F5 85
12:48:32.495 设备接收:0B 03 1E 00 00 00 00 00 00 00 00 00 00 00 00 00 00 00 00 00 00 00 00 00 00 00 00 00 00 00 00 00 00 60 B9
12:48:32.541 设备发送:0B 03 05 A2 00 0F A4 4A
12:48:35.544 设备接收:0B 03 1E 00 00 00 00 00 00 00 00 00 00 00 00 00 00 00 00 00 00 00 00 00 00 00 00 00 00 00 00 00 00 60 B9
12:48:35.560 设备发送:0B 03 05 B1 00 03 55 8A
12:48:38.555 设备接收:0B 03 06 00 00 00 00 00 00 5F D5
12:48:38.571 设备发送:0B 03 04 2B 00 01 F5 98
12:48:41.580 设备接收:0B 03 02 01 D3 60 48
12:48:41.596 设备发送:0B 03 04 20 00 01 84 5A
12:48:44.606 设备接收:0B 03 02 00 2A A1 9A
12:48:44.622 设备发送:0B 03 04 05 00 01 95 91
12:48:47.609 设备接收:0B 03 02 00 00 20 45
12:48:47.640 设备发送:0C 03 04 84 00 04 04 0D
12:48:50.633 设备接收:0C 03 08 13 8B 03 CD FF D4 03 D1 49 09
12:48:50.656 设备发送:0C 03 04 8D 00 05 15 CF
12:48:53.657 设备接收:0C 03 0A 09 54 05 53 00 00 00 00 00 00 8A 2D
12:48:53.672 设备发送:0C 03 04 98 00 05 04 0B
12:48:56.687 设备接收:0C 03 0A 09 50 05 58 00 00 00 00 00 00 02 2D
12:48:56.703 设备发送:0C 03 04 A3 00 05 75 C6
12:48:59.715 设备接收:0C 03 0A 09 58 05 50 00 00 00 00 00 00 EC 2D
12:48:59.730 设备发送:0C 03 06 84 00 04 05 B5
12:49:02.717 设备接收:0C 03 08 00 00 0B 81 00 04 08 81 15 7F
12:49:02.733 设备发送:0C 03 04 04 00 01 C5 E6
12:49:05.767 设备接收:0C 03 02 00 02 14 44
12:49:05.794 设备发送:0C 03 05 84 00 0F 44 36
12:49:08.772 设备接收:0C 03 1E 1D 5B 02 80 01 E1 1F 28 02 88 02 05 05 BC 00 00 00 00 0D AC 00 00 00 00 00 00 00 00 00 00 07 11
12:49:08.787 设备发送:0C 03 05 93 00 0F F4 32
12:49:11.799 设备接收:0C 03 1E 00 00 00 00 00 00 00 00 00 00 00 00 00 00 00 00 00 00 00 00 00 00 00 00 00 00 00 00 00 00 65 78
12:49:11.846 设备发送:0C 03 05 A2 00 0F A5 FD
12:49:14.841 设备接收:0C 03 1E 00 00 00 00 00 00 00 00 00 00 00 00 00 00 00 00 00 00 00 00 00 00 00 00 00 00 00 00 00 00 65 78
12:49:14.856 设备发送:0C 03 05 B1 00 03 54 3D
12:49:17.851 设备接收:0C 03 06 00 00 00 00 00 00 79 E5
12:49:17.866 设备发送:0C 03 04 2B 00 01 F4 2F
12:49:20.875 设备接收:0C 03 02 01 D7 D4 4B
12:49:20.906 设备发送:0C 03 04 20 00 01 85 ED
12:49:23.902 设备接收:0C 03 02 00 22 15 9C
12:49:23.916 设备发送:0C 03 04 05 00 01 94 26
12:49:26.907 设备发送:01 03 04 84 00 04 05 10
12:49:26.924 设备接收:0C 03 02 00 00 95 85
12:49:29.941 设备接收:01 03 08 13 8B 07 F9 FF D0 07 F9 81 FA
12:49:29.953 设备发送:01 03 04 8D 00 05 14 D2
12:49:32.947 设备接收:01 03 0A 09 41 0B 45 00 00 00 00 00 00 9D BD
12:49:32.978 设备发送:01 03 04 98 00 05 05 16
12:49:35.967 设备接收:01 03 0A 09 40 0B 4C 00 00 00 00 00 00 09 2D
12:49:35.982 设备发送:01 03 04 A3 00 05 74 DB
12:49:38.971 设备接收:01 03 0A 09 43 0B 53 00 00 00 00 00 00 F3 1C
12:49:39.001 设备发送:01 03 06 84 00 04 04 A8
12:49:42.012 设备接收:01 03 08 00 00 19 1F 00 04 56 FB 3D FE
12:49:42.028 设备发送:01 03 04 04 00 01 C4 FB
12:49:45.039 设备接收:01 03 02 00 02 39 85
12:49:45.054 设备发送:01 03 05 84 00 0F 45 2B
12:49:48.048 设备接收:01 03 1E 03 82 00 00 00 00 03 84 00 00 00 00 1A 49 08 1F 05 77 03 7E 00 04 00 00 03 78 00 01 00 00 95 F2
12:49:48.079 设备发送:01 03 05 93 00 0F F5 2F
12:49:51.078 设备接收:01 03 1E 1D B8 03 E9 02 FA 03 6F 00 00 00 00 03 79 00 00 00 00 03 79 00 05 00 00 03 79 00 00 00 00 A8 B5
12:49:51.093 设备发送:01 03 05 A2 00 0F A4 E0
12:49:54.084 设备接收:01 03 1E 00 02 00 00 00 00 00 01 00 00 00 00 00 00 00 00 00 00 00 00 00 00 00 00 00 00 00 00 00 00 95 25
12:49:54.104 设备发送:01 03 05 B1 00 03 55 20
12:49:57.089 设备接收:01 03 06 00 00 00 00 00 00 21 75
12:49:57.121 设备发送:01 03 04 2B 00 01 F5 32
12:50:00.117 设备接收:01 03 02 02 EF F8 A8
12:50:00.133 设备发送:01 03 04 20 00 01 84 F0
12:50:03.157 设备接收:01 03 02 00 2D 78 59
12:50:03.173 设备发送:01 03 04 05 00 01 95 3B
12:50:06.163 设备接收:01 03 02 00 00 B8 44
12:50:06.194 设备发送:02 03 04 84 00 04 05 23
12:50:09.183 设备接收:02 03 08 13 8B 16 6F FF CE 16 6F 29 DA
12:50:09.198 设备发送:02 03 04 8D 00 05 14 E1
12:50:12.222 设备接收:02 03 0A 09 4F 1F 75 00 00 00 00 00 00 E4 E2
12:50:12.236 设备发送:02 03 04 98 00 05 05 25
12:50:15.207 设备接收:02 03 0A 09 47 1F 60 00 00 00 00 00 00 C7 E3
12:50:15.237 设备发送:02 03 04 A3 00 05 74 E8
12:50:18.240 设备接收:02 03 0A 09 57 1F 60 00 00 00 00 00 00 0A 23
12:50:18.255 设备发送:02 03 06 84 00 04 04 9B
12:50:21.242 设备接收:02 03 08 00 00 44 80 00 0C AD 38 29 48
12:50:21.273 设备发送:02 03 04 04 00 01 C4 C8
12:50:24.279 设备接收:02 03 02 00 02 7D 85
12:50:24.295 设备发送:02 03 05 84 00 0F 45 18
12:50:27.305 设备接收:02 03 1E 1C E9 07 D3 05 CB 1D 9D 03 F2 02 FD 04 55 00 00 00 00 04 56 00 05 00 00 1D 40 07 9E 05 B4 8F DD
12:50:27.336 设备发送:02 03 05 93 00 0F F5 1C
12:50:30.316 设备接收:02 03 1E 1C CC 07 C5 05 BA 1C FD 03 EF 02 EB 04 54 00 04 00 00 04 57 00 00 00 00 04 51 00 00 00 00 CF A1
12:50:30.331 设备发送:02 03 05 A2 00 0F A4 D3
12:50:33.346 设备接收:02 03 1E 00 00 00 00 00 00 00 00 00 05 00 00 00 00 00 00 00 00 00 00 00 00 00 00 00 00 00 00 00 00 39 EF
12:50:33.361 设备发送:02 03 05 B1 00 03 55 13
12:50:36.371 设备接收:02 03 06 00 00 00 00 00 00 35 85
12:50:36.387 设备发送:02 03 04 2B 00 01 F5 01
12:50:39.370 设备接收:02 03 02 02 E9 3C AA
12:50:39.402 设备发送:02 03 04 20 00 01 84 C3
12:50:42.391 设备接收:02 03 02 00 29 3D 9A
12:50:42.408 设备发送:02 03 04 05 00 01 95 08
12:50:45.431 设备接收:02 03 02 00 00 FC 44
12:50:45.447 设备发送:03 03 04 84 00 04 04 F2
12:50:48.427 设备接收:03 03 08 13 8A 1D 43 FF C2 1D 44 2A 77
12:50:48.443 设备发送:03 03 04 8D 00 05 15 30
12:50:51.472 设备接收:03 03 0A 09 5E 28 A1 00 00 00 00 00 00 F0 CC
12:50:51.484 设备发送:03 03 04 98 00 05 04 F4
12:50:54.486 设备接收:03 03 0A 09 56 28 B5 00 00 00 00 00 00 C3 0D
12:50:54.501 设备发送:03 03 04 A3 00 05 75 39
12:50:57.517 设备接收:03 03 0A 09 68 28 9B 00 00 00 00 00 00 15 6E
12:50:57.532 设备发送:03 03 06 84 00 04 05 4A
12:51:00.509 设备接收:03 03 08 00 00 62 E4 00 10 B8 7A 14 1D
12:51:00.525 设备发送:03 03 04 04 00 01 C5 19
12:51:03.543 设备接收:03 03 02 00 02 40 45
12:51:03.575 设备发送:03 03 05 84 00 0F 44 C9
12:51:06.554 设备接收:03 03 1E 1B E8 07 C7 05 8E 1C 04 07 C7 05 94 1B CF 07 CB 05 8C 1B B0 07 CE 05 88 1B B1 07 DF 05 94 47 44
12:51:06.569 设备发送:03 03 05 93 00 0F F4 CD
12:51:09.611 设备接收:03 03 1E 16 80 04 15 02 5A 04 4C 00 00 00 00 04 53 00 00 00 00 04 45 00 02 00 00 04 50 00 05 00 00 FF 53
12:51:09.626 设备发送:03 03 05 A2 00 0F A5 02
12:51:12.613 设备接收:03 03 1E 00 0D 00 01 00 00 00 06 00 03 00 00 00 00 00 00 00 00 00 00 00 00 00 00 00 00 00 00 00 00 A7 49
12:51:12.645 设备发送:03 03 05 B1 00 03 54 C2
12:51:15.614 设备接收:03 03 06 00 00 00 00 00 00 38 15
12:51:15.645 设备发送:03 03 04 2B 00 01 F4 D0
12:51:18.651 设备接收:03 03 02 02 E6 41 6E
12:51:18.672 设备发送:03 03 04 20 00 01 85 12
12:51:21.656 设备接收:03 03 02 00 19 00 4E
12:51:21.682 设备发送:03 03 04 05 00 01 94 D9
12:51:24.710 设备接收:03 03 02 00 00 C1 84
12:51:24.738 设备发送:04 03 04 84 00 04 05 45
12:51:27.701 设备接收:04 03 08 13 89 0E 6C FF A5 0E 6D A9 57
12:51:27.749 设备发送:04 03 04 8D 00 05 14 87
12:51:30.744 设备接收:04 03 0A 09 41 14 46 00 00 00 00 00 00 E3 F4
12:51:30.760 设备发送:04 03 04 98 00 05 05 43
12:51:33.749 设备接收:04 03 0A 09 52 14 2E 00 00 00 00 00 00 D3 02
12:51:33.765 设备发送:04 03 04 A3 00 05 74 8E
12:51:36.789 设备接收:04 03 0A 09 51 14 5E 00 00 00 00 00 00 B6 35
12:51:36.826 设备发送:04 03 06 84 00 04 04 FD
12:51:39.803 设备接收:04 03 08 00 00 2D BD 00 0A 1C 8B 86 D8
12:51:39.833 设备发送:04 03 04 04 00 01 C4 AE
12:51:42.804 设备接收:04 03 02 00 02 F5 85
12:51:42.832 设备发送:04 03 05 84 00 0F 45 7E
12:51:45.841 设备接收:04 03 1E 20 93 03 21 02 9C 20 4C 01 A7 01 5E 20 70 01 96 01 51 1E 60 02 EB 02 45 1E D5 03 1D 02 75 D1 03
12:51:45.864 设备发送:04 03 05 93 00 0F F5 7A
12:51:48.871 设备接收:04 03 1E 1E B5 03 41 02 8F 1E 5E 01 97 01 3C 20 01 01 9C 01 51 05 7E 00 00 00 00 05 87 00 0B 00 01 44 7F
12:51:48.889 设备发送:04 03 05 A2 00 0F A4 B5
12:51:51.913 设备接收:04 03 1E 00 00 00 00 00 00 00 04 00 02 00 00 00 00 00 00 00 00 00 00 00 00 00 00 00 00 00 00 00 00 15 AA
12:51:51.925 设备发送:04 03 05 B1 00 03 55 75
12:51:54.915 设备接收:04 03 06 00 00 00 00 00 00 1E 25
12:51:54.931 设备发送:04 03 04 2B 00 01 F5 67
12:51:57.935 设备接收:04 03 02 02 CC 75 71
12:51:57.951 设备发送:04 03 04 20 00 01 84 A5
12:52:00.953 设备接收:04 03 02 00 22 F4 5D
12:52:00.984 设备发送:04 03 04 05 00 01 95 6E
12:52:03.943 设备接收:04 03 02 00 00 74 44
12:52:03.974 设备发送:05 03 04 84 00 04 04 94
12:52:06.982 设备接收:05 03 08 13 8B 0E EB FF DC 0E EB 6A 0E
12:52:06.997 设备发送:05 03 04 8D 00 05 15 56
12:52:10.010 设备接收:05 03 0A 09 46 14 E7 00 00 00 00 00 00 77 8F
12:52:10.026 设备发送:05 03 04 98 00 05 04 92
12:52:13.033 设备接收:05 03 0A 09 42 14 F9 00 00 00 00 00 00 BB 4E
12:52:13.064 设备发送:05 03 04 A3 00 05 75 5F
12:52:16.039 设备接收:05 03 0A 09 54 14 E6 00 00 00 00 00 00 B3 EF
12:52:16.055 设备发送:05 03 06 84 00 04 05 2C
12:52:19.059 设备接收:05 03 08 00 00 2E E7 00 0E 82 41 73 EC
12:52:19.074 设备发送:05 03 04 04 00 01 C5 7F
12:52:22.065 设备接收:05 03 02 00 02 C8 45
