
15:18:40.787 设备接收:0C 03 08 00 00 12 EF 00 04 09 40 3E BF
15:18:40.798 设备发送:0C 03 04 04 00 01 C5 E6
15:18:43.790 设备接收:0C 03 02 00 02 14 44
15:18:43.821 设备发送:0C 03 05 84 00 0F 44 36
15:18:46.794 设备接收:0C 03 1E 1D 0C 01 22 00 D8 1E B2 01 30 00 EF 05 81 00 02 00 00 0D 77 00 00 00 00 00 00 00 00 00 00 C8 FF
15:18:46.855 设备发送:0C 03 05 93 00 0F F4 32
15:18:49.848 设备接收:0C 03 1E 00 00 00 00 00 00 00 00 00 00 00 00 00 00 00 00 00 00 00 00 00 00 00 00 00 00 00 00 00 00 65 78
15:18:49.864 设备发送:0C 03 05 A2 00 0F A5 FD
15:18:52.878 设备接收:0C 03 1E 00 00 00 00 00 00 00 00 00 00 00 00 00 00 00 00 00 00 00 00 00 00 00 00 00 00 00 00 00 00 65 78
15:18:52.894 设备发送:0C 03 05 B1 00 03 54 3D
15:18:55.880 设备接收:0C 03 06 00 00 00 00 00 00 79 E5
15:18:55.911 设备发送:0C 03 04 2B 00 01 F4 2F
15:18:58.910 设备接收:0C 03 02 01 D7 D4 4B
15:18:58.925 设备发送:0C 03 04 20 00 01 85 ED
15:19:01.932 设备接收:0C 03 02 00 1B D5 8E
15:19:01.948 设备发送:0C 03 04 05 00 01 94 26
15:19:04.949 设备接收:0C 03 02 00 00 95 85
15:19:04.964 设备发送:01 03 04 84 00 04 05 10
15:19:07.983 设备接收:01 03 08 13 87 03 72 FF FA 03 72 8B 0E
15:19:07.999 设备发送:01 03 04 8D 00 05 14 D2
15:19:11.017 设备接收:01 03 0A 09 32 04 FC 00 00 00 00 00 00 84 04
15:19:11.032 设备发送:01 03 04 98 00 05 05 16
15:19:14.038 设备接收:01 03 0A 09 2F 05 03 00 00 00 00 00 00 DF 97
15:19:14.052 设备发送:01 03 04 A3 00 05 74 DB
15:19:17.040 设备接收:01 03 0A 09 37 05 19 00 00 00 00 00 00 CE 56
15:19:17.056 设备发送:01 03 06 84 00 04 04 A8
15:19:20.050 设备接收:01 03 08 00 00 29 A1 00 04 58 A1 94 4E
15:19:20.081 设备发送:01 03 04 04 00 01 C4 FB
15:19:23.085 设备接收:01 03 02 00 02 39 85
15:19:23.117 设备发送:01 03 05 84 00 0F 45 2B
15:19:26.113 设备接收:01 03 1E 03 9A 00 00 00 00 03 9B 00 00 00 00 1C 4E 02 AC 01 F0 03 95 00 05 00 00 03 8E 00 05 00 00 79 D7
15:19:26.128 设备发送:01 03 05 93 00 0F F5 2F
15:19:29.105 设备接收:01 03 1E 1E 2D 02 52 01 CB 03 85 00 00 00 00 03 8F 00 00 00 00 03 8D 00 03 00 00 03 8F 00 00 00 00 A1 A1
15:19:29.121 设备发送:01 03 05 A2 00 0F A4 E0
15:19:32.150 设备接收:01 03 1E 00 01 00 00 00 00 00 01 00 00 00 00 00 00 00 00 00 00 00 00 00 00 00 00 00 00 00 00 00 00 D5 27
15:19:32.228 设备发送:01 03 05 B1 00 03 55 20
15:19:35.176 设备接收:01 03 06 00 00 00 00 00 00 21 75
15:19:35.192 设备发送:01 03 04 2B 00 01 F5 32
15:19:38.173 设备接收:01 03 02 02 EF F8 A8
15:19:38.189 设备发送:01 03 04 20 00 01 84 F0
15:19:41.205 设备接收:01 03 02 00 31 79 90
15:19:41.220 设备发送:01 03 04 05 00 01 95 3B
15:19:44.210 设备接收:01 03 02 00 00 B8 44
15:19:44.226 设备发送:02 03 04 84 00 04 05 23
15:19:47.226 设备接收:02 03 08 13 8B 0B 86 FF BA 0B 87 3E 84
15:19:47.258 设备发送:02 03 04 8D 00 05 14 E1
15:19:50.276 设备接收:02 03 0A 09 38 10 47 00 00 00 00 00 00 F4 93
15:19:50.307 设备发送:02 03 04 98 00 05 05 25
15:19:53.265 设备接收:02 03 0A 09 35 10 56 00 00 00 00 00 00 AD 02
15:19:53.296 设备发送:02 03 04 A3 00 05 74 E8
15:19:56.302 设备接收:02 03 0A 09 44 10 5D 00 00 00 00 00 00 7F 90
15:19:56.317 设备发送:02 03 06 84 00 04 04 9B
15:19:59.322 设备接收:02 03 08 00 00 72 62 00 0C B1 CF 9D 8E
15:19:59.337 设备发送:02 03 04 04 00 01 C4 C8
15:20:02.338 设备接收:02 03 02 00 02 7D 85
15:20:02.354 设备发送:02 03 05 84 00 0F 45 18
15:20:05.384 设备接收:02 03 1E 1D 87 04 96 03 77 1D EE 02 63 01 D4 04 5E 00 01 00 00 04 5F 00 01 00 00 19 32 04 17 02 A3 25 5C
15:20:05.400 设备发送:02 03 05 93 00 0F F5 1C
15:20:08.385 设备接收:02 03 1E 1B 3F 03 88 02 76 1E 8F 02 2A 01 B2 04 5D 00 03 00 00 04 60 00 00 00 00 04 5B 00 00 00 00 D9 0E
15:20:08.401 设备发送:02 03 05 A2 00 0F A4 D3
15:20:11.421 设备接收:02 03 1E 00 00 00 00 00 00 00 00 00 04 00 00 00 00 00 00 00 00 00 00 00 00 00 00 00 00 00 00 00 00 29 3E
15:20:11.435 设备发送:02 03 05 B1 00 03 55 13
15:20:14.429 设备接收:02 03 06 00 00 00 00 00 00 35 85
15:20:14.445 设备发送:02 03 04 2B 00 01 F5 01
15:20:17.451 设备接收:02 03 02 02 E9 3C AA
15:20:17.468 设备发送:02 03 04 20 00 01 84 C3
15:20:20.436 设备接收:02 03 02 00 36 7C 52
15:20:20.499 设备发送:02 03 04 05 00 01 95 08
15:20:23.474 设备接收:02 03 02 00 00 FC 44
15:20:23.490 设备发送:03 03 04 84 00 04 04 F2
15:20:26.483 设备接收:03 03 08 13 84 11 5E FF 96 11 60 6D B2
15:20:26.515 设备发送:03 03 04 8D 00 05 15 30
15:20:29.518 设备接收:03 03 0A 09 44 18 6A 00 00 00 00 00 00 3A 74
15:20:29.533 设备发送:03 03 04 98 00 05 04 F4
15:20:32.532 设备接收:03 03 0A 09 41 18 50 00 00 00 00 00 00 9F 27
15:20:32.564 设备发送:03 03 04 A3 00 05 75 39
15:20:35.572 设备接收:03 03 0A 09 50 18 70 00 00 00 00 00 00 7E B5
15:20:35.600 设备发送:03 03 06 84 00 04 05 4A
15:20:38.567 设备接收:03 03 08 00 00 A0 3C 00 10 BE 9D 67 06
15:20:38.614 设备发送:03 03 04 04 00 01 C5 19
15:20:41.601 设备接收:03 03 02 00 02 40 45
15:20:41.618 设备发送:03 03 05 84 00 0F 44 C9
15:20:44.611 设备接收:03 03 1E 1C D8 04 7D 03 50 1C F1 04 7E 03 54 1C E6 04 75 03 4C 1C C8 04 6F 03 44 1C 9F 04 A0 03 64 77 E3
15:20:44.642 设备发送:03 03 05 93 00 0F F4 CD
15:20:47.649 设备接收:03 03 1E 17 6D 02 69 01 72 04 70 00 00 00 00 04 77 00 00 00 00 04 6A 00 00 00 00 04 74 00 06 00 00 9E A8
15:20:47.665 设备发送:03 03 05 A2 00 0F A5 02
15:20:50.664 设备接收:03 03 1E 00 0D 00 01 00 00 00 06 00 03 00 00 00 00 00 00 00 00 00 00 00 00 00 00 00 00 00 00 00 00 A7 49
15:20:50.696 设备发送:03 03 05 B1 00 03 54 C2
15:20:53.688 设备接收:03 03 06 00 00 00 00 00 00 38 15
15:20:53.704 设备发送:03 03 04 2B 00 01 F4 D0
15:20:56.690 设备接收:03 03 02 02 E6 41 6E
15:20:56.705 设备发送:03 03 04 20 00 01 85 12

