
14:32:34.146 设备接收:02 03 08 13 8C 11 9E FF D8 11 9F C0 C8
14:32:34.156 设备发送:02 03 04 8D 00 21 14 FA
14:32:34.959 设备接收:02 03 42 09 47 18 C1 00 00 00 00 00 00 00 00 00 00 00 00 00 00 00 00 00 00 09 3E 18 BF 00 00 00 00 00 00 00 00 00 00 00 00 00 00 00 00 00 00 09 4F 18 C6 00 00 00 00 00 00 00 00 00 00 00 00 00 00 00 00 00 00 36 D6
14:32:34.970 设备发送:02 03 06 84 00 04 04 9B
14:32:35.791 设备接收:02 03 08 00 00 6D 0E 00 0B EC 6F 86 C1
14:32:35.822 设备发送:02 03 04 04 00 01 C4 C8
14:32:36.635 设备接收:02 03 02 00 02 7D 85
14:32:36.650 设备发送:03 03 04 84 00 04 04 F2
14:32:37.432 设备接收:03 03 08 13 8B 16 DC 00 24 16 DC 78 A9
14:32:37.447 设备发送:03 03 04 8D 00 21 15 2B
14:32:38.260 设备接收:03 03 42 09 52 1F EB 00 00 00 00 00 00 00 00 00 00 00 00 00 00 00 00 00 00 09 4A 1F F6 00 00 00 00 00 00 00 00 00 00 00 00 00 00 00 00 00 00 09 60 1F FD 00 00 00 00 00 00 00 00 00 00 00 00 00 00 00 00 00 00 06 CC
14:32:38.292 设备发送:03 03 06 84 00 04 05 4A
14:32:39.070 设备接收:03 03 08 00 00 96 07 00 0F AB 54 78 55
14:32:39.085 设备发送:03 03 04 04 00 01 C5 19
14:32:39.897 设备接收:03 03 02 00 02 40 45
14:32:39.926 设备发送:04 03 04 84 00 04 05 45
14:32:40.725 设备接收:04 03 08 13 8B 0A 26 FF E6 0A 27 60 3E FF
14:32:40.741 设备发送:04 03 04 8D 00 21 14 9C
14:32:41.558 设备接收:04 03 42 09 3A 0E 6A 00 00 00 00 00 00 00 00 00 00 00 00 00 00 00 00 00 00 09 3E 0E 48 00 00 00 00 00 00 00 00 00 00 00 00 00 00 00 00 00 00 09 46 0E 7E 00 00 00 00 00 00 00 00 00 00 00 00 00 00 00 00 00 00 70 9B FF
14:32:41.572 设备发送:04 03 06 84 00 04 04 FD
14:32:42.336 设备接收:04 03 08 00 00 47 5F 00 09 9B EB E4 1C
14:32:42.351 设备发送:04 03 04 04 00 01 C4 AE
14:32:43.179 设备接收:04 03 02 00 02 F5 85
14:32:43.195 设备发送:05 03 04 84 00 04 04 94
14:32:43.976 设备接收:05 03 08 13 8C 0A 98 FF C1 0A 99 0A 62
14:32:44.023 设备发送:05 03 04 8D 00 21 15 4D
14:32:44.834 设备接收:05 03 42 09 3B 0E E0 00 00 00 00 00 00 00 00 00 00 00 00 00 00 00 00 00 00 09 34 0E EC 00 00 00 00 00 00 00 00 00 00 00 00 00 00 00 00 00 00 09 4A 0E ED 00 00 00 00 00 00 00 00 00 00 00 00 00 00 00 00 00 00 2B 77
14:32:44.849 设备发送:05 03 06 84 00 04 05 2C
14:32:45.632 设备接收:05 03 08 00 00 49 B4 00 0D FC 9F AE 0F
14:32:45.652 设备发送:05 03 04 04 00 01 C5 7F
14:32:46.459 设备接收:05 03 02 00 02 C8 45
14:32:46.474 设备发送:06 03 04 84 00 04 04 A7
14:32:47.288 设备接收:06 03 08 13 8B 09 24 FF CC 09 25 B2 8C
14:32:47.303 设备发送:06 03 04 8D 00 21 15 7E
14:32:48.082 设备接收:06 03 42 09 34 0C EE 00 00 00 00 00 00 00 00 00 00 00 00 00 00 00 00 00 00 09 3B 0C EC 00 00 00 00 00 00 00 00 00 00 00 00 00 00 00 00 00 00 09 44 0D 00 00 00 00 00 00 00 00 00 00 00 00 00 00 00 00 00 00 00 B3 7F
14:32:48.098 设备发送:06 03 06 84 00 04 05 1F
14:32:48.923 设备接收:06 03 08 00 00 42 6F 00 0C EF A5 18 C0
14:32:48.939 设备发送:06 03 04 04 00 01 C5 4C
14:32:49.752 设备接收:06 03 02 00 02 8C 45
14:32:49.767 设备发送:07 03 04 84 00 04 05 76
14:32:50.550 设备接收:07 03 08 13 8B 0A 5B FF E7 0A 5B 53 51
14:32:50.565 设备发送:07 03 04 8D 00 21 14 AF
14:32:51.377 设备接收:07 03 42 09 39 0E 9E 00 00 00 00 00 00 00 00 00 00 00 00 00 00 00 00 00 00 09 3C 0E 96 00 00 00 00 00 00 00 00 00 00 00 00 00 00 00 00 00 00 09 45 0E AB 00 00 00 00 00 00 00 00 00 00 00 00 00 00 00 00 00 00 F2 3F
14:32:51.393 设备发送:07 03 06 84 00 04 04 CE
14:32:52.204 设备接收:07 03 08 00 00 47 46 00 0B 2F BB 20 66
14:32:52.220 设备发送:07 03 04 04 00 01 C4 9D
14:32:53.033 设备接收:07 03 02 00 02 B1 85
14:32:53.048 设备发送:08 03 04 84 00 04 05 89
14:32:53.841 设备接收:08 03 08 13 8B 07 84 FF F1 07 84 53 47
14:32:53.857 设备发送:08 03 04 8D 00 21 14 50
14:32:54.638 设备接收:08 03 42 09 36 0A A8 00 00 00 00 00 00 00 00 00 00 00 00 00 00 00 00 00 00 09 3B 0A B7 00 00 00 00 00 00 00 00 00 00 00 00 00 00 00 00 00 00 09 43 0A D7 00 00 00 00 00 00 00 00 00 00 00 00 00 00 00 00 00 00 B1 D4
14:32:54.654 设备发送:08 03 06 84 00 04 04 31
14:32:55.467 设备接收:08 03 08 00 00 36 24 00 0C A7 A3 34 90
14:32:55.483 设备发送:08 03 04 04 00 01 C4 62
14:32:56.296 设备接收:08 03 02 00 02 E5 84
14:32:56.312 设备发送:09 03 04 84 00 04 04 58
14:32:57.120 设备接收:09 03 08 13 8B 08 77 FF EE 08 77 27 22
14:32:57.135 设备发送:09 03 04 8D 00 21 15 81
14:32:57.945 设备接收:09 03 42 09 3E 0C 03 00 00 00 00 00 00 00 00 00 00 00 00 00 00 00 00 00 00 09 34 0B FA 00 00 00 00 00 00 00 00 00 00 00 00 00 00 00 00 00 00 09 47 0C 19 00 00 00 00 00 00 00 00 00 00 00 00 00 00 00 00 00 00 6D BF
14:32:57.960 设备发送:09 03 06 84 00 04 05 E0
14:32:58.768 设备接收:09 03 08 00 00 3C FA 00 0E 81 B0 62 B8
14:32:58.783 设备发送:09 03 04 04 00 01 C5 B3
14:32:59.592 设备接收:09 03 02 00 02 D8 44
14:32:59.608 设备发送:0A 03 04 84 00 04 04 6B
14:33:00.414 设备接收:0A 03 08 13 8B 08 13 FF EB 08 13 48 44
14:33:00.430 设备发送:0A 03 04 8D 00 21 15 B2
14:33:01.237 设备接收:0A 03 42 09 37 0B 72 00 00 00 00 00 00 00 00 00 00 00 00 00 00 00 00 00 00 09 3B 0B 7A 00 00 00 00 00 00 00 00 00 00 00 00 00 00 00 00 00 00 09 46 0B 9B 00 00 00 00 00 00 00 00 00 00 00 00 00 00 00 00 00 00 43 5B FF
14:33:01.253 设备发送:0A 03 06 84 00 04 05 D3
14:33:02.063 设备接收:0A 03 08 00 00 3A 0E 00 0D 5E 0C 75 CE
14:33:02.079 设备发送:0A 03 04 04 00 01 C5 80
14:33:02.859 设备接收:0A 03 02 00 02 9C 44
14:33:02.891 设备发送:0B 03 04 84 00 04 05 BA
14:33:03.698 设备接收:0B 03 08 13 8B 03 2F FF D4 03 33 2B 22
14:33:03.713 设备发送:0B 03 04 8D 00 21 14 63
14:33:04.493 设备接收:0B 03 42 09 50 04 7B 00 00 00 00 00 00 00 00 00 00 00 00 00 00 00 00 00 00 09 4A 04 82 00 00 00 00 00 00 00 00 00 00 00 00 00 00 00 00 00 00 09 4F 04 75 00 00 00 00 00 00 00 00 00 00 00 00 00 00 00 00 00 00 8D 2A FF FF FF
14:33:04.524 设备发送:0B 03 06 84 00 04 04 02
14:33:05.334 设备接收:0B 03 08 00 00 16 64 00 04 71 48 A2 96
14:33:05.350 设备发送:0B 03 04 04 00 01 C4 51
14:33:06.147 设备接收:0B 03 02 00 02 A1 84
14:33:06.162 设备发送:0C 03 04 84 00 04 04 0D
14:33:06.969 设备接收:0C 03 08 13 8B 02 78 FF DC 02 7E 05 2C
14:33:06.985 设备发送:0C 03 04 8D 00 21 15 D4
14:33:07.764 设备接收:0C 03 42 09 4D 03 7C 00 00 00 00 00 00 00 00 00 00 00 00 00 00 00 00 00 00 09 46 03 83 00 00 00 00 00 00 00 00 00 00 00 00 00 00 00 00 00 00 09 4D 03 7A 00 00 00 00 00 00 00 00 00 00 00 00 00 00 00 00 00 00 76 A4 FF FF FF FF
14:33:07.779 设备发送:0C 03 06 84 00 04 05 B5
14:33:08.618 设备接收:0C 03 08 00 00 11 AD 00 03 E6 CB FB 15
14:33:08.634 设备发送:0C 03 04 04 00 01 C5 E6
14:33:09.443 设备接收:0C 03 02 00 02 14 44
14:33:09.461 设备发送:01 03 04 84 00 04 05 10
14:33:10.243 设备接收:01 03 08 13 8B 06 27 FF DF 06 27 99 F3
14:33:10.259 设备发送:01 03 04 8D 00 21 14 C9
14:33:11.072 设备接收:01 03 42 09 3B 08 BC 00 00 00 00 00 00 00 00 00 00 00 00 00 00 00 00 00 00 09 3A 08 C0 00 00 00 00 00 00 00 00 00 00 00 00 00 00 00 00 00 00 09 43 08 D5 00 00 00 00 00 00 00 00 00 00 00 00 00 00 00 00 00 00 1A 64
14:33:11.088 设备发送:01 03 06 84 00 04 04 A8
14:33:11.869 设备接收:01 03 08 00 00 26 9C 00 04 13 1B 4E 37
14:33:11.916 设备发送:01 03 04 04 00 01 C4 FB
14:33:12.698 设备接收:01 03 02 00 02 39 85
14:33:12.713 设备发送:02 03 04 84 00 04 05 23
14:33:13.539 设备接收:02 03 08 13 8B 11 90 00 18 11 91 6E 25
14:33:13.554 设备发送:02 03 04 8D 00 21 14 FA
14:33:14.356 设备接收:02 03 42 09 48 18 B4 00 00 00 00 00 00 00 00 00 00 00 00 00 00 00 00 00 00 09 3E 18 AE 00 00 00 00 00 00 00 00 00 00 00 00 00 00 00 00 00 00 09 4C 18 A8 00 00 00 00 00 00 00 00 00 00 00 00 00 00 00 00 00 00 BC 05
14:33:14.366 设备发送:02 03 06 84 00 04 04 9B
14:33:15.166 设备接收:02 03 08 00 00 6D 3F 00 0B EC 74 BB 0E
14:33:15.182 设备发送:02 03 04 04 00 01 C4 C8
14:33:15.995 设备接收:02 03 02 00 02 7D 85
14:33:16.017 设备发送:03 03 04 84 00 04 04 F2
14:33:16.811 设备接收:03 03 08 13 8B 16 BA FF CB 16 BA F1 6A
14:33:16.825 设备发送:03 03 04 8D 00 21 15 2B
14:33:17.637 设备接收:03 03 42 09 53 1F B9 00 00 00 00 00 00 00 00 00 00 00 00 00 00 00 00 00 00 09 4E 1F C0 00 00 00 00 00 00 00 00 00 00 00 00 00 00 00 00 00 00 09 61 1F CC 00 00 00 00 00 00 00 00 00 00 00 00 00 00 00 00 00 00 24 58
14:33:17.653 设备发送:03 03 06 84 00 04 05 4A
14:33:18.416 设备接收:03 03 08 00 00 96 48 00 0F AB 5B 6D 9F
14:33:18.480 设备发送:03 03 04 04 00 01 C5 19
14:33:19.291 设备接收:03 03 02 00 02 40 45
14:33:19.307 设备发送:04 03 04 84 00 04 05 45
14:33:20.086 设备接收:04 03 08 13 8B 0A 1A FF BF 0A 1B E0 39
14:33:20.102 设备发送:04 03 04 8D 00 21 14 9C
14:33:20.896 设备接收:04 03 42 09 38 0E 5C 00 00 00 00 00 00 00 00 00 00 00 00 00 00 00 00 00 00 09 42 0E 39 00 00 00 00 00 00 00 00 00 00 00 00 00 00 00 00 00 00 09 46 0E 76 00 00 00 00 00 00 00 00 00 00 00 00 00 00 00 00 00 00 85 06
14:33:20.929 设备发送:04 03 06 84 00 04 04 FD
14:33:21.707 设备接收:04 03 08 00 00 47 7C 00 09 9B EE E1 D8
14:33:21.757 设备发送:04 03 04 04 00 01 C4 AE
14:33:21.84000

