16:59:04.15100
16:59:04.15400
16:59:04.15700
16:59:04.18000
16:59:04.676 设备发送:0C 03 04 04 00 01 C5 E6
16:59:05.483 设备发送:0C 03 04 04 00 01 C5 E6
16:59:06.319 设备发送:01 03 04 84 00 04 05 10
16:59:07.132 设备接收:01 03 08 13 8B 00 00 FF DA 00 26 7F F3
16:59:07.148 设备发送:01 03 06 84 00 04 04 A8
16:59:07.960 设备接收:01 03 08 00 00 1E B3 00 03 F0 F0 27 F7
16:59:07.974 设备发送:01 03 04 04 00 01 C4 FB
16:59:08.786 设备接收:01 03 02 00 02 39 85
16:59:08.802 设备发送:02 03 04 84 00 04 05 23
16:59:09.614 设备发送:02 03 04 84 00 04 05 23
16:59:10.422 设备发送:02 03 04 84 00 04 05 23
16:59:11.264 设备发送:02 03 06 84 00 04 04 9B
16:59:12.071 设备发送:02 03 06 84 00 04 04 9B
16:59:12.884 设备发送:02 03 06 84 00 04 04 9B
16:59:13.710 设备发送:02 03 04 04 00 01 C4 C8
16:59:14.534 设备发送:02 03 04 04 00 01 C4 C8
16:59:15.345 设备发送:02 03 04 04 00 01 C4 C8
16:59:16.178 设备发送:03 03 04 84 00 04 04 F2
16:59:17.005 设备发送:03 03 04 84 00 04 04 F2
16:59:17.818 设备发送:03 03 04 84 00 04 04 F2
16:59:18.627 设备发送:03 03 06 84 00 04 05 4A
16:59:19.470 设备发送:03 03 06 84 00 04 05 4A
16:59:20.282 设备发送:03 03 06 84 00 04 05 4A
16:59:21.096 设备发送:03 03 04 04 00 01 C5 19
16:59:21.909 设备发送:03 03 04 04 00 01 C5 19
16:59:22.731 设备发送:03 03 04 04 00 01 C5 19
16:59:23.543 设备发送:05 03 04 84 00 04 04 94
16:59:24.355 设备发送:05 03 04 84 00 04 04 94
16:59:25.182 设备发送:05 03 04 84 00 04 04 94
16:59:26.008 设备发送:05 03 06 84 00 04 05 2C
16:59:26.818 设备发送:05 03 06 84 00 04 05 2C
16:59:27.631 设备发送:05 03 06 84 00 04 05 2C
16:59:28.459 设备发送:05 03 04 04 00 01 C5 7F
16:59:29.299 设备发送:05 03 04 04 00 01 C5 7F
16:59:30.110 设备发送:05 03 04 04 00 01 C5 7F
16:59:30.951 设备发送:0C 03 04 84 00 04 04 0D
16:59:31.762 设备发送:0C 03 04 84 00 04 04 0D
16:59:32.575 设备发送:0C 03 04 84 00 04 04 0D
16:59:33.396 设备发送:0C 03 06 84 00 04 05 B5
16:59:34.206 设备发送:0C 03 06 84 00 04 05 B5
16:59:35.021 设备发送:0C 03 06 84 00 04 05 B5
16:59:35.832 设备发送:0C 03 04 04 00 01 C5 E6
16:59:36.655 设备发送:0C 03 04 04 00 01 C5 E6
16:59:37.485 设备发送:0C 03 04 04 00 01 C5 E6
16:59:38.294 设备发送:01 03 04 84 00 04 05 10
16:59:39.103 设备接收:01 03 08 13 8B 00 00 FF F1 00 0F CE 25
16:59:39.134 设备发送:01 03 06 84 00 04 04 A8
16:59:39.945 设备接收:01 03 08 00 00 1E B3 00 03 F0 F0 27 F7
16:59:39.961 设备发送:01 03 04 04 00 01 C4 FB
16:59:40.741 设备接收:01 03 02 00 02 39 85
16:59:40.774 设备发送:02 03 04 84 00 04 05 23
16:59:41.613 设备发送:02 03 04 84 00 04 05 23
16:59:42.425 设备发送:02 03 04 84 00 04 05 23
16:59:43.236 设备发送:02 03 06 84 00 04 04 9B
16:59:44.048 设备发送:02 03 06 84 00 04 04 9B
16:59:44.869 设备发送:02 03 06 84 00 04 04 9B

