10:42:14.05500
10:42:14.05700
10:42:14.05900
10:42:14.06100
10:42:14.08400
10:42:14.755 设备发送:01 03 04 84 00 04 05 10
10:42:15.567 设备接收:01 03 08 13 8A 06 AF FF D3 06 B0 E8 81
10:42:15.583 设备发送:01 03 06 84 00 04 04 A8
10:42:16.363 设备接收:01 03 08 00 00 09 00 00 03 F2 8E A0 4A
10:42:16.379 设备发送:01 03 04 04 00 01 C4 FB
10:42:17.205 设备发送:01 03 04 04 00 01 C4 FB
10:42:18.020 设备接收:01 03 02 00 02 39 85
10:42:18.036 设备发送:02 03 04 84 00 04 05 23
10:42:18.848 设备发送:02 03 04 84 00 04 05 23
10:42:19.672 设备发送:02 03 04 84 00 04 05 23
10:42:20.483 设备发送:02 03 06 84 00 04 04 9B
10:42:21.308 设备发送:02 03 06 84 00 04 04 9B
10:42:22.119 设备发送:02 03 06 84 00 04 04 9B
10:42:22.963 设备发送:02 03 04 04 00 01 C4 C8
10:42:23.788 设备发送:02 03 04 04 00 01 C4 C8
10:42:24.597 设备发送:02 03 04 04 00 01 C4 C8
10:42:25.408 设备发送:03 03 04 84 00 04 04 F2
10:42:26.216 设备接收:03 03 08 13 8B 19 21 FF 66 19 23 C0 32
10:42:26.232 设备发送:03 03 06 84 00 04 05 4A
10:42:27.043 设备接收:03 03 08 00 00 26 92 00 0F 2A 5C 0F EE
10:42:27.059 设备发送:03 03 04 04 00 01 C5 19
10:42:27.871 设备接收:03 03 02 00 02 40 45
10:42:27.887 设备发送:05 03 04 84 00 04 04 94
10:42:28.697 设备发送:05 03 04 84 00 04 04 94
10:42:29.509 设备发送:05 03 04 84 00 04 04 94
10:42:30.319 设备接收:05 03 08 13 8C 06 08 FF D6 06 08 BE 1B
10:42:30.334 设备发送:05 03 06 84 00 04 05 2C
10:42:31.146 设备发送:05 03 06 84 00 04 05 2C
10:42:31.973 设备发送:05 03 06 84 00 04 05 2C
10:42:32.783 设备发送:05 03 04 04 00 01 C5 7F
10:42:33.593 设备发送:05 03 04 04 00 01 C5 7F
10:42:34.426 设备发送:05 03 04 04 00 01 C5 7F
10:42:35.256 设备发送:0C 03 04 84 00 04 04 0D
10:42:36.069 设备发送:0C 03 04 84 00 04 04 0D
10:42:36.880 设备发送:0C 03 04 84 00 04 04 0D
10:42:37.707 设备发送:0C 03 06 84 00 04 05 B5
10:42:38.532 设备发送:0C 03 06 84 00 04 05 B5
10:42:39.342 设备发送:0C 03 06 84 00 04 05 B5
10:42:40.173 设备发送:0C 03 04 04 00 01 C5 E6
10:42:40.987 设备发送:0C 03 04 04 00 01 C5 E6
10:42:41.813 设备发送:0C 03 04 04 00 01 C5 E6
10:42:42.629 设备发送:01 03 04 84 00 04 05 10
10:42:43.439 设备接收:01 03 08 13 8B 06 C5 00 04 06 C5 A1 83
10:42:43.471 设备发送:01 03 06 84 00 04 04 A8
10:42:44.278 设备发送:01 03 06 84 00 04 04 A8
10:42:45.086 设备发送:01 03 06 84 00 04 04 A8
10:42:45.899 设备接收:01 03 08 00 00 09 0E 00 03 F2 8F 08 4B
10:42:45.915 设备发送:01 03 04 04 00 01 C4 FB
10:42:46.744 设备发送:01 03 04 04 00 01 C4 FB
10:42:47.556 设备发送:01 03 04 04 00 01 C4 FB
10:42:48.366 设备接收:01 03 02 06 02 39 85
10:42:48.382 设备发送:02 03 04 84 00 04 05 23
10:42:49.193 设备发送:02 03 04 84 00 04 05 23
10:42:50.008 设备发送:02 03 04 84 00 04 05 23
10:42:50.821 设备发送:02 03 06 84 00 04 04 9B
10:42:51.662 设备发送:02 03 06 84 00 04 04 9B
10:42:52.473 设备发送:02 03 06 84 00 04 04 9B
10:42:53.298 设备发送:02 03 04 04 00 01 C4 C8
10:42:54.110 设备发送:02 03 04 04 00 01 C4 C8
10:42:54.938 设备发送:02 03 04 04 00 01 C4 C8
10:42:55.751 设备发送:03 03 04 84 00 04 04 F2
10:42:56.530 设备接收:03 03 08 13 8C 19 46 FF C8 19 46 22 F0
10:42:56.577 设备发送:03 03 06 84 00 04 05 4A
10:42:57.388 设备接收:03 03 08 00 00 26 C9 00 0F 2A 61 AB F2
10:42:57.404 设备发送:03 03 04 04 00 01 C5 19
10:42:58.213 设备接收:03 03 02 00 02 40 45
10:42:58.229 设备发送:05 03 04 84 00 04 04 94
10:42:59.040 设备发送:05 03 04 84 00 04 04 94
10:42:59.837 设备发送:05 03 04 84 00 04 04 94
10:43:00.661 设备发送:05 03 06 84 00 04 05 2C
10:43:01.507 设备发送:05 03 06 84 00 04 05 2C
10:43:02.303 设备发送:05 03 06 84 00 04 05 2C

