
09:54:40.123 设备接收:0C 03 06 00 00 00 00 00 00 79 E5
09:54:40.150 设备发送:0C 03 04 2B 00 01 F4 2F
09:54:43.136 设备接收:0C 03 02 01 83 D5 B4
09:54:43.152 设备发送:0C 03 04 20 00 01 85 ED
09:54:46.153 设备接收:0C 03 02 00 21 55 9D
09:54:46.169 设备发送:0C 03 04 05 00 01 94 26
09:54:49.182 设备接收:0C 03 02 00 00 95 85
09:54:49.197 设备发送:01 03 04 84 00 04 05 10
09:54:52.195 设备接收:01 03 08 13 85 04 26 00 07 04 26 3A 9E
09:54:52.226 设备发送:01 03 04 8D 00 05 14 D2
09:54:55.205 设备接收:01 03 0A 09 29 05 F6 00 00 00 00 00 00 51 38
09:54:55.221 设备发送:01 03 04 98 00 05 05 16
09:54:58.217 设备接收:01 03 0A 09 27 06 05 00 00 00 00 00 00 9E 42
09:54:58.279 设备发送:01 03 04 A3 00 05 74 DB
09:55:01.254 设备接收:01 03 0A 09 2D 06 14 00 00 00 00 00 00 E1 E3
09:55:01.270 设备发送:01 03 06 84 00 04 04 A8
09:55:04.278 设备接收:01 03 08 00 00 03 3D 00 04 62 94 91 2F
09:55:04.294 设备发送:01 03 04 04 00 01 C4 FB
09:55:07.308 设备接收:01 03 02 00 02 39 85
09:55:07.323 设备发送:01 03 05 84 00 0F 45 2B
09:55:10.316 设备接收:01 03 1E 03 98 00 00 00 00 03 99 00 00 00 00 1B 57 04 24 02 E6 03 94 00 05 00 00 03 90 00 05 00 00 99 20
09:55:10.332 设备发送:01 03 05 93 00 0F F5 2F
09:55:13.331 设备接收:01 03 1E 1E 6F 02 0B 01 97 03 83 00 00 00 00 03 8D 00 03 00 00 03 8C 00 07 00 00 03 8D 00 00 00 00 DB AF
09:55:13.347 设备发送:01 03 05 A2 00 0F A4 E0
09:55:16.358 设备接收:01 03 1E 00 02 00 00 00 00 00 02 00 00 00 00 00 00 00 00 00 00 00 00 00 00 00 00 00 00 00 00 00 00 C1 C0
09:55:16.374 设备发送:01 03 05 B1 00 03 55 20
09:55:19.368 设备接收:01 03 06 00 00 00 00 00 00 21 75
09:55:19.383 设备发送:01 03 04 2B 00 01 F5 32
09:55:22.404 设备接收:01 03 02 02 E7 F9 6E
09:55:22.420 设备发送:01 03 04 20 00 01 84 F0
09:55:25.422 设备接收:01 03 02 00 2D 78 59
09:55:25.438 设备发送:01 03 04 05 00 01 95 3B
09:55:28.426 设备接收:01 03 02 00 00 B8 44
09:55:28.441 设备发送:02 03 04 84 00 04 05 23
09:55:31.466 设备接收:02 03 08 13 86 0A 9E 00 14 0A 9E 52 38
09:55:31.497 设备发送:02 03 04 8D 00 05 14 E1
09:55:34.471 设备接收:02 03 0A 09 2F 0F 18 00 00 00 00 00 00 F1 2A
09:55:34.502 设备发送:02 03 04 98 00 05 05 25
09:55:37.479 设备接收:02 03 0A 09 2C 0F 27 00 00 00 00 00 00 2A D9
09:55:37.494 设备发送:02 03 04 A3 00 05 74 E8
09:55:40.501 设备接收:02 03 0A 09 34 0F 2F 00 00 00 00 00 00 09 19
09:55:40.532 设备发送:02 03 06 84 00 04 04 9B
09:55:43.545 设备接收:02 03 08 00 00 08 77 00 0C CE D2 7B EE
09:55:43.561 设备发送:02 03 04 04 00 01 C4 C8
09:55:46.553 设备接收:02 03 02 00 02 7D 85
09:55:46.568 设备发送:02 03 05 84 00 0F 45 18
09:55:49.588 设备接收:02 03 1E 1E 12 02 E3 02 39 1E 1E 02 1B 01 9F 04 A0 00 00 00 00 04 A1 00 00 00 00 1E 2B 03 FF 03 16 C4 F4
09:55:49.619 设备发送:02 03 05 93 00 0F F5 1C
09:55:52.597 设备接收:02 03 1E 1E 10 04 03 03 16 1F B6 01 83 01 3A 04 9F 00 02 00 00 04 A1 00 00 00 00 04 9F 00 03 00 00 64 D3
09:55:52.613 设备发送:02 03 05 A2 00 0F A4 D3
09:55:55.611 设备接收:02 03 1E 00 00 00 00 00 00 00 01 00 06 00 00 00 00 00 00 00 00 00 00 00 00 00 00 00 00 00 00 00 00 C7 40
09:55:55.641 设备发送:02 03 05 B1 00 03 55 13
09:55:58.648 设备接收:02 03 06 00 00 00 00 00 00 35 85
09:55:58.664 设备发送:02 03 04 2B 00 01 F5 01
09:56:01.655 设备接收:02 03 02 02 D3 BC B9
09:56:01.671 设备发送:02 03 04 20 00 01 84 C3
09:56:04.680 设备接收:02 03 02 00 2F BD 98
09:56:04.727 设备发送:02 03 04 05 00 01 95 08
09:56:07.723 设备接收:02 03 02 00 00 FC 44
09:56:07.739 设备发送:03 03 04 84 00 04 04 F2
09:56:10.733 设备接收:03 03 08 13 87 0F C8 FF DA 0F C8 DC D8
09:56:10.764 设备发送:03 03 04 8D 00 05 15 30
09:56:13.749 设备接收:03 03 0A 09 35 16 50 00 00 00 00 00 00 49 A9
09:56:13.780 设备发送:03 03 04 98 00 05 04 F4
09:56:16.767 设备接收:03 03 0A 09 34 16 5D 00 00 00 00 00 00 98 F9
09:56:16.782 设备发送:03 03 04 A3 00 05 75 39
09:56:19.807 设备接收:03 03 0A 09 41 16 6D 00 00 00 00 00 00 F2 68
09:56:19.823 设备发送:03 03 06 84 00 04 05 4A
09:56:22.800 设备接收:03 03 08 00 00 0F 8A 00 10 EB 6E C9 96
09:56:22.831 设备发送:03 03 04 04 00 01 C5 19
09:56:25.808 设备接收:03 03 02 00 02 40 45
09:56:25.840 设备发送:03 03 05 84 00 0F 44 C9
09:56:28.848 设备接收:03 03 1E 1C C2 04 11 02 FE 1C CD 04 1D 03 08 1C E7 04 0F 03 01 1C D2 04 18 03 05 1C A6 04 40 03 1E F8 E4
09:56:28.863 设备发送:03 03 05 93 00 0F F4 CD
09:56:31.869 设备接收:03 03 1E 17 6D 02 2C 01 4D 04 72 00 04 00 00 04 79 00 00 00 00 04 6B 00 03 00 00 04 75 00 04 00 00 AB D7
09:56:31.884 设备发送:03 03 05 A2 00 0F A5 02
09:56:34.922 设备接收:03 03 1E 00 0E 00 01 00 00 00 06 00 03 00 00 00 00 00 00 00 00 00 00 00 00 00 00 00 00 00 00 00 00 E7 4B
09:56:34.938 设备发送:03 03 05 B1 00 03 54 C2
09:56:37.909 设备接收:03 03 06 00 00 00 00 00 00 38 15
09:56:37.924 设备发送:03 03 04 2B 00 01 F4 D0
09:56:40.932 设备接收:03 03 02 02 C3 80 B5
09:56:40.947 设备发送:03 03 04 20 00 01 85 12
09:56:43.970 设备接收:03 03 02 00 23 80 5D
09:56:43.986 设备发送:03 03 04 05 00 01 94 D9
09:56:46.984 设备接收:03 03 02 00 00 C1 84
09:56:47.015 设备发送:04 03 04 84 00 04 05 45
09:56:50.004 设备接收:04 03 08 13 85 07 34 FF D3 07 34 63 B3
09:56:50.020 设备发送:04 03 04 8D 00 05 14 87
09:56:53.027 设备接收:04 03 0A 09 23 0A 5B 00 00 00 00 00 00 1F 17
09:56:53.058 设备发送:04 03 04 98 00 05 05 43
09:56:56.056 设备发送:04 03 04 A3 00 05 74 8E
09:56:56.072 设备接收:04 03 0A 09 2D 0A 3B 00 00 00 00 00 00 33 71
09:56:59.077 设备接收:04 03 0A 09 32 0A 7A 00 00 00 00 00 00 EE 45
09:56:59.093 设备发送:04 03 06 84 00 04 04 FD
09:57:02.070 设备接收:04 03 08 00 00 07 03 00 0A 35 76 77 18
09:57:02.086 设备发送:04 03 04 04 00 01 C4 AE
09:57:05.114 设备接收:04 03 02 00 02 F5 85
09:57:05.129 设备发送:04 03 05 84 00 0F 45 7E
09:57:08.112 设备接收:04 03 1E 20 AB 01 94 01 51 20 82 00 DB 00 B6 20 57 00 D1 00 AD 1E 89 01 79 01 26 1E E1 01 9A 01 44 3D 9F
09:57:08.144 设备发送:04 03 05 93 00 0F F5 7A
09:57:11.138 设备接收:04 03 1E 1F 0D 01 A6 01 4F 1E 3F 00 D5 00 A4 1F 81 00 DD 00 B2 05 89 00 00 00 00 05 93 00 09 00 01 B2 BF
09:57:11.154 设备发送:04 03 05 A2 00 0F A4 B5
09:57:14.156 设备接收:04 03 1E 00 00 00 00 00 00 00 05 00 02 00 00 00 00 00 00 00 00 00 00 00 00 00 00 00 00 00 00 00 00 D8 36
09:57:14.172 设备发送:04 03 05 B1 00 03 55 75
09:57:17.203 设备接收:04 03 06 00 00 00 00 00 00 1E 25
09:57:17.218 设备发送:04 03 04 2B 00 01 F5 67
09:57:20.214 设备接收:04 03 02 02 57 34 DA
09:57:20.230 设备发送:04 03 04 20 00 01 84 A5
09:57:23.227 设备接收:04 03 02 00 21 B4 5C
09:57:23.258 设备发送:04 03 04 05 00 01 95 6E
09:57:26.268 设备接收:04 03 02 00 00 74 44
09:57:26.315 设备发送:05 03 04 84 00 04 04 94
09:57:29.261 设备接收:05 03 08 13 8A 07 78 FF F2 07 78 D8 7E
09:57:29.292 设备发送:05 03 04 8D 00 05 15 56
09:57:32.274 设备接收:05 03 0A 09 2A 0A A1 00 00 00 00 00 00 2D C9
09:57:32.306 设备发送:05 03 04 98 00 05 04 92
09:57:35.285 设备接收:05 03 0A 09 21 0A B4 00 00 00 00 00 00 1A 38
09:57:35.331 设备发送:05 03 04 A3 00 05 75 5F
09:57:38.337 设备接收:05 03 0A 09 32 0A D9 00 00 00 00 00 00 7F CE
09:57:38.353 设备发送:05 03 06 84 00 04 05 2C
09:57:41.364 设备接收:05 03 08 00 00 07 64 00 0E 9C 1D 38 52
09:57:41.380 设备发送:05 03 04 04 00 01 C5 7F
09:57:44.374 设备接收:05 03 02 00 02 C8 45
09:57:44.406 设备发送:05 03 05 84 00 0F 44 AF
09:57:47.382 设备接收:05 03 1E 1E E5 01 8A 01 37 1D D7 01 78 01 1F 1F 2E 00 CD 00 A3 1E E3 01 A5 01 4D 1F 19 00 CA 00 A0 D5 60
09:57:47.398 设备发送:05 03 05 93 00 0F F4 AB
09:57:50.412 设备接收:05 03 1E 1F 2C 00 D4 00 A9 1E D6 00 D2 00 A5 1E 80 00 DE 00 AD 1F 17 00 D0 00 A6 1F 19 00 D8 00 AB 06 9F
09:57:50.443 设备发送:05 03 05 A2 00 0F A5 64
09:57:53.422 设备接收:05 03 1E 00 00 00 00 00 00 00 00 00 02 00 00 00 00 00 00 00 00 00 00 00 00 00 00 00 00 00 00 00 00 4A 99
09:57:53.438 设备发送:05 03 05 B1 00 03 54 A4
09:57:56.461 设备接收:05 03 06 00 00 00 00 00 00 13 B5
09:57:56.476 设备发送:05 03 04 2B 00 01 F4 B6
09:57:59.457 设备接收:05 03 02 01 F9 88 56
09:57:59.472 设备发送:05 03 04 20 00 01 85 74
09:58:02.500 设备接收:05 03 02 00 3B 08 57
09:58:02.516 设备发送:05 03 04 05 00 01 94 BF
09:58:05.522 设备接收:05 03 02 00 00 49 84
09:58:05.533 设备发送:06 03 04 84 00 04 04 A7
09:58:08.527 设备接收:06 03 08 13 8B 06 D2 00 11 06 D2 9E 3E
09:58:08.557 设备发送:06 03 04 8D 00 05 15 65
09:58:11.565 设备接收:06 03 0A 09 26 09 B8 00 00 00 00 00 00 B5 DE
09:58:11.597 设备发送:06 03 04 98 00 05 04 A1
09:58:14.560 设备接收:06 03 0A 09 31 09 B5 00 00 00 00 00 00 82 EE
09:58:14.575 设备发送:06 03 04 A3 00 05 75 6C
09:58:17.573 设备接收:06 03 0A 09 36 09 D0 00 00 00 00 00 00 91 D8
09:58:17.589 设备发送:06 03 06 84 00 04 05 1F
09:58:20.593 设备接收:06 03 08 00 00 06 B5 00 0D 7F C2 32 7D
09:58:20.640 设备发送:06 03 04 04 00 01 C5 4C
09:58:23.619 设备接收:06 03 02 00 02 8C 45
09:58:23.627 设备发送:06 03 05 84 00 0F 44 9C
09:58:26.652 设备接收:06 03 1E 1D C2 01 90 01 31 1D B6 01 96 01 35 1E C1 00 CF 00 A3 1F 5F 00 CA 00 A2 1F 67 00 C5 00 9E 8D 2A
09:58:26.671 设备发送:06 03 05 93 00 0F F4 98
09:58:29.665 设备接收:06 03 1E 1D EB 00 CC 00 9C 1E D1 00 D2 00 A6 1E 5B 00 D3 00 A4 1E F7 00 CD 00 A2 1F 75 00 C1 00 9B EC 6E
09:58:29.681 设备发送:06 03 05 A2 00 0F A5 57
09:58:32.678 设备接收:06 03 1E 00 00 00 00 00 00 00 00 00 07 00 00 00 00 00 00 00 00 00 00 00 00 00 00 00 00 00 00 00 00 AB CC
09:58:32.693 设备发送:06 03 05 B1 00 03 54 97
09:58:35.720 设备接收:06 03 06 00 00 00 00 00 00 07 45
09:58:35.736 设备发送:06 03 04 2B 00 01 F4 85
09:58:38.723 设备接收:06 03 02 01 E6 8D 9E
09:58:38.744 设备发送:06 03 04 20 00 01 85 47
09:58:41.755 设备接收:06 03 02 00 36 8D 92
09:58:41.764 设备发送:06 03 04 05 00 01 94 8C
09:58:44.783 设备接收:06 03 02 00 00 0D 84
09:58:44.800 设备发送:07 03 04 84 00 04 05 76
09:58:47.779 设备接收:07 03 08 13 8C 07 53 FF DA 07 53 51 D7
09:58:47.794 设备发送:07 03 04 8D 00 05 14 B4
09:58:50.802 设备接收:07 03 0A 09 2A 0A 7E 00 00 00 00 00 00 04 46
09:58:50.817 设备发送:07 03 04 98 00 05 05 70
09:58:53.837 设备接收:07 03 0A 09 2E 0A 71 00 00 00 00 00 00 C9 86
09:58:53.871 设备发送:07 03 04 A3 00 05 74 BD
09:58:56.843 设备接收:07 03 0A 09 30 0A 98 00 00 00 00 00 00 30 E8
09:58:56.874 设备发送:07 03 06 84 00 04 04 CE
09:58:59.862 设备接收:07 03 08 00 00 07 35 00 0B CC F2 A3 AB
09:58:59.877 设备发送:07 03 04 04 00 01 C4 9D
09:59:02.876 设备接收:07 03 02 00 02 B1 85
09:59:02.908 设备发送:07 03 05 84 00 0F 45 4D
09:59:05.896 设备接收:07 03 1E 1F 1D 01 9E 01 4A 1F 21 00 D2 00 A7 1E D3 00 D0 00 A4 1F 14 00 CF 00 A5 1F 63 00 C7 00 9F F8 CE
09:59:05.930 设备发送:07 03 05 93 00 0F F5 49
09:59:08.907 设备接收:07 03 1E 1F 12 00 D6 00 AA 1E BF 00 DD 00 AE 1D 67 01 9C 01 36 1B 4F 01 3B 00 DC 1B 86 01 15 00 C3 3F A1
09:59:08.922 设备发送:07 03 05 A2 00 0F A4 86
09:59:11.963 设备接收:07 03 1E 00 00 00 00 00 00 00 00 00 05 00 00 00 00 00 00 00 00 00 00 00 00 00 00 00 00 00 00 00 00 E5 EE
09:59:11.985 设备发送:07 03 05 B1 00 03 55 46
09:59:14.967 设备接收:07 03 06 00 00 00 00 00 00 0A D5
09:59:14.983 设备发送:07 03 04 2B 00 01 F5 54
09:59:17.979 设备接收:07 03 02 02 0C 31 21
09:59:17.994 设备发送:07 03 04 20 00 01 84 96
09:59:21.000 设备接收:07 03 02 00 3B 71 97
09:59:21.015 设备发送:07 03 04 05 00 01 95 5D
09:59:24.039 设备接收:07 03 02 00 00 30 44
09:59:24.055 设备发送:08 03 04 84 00 04 05 89
09:59:27.030 设备接收:08 03 08 13 8C 05 D2 FF E4 05 D3 3D 33
09:59:27.045 设备发送:08 03 04 8D 00 05 14 4B
09:59:30.066 设备接收:08 03 0A 09 28 08 5F 00 00 00 00 00 00 B9 F2
09:59:30.098 设备发送:08 03 04 98 00 05 05 8F
09:59:33.112 设备接收:08 03 0A 09 2A 08 64 00 00 00 00 00 00 2A 51
09:59:33.128 设备发送:08 03 04 A3 00 05 74 42
09:59:36.095 设备接收:08 03 0A 09 2F 08 9C 00 00 00 00 00 00 6C CE
09:59:36.141 设备发送:08 03 06 84 00 04 04 31
09:59:39.107 设备接收:08 03 08 00 00 05 D7 00 0D 22 4A C7 98
09:59:39.122 设备发送:08 03 04 04 00 01 C4 62
09:59:42.149 设备接收:08 03 02 00 02 E5 84
09:59:42.163 设备发送:08 03 05 84 00 0F 45 B2
09:59:45.166 设备接收:08 03 1E 21 0E 01 5E 01 28 21 12 01 4E 01 1A 1F FB 01 47 01 0B 05 0A 00 00 00 00 1F 43 01 54 01 10 18 EC
09:59:45.178 设备发送:08 03 05 93 00 0F F5 B6
09:59:48.197 设备接收:08 03 1E 1F 58 01 45 01 04 1E DC 01 44 01 00 05 01 00 00 00 00 05 01 00 00 00 00 05 03 00 00 00 00 5C 2E
09:59:48.214 设备发送:08 03 05 A2 00 0F A4 79
09:59:51.207 设备接收:08 03 1E 00 00 00 00 00 00 00 01 00 02 00 00 00 00 00 00 00 00 00 00 00 00 00 00 00 00 00 00 00 00 3A C7
09:59:51.257 设备发送:08 03 05 B1 00 03 55 B9
09:59:54.250 设备接收:08 03 06 00 00 00 00 00 00 4B 25
09:59:54.281 设备发送:08 03 04 2B 00 01 F5 AB
09:59:57.256 设备接收:08 03 02 02 90 65 49
09:59:57.287 设备发送:08 03 04 20 00 01 84 69
10:00:00.268 设备接收:08 03 02 00 2B 24 5A
10:00:00.284 设备发送:08 03 04 05 00 01 95 A2
10:00:03.304 设备接收:08 03 02 00 00 64 45
10:00:03.335 设备发送:09 03 04 84 00 04 04 58
10:00:06.330 设备接收:09 03 08 13 8B 06 B3 FF DD 06 B3 22 21
10:00:06.346 设备发送:09 03 04 8D 00 05 15 9A
10:00:09.324 设备接收:09 03 0A 09 29 09 95 00 00 00 00 00 00 1D 23
10:00:09.340 设备发送:09 03 04 98 00 05 04 5E
10:00:12.370 设备接收:09 03 0A 09 25 09 99 00 00 00 00 00 00 84 23
10:00:12.398 设备发送:09 03 04 A3 00 05 75 93
10:00:15.398 设备接收:09 03 0A 09 33 09 BD 00 00 00 00 00 00 06 41
10:00:15.421 设备发送:09 03 06 84 00 04 05 E0
10:00:18.403 设备接收:09 03 08 00 00 06 91 00 0F 0C 7F 36 EF
10:00:18.418 设备发送:09 03 04 04 00 01 C5 B3
10:00:21.414 设备接收:09 03 02 00 02 D8 44
10:00:21.429 设备发送:09 03 05 84 00 0F 44 63
10:00:24.449 设备接收:09 03 1E 1E F9 01 52 01 0C 1E B0 01 74 01 24 1E E6 01 52 01 0B 1F 6B 00 A1 00 81 1F 0E 01 46 01 03 87 94
10:00:24.464 设备发送:09 03 05 93 00 0F F4 67
10:00:27.491 设备接收:09 03 1E 1F 7B 01 4A 01 0A 1F 64 01 44 01 04 1E C3 00 A6 00 83 05 70 00 04 00 00 05 72 00 02 00 00 CB 93
10:00:27.507 设备发送:09 03 05 A2 00 0F A5 A8
10:00:30.506 设备接收:09 03 1E 00 07 00 00 00 00 00 05 00 02 00 00 00 00 00 00 00 00 00 00 00 00 00 00 00 00 00 00 00 00 25 F1
10:00:30.522 设备发送:09 03 05 B1 00 03 54 68
10:00:33.532 设备接收:09 03 06 00 00 00 00 00 00 46 B5
10:00:33.548 设备发送:09 03 04 2B 00 01 F4 7A
10:00:36.537 设备接收:09 03 02 02 62 D9 0C
10:00:36.576 设备发送:09 03 04 20 00 01 85 B8
10:00:39.566 设备接收:09 03 02 00 22 D9 9C
10:00:39.582 设备发送:09 03 04 05 00 01 94 73
10:00:42.605 设备接收:09 03 02 00 00 59 85
10:00:42.620 设备发送:0A 03 04 84 00 04 04 6B
10:00:45.600 设备接收:0A 03 08 13 8C 06 5B FF FB 06 5B DA 37
10:00:45.616 设备发送:0A 03 04 8D 00 05 15 A9
10:00:48.633 设备接收:0A 03 0A 09 24 09 18 00 00 00 00 00 00 1D 78
10:00:48.655 设备发送:0A 03 04 98 00 05 04 6D
10:00:51.661 设备接收:0A 03 0A 09 2C 09 0F 00 00 00 00 00 00 1D B9
10:00:51.677 设备发送:0A 03 04 A3 00 05 75 A0
10:00:54.657 设备接收:0A 03 0A 09 33 09 3D 00 00 00 00 00 00 82 4A
10:00:54.689 设备发送:0A 03 06 84 00 04 05 D3
10:00:57.693 设备接收:0A 03 08 00 00 06 60 00 0D E1 D4 E9 51
10:00:57.712 设备发送:0A 03 04 04 00 01 C5 80
10:01:00.705 设备接收:0A 03 02 00 02 9C 44
10:01:00.720 设备发送:0A 03 05 84 00 0F 44 50
10:01:03.735 设备接收:0A 03 1E 1F 65 01 68 01 21 1F AC 01 46 01 08 1F 56 01 4E 01 0C 1F 6B 01 4A 01 0A 1F 5C 01 60 01 1A C3 49
10:01:03.751 设备发送:0A 03 05 93 00 0F F4 54
10:01:06.733 设备接收:0A 03 1E 1F 25 01 5E 01 17 1F 3A 00 A5 00 83 05 23 00 00 00 00 05 34 00 00 00 00 05 34 00 00 00 00 1B 9A
10:01:06.748 设备发送:0A 03 05 A2 00 0F A5 9B
10:01:09.759 设备接收:0A 03 1E 00 0B 00 00 00 00 00 09 00 02 00 00 00 00 00 00 00 00 00 00 00 00 00 00 00 00 00 00 00 00 C4 AD
10:01:09.774 设备发送:0A 03 05 B1 00 03 54 5B
10:01:12.807 设备接收:0A 03 06 00 00 00 00 00 00 52 45
10:01:12.823 设备发送:0A 03 04 2B 00 01 F4 49
10:01:15.823 设备接收:0A 03 02 02 41 DC D5
10:01:15.852 设备发送:0A 03 04 20 00 01 85 8B
10:01:18.866 设备接收:0A 03 02 00 24 1D 9E
10:01:18.883 设备发送:0A 03 04 05 00 01 94 40
10:01:21.866 设备接收:0A 03 02 00 00 1D 85
10:01:21.881 设备发送:0B 03 04 84 00 04 05 BA
10:01:24.890 设备接收:0B 03 08 13 8B 02 83 FF D7 02 89 CA C8
10:01:24.921 设备发送:0B 03 04 8D 00 05 14 78
10:01:27.904 设备接收:0B 03 0A 09 3E 03 96 00 00 00 00 00 00 42 EE
10:01:27.955 设备发送:0B 03 04 98 00 05 05 BC
10:01:30.938 设备接收:0B 03 0A 09 33 03 9D 00 00 00 00 00 00 A0 BE
10:01:30.954 设备发送:0B 03 04 A3 00 05 74 71
10:01:33.962 设备接收:0B 03 0A 09 39 03 8D 00 00 00 00 00 00 CF DF
10:01:33.994 设备发送:0B 03 06 84 00 04 04 02
10:01:36.955 设备接收:0B 03 08 00 00 02 74 00 04 A4 63 7E CE
10:01:36.983 设备发送:0B 03 04 04 00 01 C4 51
10:01:40.002 设备接收:0B 03 02 00 02 A1 84
10:01:40.018 设备发送:0B 03 05 84 00 0F 45 81
10:01:43.027 设备接收:0B 03 1E 1F 76 01 49 01 09 1D 4A 00 D7 00 A1 1D DD 00 A9 00 81 1C EB 00 BE 00 8C 00 00 00 00 00 00 B5 7A
10:01:43.060 设备发送:0B 03 05 93 00 0F F5 85
10:01:46.021 设备接收:0B 03 1E 00 00 00 00 00 00 00 00 00 00 00 00 00 00 00 00 00 00 00 00 00 00 00 00 00 00 00 00 00 00 60 B9
10:01:46.039 设备发送:0B 03 05 A2 00 0F A4 4A
10:01:49.073 设备接收:0B 03 1E 00 00 00 00 00 00 00 00 00 00 00 00 00 00 00 00 00 00 00 00 00 00 00 00 00 00 00 00 00 00 60 B9
10:01:49.089 设备发送:0B 03 05 B1 00 03 55 8A
10:01:52.067 设备接收:0B 03 06 00 00 00 00 00 00 5F D5
10:01:52.082 设备发送:0B 03 04 2B 00 01 F5 98
10:01:55.086 设备接收:0B 03 02 01 88 21 B3
10:01:55.103 设备发送:0B 03 04 20 00 01 84 5A
10:01:58.141 设备接收:0B 03 02 00 16 A1 8B
10:01:58.166 设备发送:0B 03 04 05 00 01 95 91
10:02:01.128 设备接收:0B 03 02 00 00 20 45
10:02:01.221 设备发送:0C 03 04 84 00 04 04 0D
10:02:04.165 设备接收:0C 03 08 13 8A 01 F7 FF D4 02 02 C0 23
10:02:04.181 设备发送:0C 03 04 8D 00 05 15 CF
10:02:07.193 设备接收:0C 03 0A 09 3B 02 D7 00 00 00 00 00 00 E6 31
10:02:07.224 设备发送:0C 03 04 98 00 05 04 0B
10:02:10.226 设备接收:0C 03 0A 09 34 02 DB 00 00 00 00 00 00 6B C1
10:02:10.242 设备发送:0C 03 04 A3 00 05 75 C6
10:02:13.242 设备接收:0C 03 0A 09 3B 02 D4 00 00 00 00 00 00 D5 31
10:02:13.265 设备发送:0C 03 06 84 00 04 05 B5
10:02:16.271 设备接收:0C 03 08 00 00 01 FD 00 04 0F 24 86 54
10:02:16.286 设备发送:0C 03 04 04 00 01 C5 E6
10:02:19.267 设备接收:0C 03 02 00 02 14 44
10:02:19.282 设备发送:0C 03 05 84 00 0F 44 36
10:02:22.307 设备接收:0C 03 1E 1C F8 01 56 00 FD 1E C3 01 58 01 0F 06 E8 00 00 00 00 0D 8C 00 00 00 00 00 00 00 00 00 00 0C D3
10:02:22.322 设备发送:0C 03 05 93 00 0F F4 32
10:02:25.362 设备接收:0C 03 1E 00 00 00 00 00 00 00 00 00 00 00 00 00 00 00 00 00 00 00 00 00 00 00 00 00 00 00 00 00 00 65 78
10:02:25.378 设备发送:0C 03 05 A2 00 0F A5 FD
10:02:28.354 设备接收:0C 03 1E 00 00 00 00 00 00 00 00 00 00 00 00 00 00 00 00 00 00 00 00 00 00 00 00 00 00 00 00 00 00 65 78
10:02:28.400 设备发送:0C 03 05 B1 00 03 54 3D
10:02:31.399 设备接收:0C 03 06 00 00 00 00 00 00 79 E5
10:02:31.415 设备发送:0C 03 04 2B 00 01 F4 2F
10:02:34.411 设备接收:0C 03 02 01 83 D5 B4
10:02:34.447 设备发送:0C 03 04 20 00 01 85 ED
10:02:37.433 设备接收:0C 03 02 00 23 D4 5C
10:02:37.465 设备发送:0C 03 04 05 00 01 94 26
10:02:40.438 设备接收:0C 03 02 00 00 95 85
10:02:40.469 设备发送:01 03 04 84 00 04 05 10
10:02:43.462 设备接收:01 03 08 13 8A 04 6D 00 0B 04 6D E1 A4
10:02:43.478 设备发送:01 03 04 8D 00 05 14 D2
10:02:46.503 设备接收:01 03 0A 09 29 06 56 00 00 00 00 00 00 B1 27
10:02:46.534 设备发送:01 03 04 98 00 05 05 16
10:02:49.501 设备接收:01 03 0A 09 28 06 64 00 00 00 00 00 00 AF 74
10:02:49.532 设备发送:01 03 04 A3 00 05 74 DB
10:02:52.534 设备接收:01 03 0A 09 2F 06 78 00 00 00 00 00 00 54 85
10:02:52.564 设备发送:01 03 06 84 00 04 04 A8
10:02:55.553 设备接收:01 03 08 00 00 03 CC 00 04 62 A3 AD 2C
10:02:55.584 设备发送:01 03 04 04 00 01 C4 FB
10:02:58.586 设备接收:01 03 02 00 02 39 85
10:02:58.602 设备发送:01 03 05 84 00 0F 45 2B
10:03:01.588 设备接收:01 03 1E 03 94 00 00 00 00 03 95 00 00 00 00 1B 2E 04 6B 03 13 03 8F 00 00 00 00 03 8A 00 01 00 00 2A 43
10:03:01.604 设备发送:01 03 05 93 00 0F F5 2F
10:03:04.601 设备接收:01 03 1E 1D F9 02 39 01 B5 03 7E 00 00 00 00 03 88 00 00 00 00 03 87 00 01 00 00 03 88 00 00 00 00 A7 D7
10:03:04.632 设备发送:01 03 05 A2 00 0F A4 E0
10:03:07.638 设备接收:01 03 1E 00 01 00 00 00 00 00 01 00 00 00 00 00 00 00 00 00 00 00 00 00 00 00 00 00 00 00 00 00 00 D5 27
10:03:07.654 设备发送:01 03 05 B1 00 03 55 20
10:03:10.666 设备接收:01 03 06 00 00 00 00 00 00 21 75
10:03:10.682 设备发送:01 03 04 2B 00 01 F5 32
10:03:13.662 设备接收:01 03 02 02 E7 F9 6E
10:03:13.693 设备发送:01 03 04 20 00 01 84 F0
10:03:16.704 设备接收:01 03 02 00 2F F9 98
10:03:16.720 设备发送:01 03 04 05 00 01 95 3B
10:03:19.705 设备接收:01 03 02 00 00 B8 44
10:03:19.737 设备发送:02 03 04 84 00 04 05 23
10:03:22.724 设备接收:02 03 08 13 89 0B A8 FF BC 0B A9 95 5F
10:03:22.740 设备发送:02 03 04 8D 00 05 14 E1
10:03:25.759 设备接收:02 03 0A 09 34 10 8C 00 00 00 00 00 00 DB 5F
10:03:25.790 设备发送:02 03 04 98 00 05 05 25
10:03:28.772 设备接收:02 03 0A 09 2E 10 94 00 00 00 00 00 00 F0 3E
10:03:28.787 设备发送:02 03 04 A3 00 05 74 E8
10:03:31.797 设备接收:02 03 0A 09 39 10 95 00 00 00 00 00 00 0B 0E
10:03:31.813 设备发送:02 03 06 84 00 04 04 9B
10:03:34.822 设备接收:02 03 08 00 00 09 EA 00 0C CE F7 56 38
10:03:34.837 设备发送:02 03 04 04 00 01 C4 C8
10:03:37.838 设备接收:02 03 02 00 02 7D 85
10:03:37.853 设备发送:02 03 05 84 00 0F 45 18
10:03:40.843 设备接收:02 03 1E 1E 1B 02 FE 02 4E 1E 27 02 3E 01 BB 04 79 00 00 00 00 04 7A 00 00 00 00 1E 33 04 3F 03 49 94 9F
10:03:40.859 设备发送:02 03 05 93 00 0F F5 1C
10:03:43.886 设备接收:02 03 1E 1E 12 04 48 03 4C 1E 4E 02 14 01 9D 04 78 00 02 00 00 04 79 00 00 00 00 04 77 00 00 00 00 A0 51
10:03:43.902 设备发送:02 03 05 A2 00 0F A4 D3
10:03:46.881 设备接收:02 03 1E 00 00 00 00 00 00 00 01 00 05 00 00 00 00 00 00 00 00 00 00 00 00 00 00 00 00 00 00 00 00 F4 73
10:03:46.910 设备发送:02 03 05 B1 00 03 55 13
10:03:49.918 设备接收:02 03 06 00 00 00 00 00 00 35 85
10:03:49.933 设备发送:02 03 04 2B 00 01 F5 01
10:03:52.934 设备接收:02 03 02 02 D3 BC B9
10:03:52.949 设备发送:02 03 04 20 00 01 84 C3
10:03:55.945 设备接收:02 03 02 00 20 FD 9C
10:03:55.974 设备发送:02 03 04 05 00 01 95 08
10:03:58.968 设备接收:02 03 02 00 00 FC 44
10:03:58.984 设备发送:03 03 04 84 00 04 04 F2
10:04:02.009 设备接收:03 03 08 13 89 10 D3 FF 98 10 D4 FC 98
10:04:02.040 设备发送:03 03 04 8D 00 05 15 30
10:04:05.036 设备接收:03 03 0A 09 3A 17 BA 00 00 00 00 00 00 82 5B
10:04:05.057 设备发送:03 03 04 98 00 05 04 F4
10:04:08.018 设备接收:03 03 0A 09 37 17 D2 00 00 00 00 00 00 33 0D
10:04:08.033 设备发送:03 03 04 A3 00 05 75 39
10:04:11.047 设备接收:03 03 0A 09 45 17 E2 00 00 00 00 00 00 7F AC
10:04:11.063 设备发送:03 03 06 84 00 04 05 4A
10:04:14.078 设备接收:03 03 08 00 00 11 A6 00 10 EB A4 DB B9
10:04:14.096 设备发送:03 03 04 04 00 01 C5 19
10:04:17.099 设备接收:03 03 02 00 02 40 45
10:04:17.115 设备发送:03 03 05 84 00 0F 44 C9
10:04:20.126 设备接收:03 03 1E 1C 98 04 62 03 35 1C CA 04 64 03 3C 1C BC 04 57 03 31 1C CC 04 5D 03 37 1C 7C 04 91 03 55 8E CC
10:04:20.204 设备发送:03 03 05 93 00 0F F4 CD
10:04:23.138 设备接收:03 03 1E 17 70 02 55 01 66 04 6E 00 00 00 00 04 75 00 00 00 00 04 67 00 01 00 00 04 73 00 06 00 00 7C DC
10:04:23.153 设备发送:03 03 05 A2 00 0F A5 02
10:04:26.175 设备接收:03 03 1E 00 0D 00 01 00 00 00 06 00 03 00 00 00 00 00 00 00 00 00 00 00 00 00 00 00 00 00 00 00 00 A7 49
10:04:26.192 设备发送:03 03 05 B1 00 03 54 C2
10:04:29.162 设备接收:03 03 06 00 00 00 00 00 00 38 15
10:04:29.178 设备发送:03 03 04 2B 00 01 F4 D0
10:04:32.187 设备接收:03 03 02 02 C3 80 B5
10:04:32.218 设备发送:03 03 04 20 00 01 85 12
10:04:35.224 设备接收:03 03 02 00 33 81 91
10:04:35.240 设备发送:03 03 04 05 00 01 94 D9
10:04:38.216 设备接收:03 03 02 00 00 C1 84
10:04:38.248 设备发送:04 03 04 84 00 04 05 45
10:04:41.256 设备接收:04 03 08 13 8B 07 C6 FF EA 07 C6 E4 2E
10:04:41.272 设备发送:04 03 04 8D 00 05 14 87
10:04:44.266 设备接收:04 03 0A 09 29 0B 30 00 00 00 00 00 00 7A BD
10:04:44.281 设备发送:04 03 04 98 00 05 05 43
10:04:47.285 设备接收:04 03 0A 09 31 0B 0E 00 00 00 00 00 00 0F 7E
10:04:47.316 设备发送:04 03 04 A3 00 05 74 8E
10:04:50.321 设备接收:04 03 0A 09 34 0B 4D 00 00 00 00 00 00 42 EA
10:04:50.336 设备发送:04 03 06 84 00 04 04 FD
10:04:53.318 设备接收:04 03 08 00 00 07 FC 00 0A 35 8F A3 4E
10:04:53.333 设备发送:04 03 04 04 00 01 C4 AE
10:04:56.331 设备接收:04 03 02 00 02 F5 85
10:04:56.362 设备发送:04 03 05 84 00 0F 45 7E
10:04:59.390 设备接收:04 03 1E 1F FA 01 B9 01 69 20 8B 00 F3 00 CA 1F 5D 00 E3 00 B6 1E 85 01 94 01 3B 1F 30 01 B1 01 5A 29 0E
10:04:59.405 设备发送:04 03 05 93 00 0F F5 7A
10:05:02.412 设备接收:04 03 1E 1E BE 01 CD 01 6B 1E DE 00 DB 00 AD 1F 81 00 E8 00 BB 05 7C 00 00 00 00 05 83 00 09 00 01 F2 67
10:05:02.451 设备发送:04 03 05 A2 00 0F A4 B5
10:05:05.425 设备接收:04 03 1E 00 00 00 00 00 00 00 05 00 02 00 00 00 00 00 00 00 00 00 00 00 00 00 00 00 00 00 00 00 00 D8 36
10:05:05.455 设备发送:04 03 05 B1 00 03 55 75
10:05:08.469 设备接收:04 03 06 00 00 00 00 00 00 1E 25
10:05:08.484 设备发送:04 03 04 2B 00 01 F5 67
10:05:11.450 设备接收:04 03 02 02 57 34 DA
10:05:11.481 设备发送:04 03 04 20 00 01 84 A5
10:05:14.490 设备接收:04 03 02 00 2F 35 98
10:05:14.504 设备发送:04 03 04 05 00 01 95 6E
10:05:17.503 设备接收:04 03 02 00 00 74 44
10:05:17.517 设备发送:05 03 04 84 00 04 04 94
10:05:20.529 设备接收:05 03 08 13 8B 08 1C 00 11 08 1C 7C 70
10:05:20.545 设备发送:05 03 04 8D 00 05 15 56
10:05:23.550 设备接收:05 03 0A 09 2C 0B 7A 00 00 00 00 00 00 AC A8
10:05:23.563 设备发送:05 03 04 98 00 05 04 92
10:05:26.559 设备接收:05 03 0A 09 2C 0B 82 00 00 00 00 00 00 D5 67
10:05:26.573 设备发送:05 03 04 A3 00 05 75 5F
10:05:29.578 设备接收:05 03 0A 09 3B 0B 91 00 00 00 00 00 00 1C 56
10:05:29.609 设备发送:05 03 06 84 00 04 05 2C
10:05:32.595 设备接收:05 03 08 00 00 08 69 00 0E 9C 37 94 B3
10:05:32.672 设备发送:05 03 04 04 00 01 C5 7F
10:05:35.601 设备接收:05 03 02 00 02 C8 45
10:05:35.617 设备发送:05 03 05 84 00 0F 44 AF
10:05:38.653 设备接收:05 03 1E 1F 0D 01 B1 01 58 1E 26 01 99 01 3C 1F 2C 00 E2 00 B5 1E E2 01 CC 01 6C 1F 1B 00 DE 00 B0 EB BC
10:05:38.667 设备发送:05 03 05 93 00 0F F4 AB
10:05:41.650 设备接收:05 03 1E 1F 24 00 E7 00 B8 1E D0 00 E1 00 B2 1E 7A 00 F0 00 BB 1F 12 00 E2 00 B3 1F 16 00 E9 00 BA FC 02
10:05:41.681 设备发送:05 03 05 A2 00 0F A5 64
10:05:44.688 设备接收:05 03 1E 00 00 00 00 00 00 00 00 00 02 00 00 00 00 00 00 00 00 00 00 00 00 00 00 00 00 00 00 00 00 4A 99
10:05:44.703 设备发送:05 03 05 B1 00 03 54 A4
10:05:47.715 设备接收:05 03 06 00 00 00 00 00 00 13 B5
10:05:47.730 设备发送:05 03 04 2B 00 01 F4 B6
10:05:50.711 设备接收:05 03 02 01 F9 88 56
10:05:50.726 设备发送:05 03 04 20 00 01 85 74
10:05:53.736 设备接收:05 03 02 00 3E C8 54
10:05:53.767 设备发送:05 03 04 05 00 01 94 BF
10:05:56.734 设备接收:05 03 02 00 00 49 84
10:05:56.766 设备发送:06 03 04 84 00 04 04 A7
10:05:59.783 设备接收:06 03 08 13 89 07 79 00 0F 07 79 B9 DE
10:05:59.817 设备发送:06 03 04 8D 00 05 15 65
10:06:02.816 设备接收:06 03 0A 09 25 0A A1 00 00 00 00 00 00 69 FA
10:06:02.894 设备发送:06 03 04 98 00 05 04 A1
10:06:05.831 设备接收:06 03 0A 09 34 0A A2 00 00 00 00 00 00 9A AA
10:06:05.851 设备发送:06 03 04 A3 00 05 75 6C
10:06:08.856 设备接收:06 03 0A 09 38 0A B1 00 00 00 00 00 00 ED 6B
10:06:08.871 设备发送:06 03 06 84 00 04 05 1F
10:06:11.858 设备接收:06 03 08 00 00 07 A4 00 0D 7F DA CF A5
10:06:11.876 设备发送:06 03 04 04 00 01 C5 4C
10:06:14.893 设备接收:06 03 02 00 02 8C 45
10:06:14.909 设备发送:06 03 05 84 00 0F 44 9C
10:06:17.882 设备接收:06 03 1E 1F 2E 01 A6 01 51 1E F5 01 A3 01 4C 1F 19 00 DA 00 AD 1F 12 00 DB 00 AE 1F 19 00 DD 00 B0 11 59
10:06:17.898 设备发送:06 03 05 93 00 0F F4 98
10:06:20.912 设备接收:06 03 1E 1E 3D 00 D8 00 A7 1E D4 00 E1 00 B1 1F 4D 00 E5 00 B7 1F 4A 00 DD 00 B1 1F 25 00 D8 00 AC 50 B8
10:06:20.928 设备发送:06 03 05 A2 00 0F A5 57
10:06:23.958 设备接收:06 03 1E 00 00 00 00 00 00 00 00 00 07 00 00 00 00 00 00 00 00 00 00 00 00 00 00 00 00 00 00 00 00 AB CC
10:06:23.986 设备发送:06 03 05 B1 00 03 54 97
10:06:26.979 设备接收:06 03 06 00 00 00 00 00 00 07 45
10:06:27.055 设备发送:06 03 04 2B 00 01 F4 85
10:06:29.995 设备接收:06 03 02 01 E6 8D 9E
10:06:30.030 设备发送:06 03 04 20 00 01 85 47
10:06:33.006 设备接收:06 03 02 00 37 4C 52
10:06:33.022 设备发送:06 03 04 05 00 01 94 8C
10:06:36.018 设备接收:06 03 02 00 00 0D 84
10:06:36.034 设备发送:07 03 04 84 00 04 05 76
10:06:39.048 设备发送:07 03 04 8D 00 05 14 B4
10:06:39.063 设备接收:07 03 08 13 89 07 FC FF EF 07 FC 80 BD
10:06:42.063 设备接收:07 03 0A 09 2C 0B 67 00 00 00 00 00 00 66 EB
10:06:42.094 设备发送:07 03 04 98 00 05 05 70
10:06:45.075 设备接收:07 03 0A 09 2B 0B 58 00 00 00 00 00 00 8F D8
10:06:45.093 设备发送:07 03 04 A3 00 05 74 BD
10:06:48.090 设备接收:07 03 0A 09 32 0B 77 00 00 00 00 00 00 F6 8A
10:06:48.120 设备发送:07 03 06 84 00 04 04 CE
10:06:51.135 设备接收:07 03 08 00 00 08 35 00 0B CD 0C 23 44
10:06:51.152 设备发送:07 03 04 04 00 01 C4 9D
10:06:54.128 设备接收:07 03 02 00 02 B1 85
10:06:54.174 设备发送:07 03 05 84 00 0F 45 4D
10:06:57.177 设备接收:07 03 1E 1F 47 01 BB 01 63 1F 20 00 E2 00 B4 1E DA 00 E0 00 B1 1E 7E 00 E4 00 B2 1F 61 00 D7 00 AC E9 A1
10:06:57.192 设备发送:07 03 05 93 00 0F F5 49
10:07:00.204 设备接收:07 03 1E 1F 0D 00 E6 00 B7 1F 62 00 EC 00 BE 1D 66 01 BD 01 4F 1B 4D 01 54 00 EE 1B D7 01 2D 00 D6 6A D7
10:07:00.219 设备发送:07 03 05 A2 00 0F A4 86
10:07:03.214 设备接收:07 03 1E 00 00 00 00 00 00 00 00 00 05 00 00 00 00 00 00 00 00 00 00 00 00 00 00 00 00 00 00 00 00 E5 EE
10:07:03.228 设备发送:07 03 05 B1 00 03 55 46
10:07:06.240 设备接收:07 03 06 00 00 00 00 00 00 0A D5
10:07:06.271 设备发送:07 03 04 2B 00 01 F5 54
10:07:09.264 设备接收:07 03 02 02 0C 31 21
10:07:09.279 设备发送:07 03 04 20 00 01 84 96
10:07:12.258 设备接收:07 03 02 00 38 31 96
10:07:12.290 设备发送:07 03 04 05 00 01 95 5D
10:07:15.309 设备接收:07 03 02 00 00 30 44
10:07:15.325 设备发送:08 03 04 84 00 04 05 89
10:07:18.322 设备接收:08 03 08 13 8B 06 43 FF FA 06 43 D6 87
10:07:18.338 设备发送:08 03 04 8D 00 05 14 4B
10:07:21.334 设备接收:08 03 0A 09 26 08 EF 00 00 00 00 00 00 44 59
10:07:21.350 设备发送:08 03 04 98 00 05 05 8F
10:07:24.344 设备接收:08 03 0A 09 2A 09 0D 00 00 00 00 00 00 12 9B
10:07:24.359 设备发送:08 03 04 A3 00 05 74 42
10:07:27.397 设备接收:08 03 0A 09 30 09 2F 00 00 00 00 00 00 A3 F9
10:07:27.412 设备发送:08 03 06 84 00 04 04 31
10:07:30.387 设备接收:08 03 08 00 00 06 A3 00 0D 22 5E 77 AF
10:07:30.402 设备发送:08 03 04 04 00 01 C4 62
10:07:33.414 设备接收:08 03 02 00 02 E5 84
10:07:33.430 设备发送:08 03 05 84 00 0F 45 B2
10:07:36.443 设备接收:08 03 1E 20 41 01 7C 01 3A 21 12 01 65 01 2E 20 9B 01 57 01 1E 05 06 00 00 00 00 1E 9E 01 73 01 23 91 84
10:07:36.457 设备发送:08 03 05 93 00 0F F5 B6
10:07:39.455 设备接收:08 03 1E 1F 5A 01 5C 01 17 1F 30 01 59 01 13 04 FE 00 00 00 00 04 FE 00 00 00 00 04 FF 00 00 00 00 B7 23
10:07:39.470 设备发送:08 03 05 A2 00 0F A4 79
10:07:42.499 设备接收:08 03 1E 00 00 00 00 00 00 00 01 00 02 00 00 00 00 00 00 00 00 00 00 00 00 00 00 00 00 00 00 00 00 3A C7
10:07:42.513 设备发送:08 03 05 B1 00 03 55 B9
10:07:45.492 设备接收:08 03 06 00 00 00 00 00 00 4B 25
10:07:45.523 设备发送:08 03 04 2B 00 01 F5 AB
10:07:48.538 设备接收:08 03 02 02 90 65 49
10:07:48.568 设备发送:08 03 04 20 00 01 84 69
10:07:51.544 设备接收:08 03 02 00 34 65 92
10:07:51.560 设备发送:08 03 04 05 00 01 95 A2
10:07:54.562 设备接收:08 03 02 00 00 64 45
10:07:54.578 设备发送:09 03 04 84 00 04 04 58
10:07:57.569 设备接收:09 03 08 13 8A 07 36 00 0E 07 36 FF 30
10:07:57.584 设备发送:09 03 04 8D 00 05 15 9A
10:08:00.602 设备接收:09 03 0A 09 2A 0A 3A 00 00 00 00 00 00 16 CC
10:08:00.617 设备发送:09 03 04 98 00 05 04 5E
10:08:03.615 设备接收:09 03 0A 09 28 0A 49 00 00 00 00 00 00 4D 6B
10:08:03.631 设备发送:09 03 04 A3 00 05 75 93
10:08:06.645 设备接收:09 03 0A 09 37 0A 70 00 00 00 00 00 00 68 58
10:08:06.661 设备发送:09 03 06 84 00 04 05 E0
10:08:09.653 设备接收:09 03 08 00 00 07 7B 00 0F 0C 96 EF 67
10:08:09.668 设备发送:09 03 04 04 00 01 C5 B3
10:08:12.666 设备接收:09 03 02 00 02 D8 44
10:08:12.695 设备发送:09 03 05 84 00 0F 44 63
10:08:15.721 设备接收:09 03 1E 1E 5A 01 71 01 1E 1E B1 01 8E 01 39 1E 45 01 70 01 1D 1F 1C 00 AD 00 89 1F 13 01 60 01 18 93 3C
10:08:15.752 设备发送:09 03 05 93 00 0F F4 67
10:08:18.733 设备接收:09 03 1E 1F 25 01 64 01 1C 1F 61 01 5A 01 16 1E C0 00 B4 00 8E 05 6F 00 04 00 00 05 70 00 02 00 00 33 7E
10:08:18.764 设备发送:09 03 05 A2 00 0F A5 A8
10:08:21.753 设备接收:09 03 1E 00 07 00 00 00 00 00 04 00 01 00 00 00 00 00 00 00 00 00 00 00 00 00 00 00 00 00 00 00 00 DB 5E
10:08:21.787 设备发送:09 03 05 B1 00 03 54 68
10:08:24.794 设备接收:09 03 06 00 00 00 00 00 00 46 B5
10:08:24.810 设备发送:09 03 04 2B 00 01 F4 7A
10:08:27.801 设备发送:09 03 04 20 00 01 85 B8
10:08:27.831 设备接收:09 03 02 02 62 D9 0C
10:08:30.837 设备接收:09 03 02 00 30 59 91
10:08:30.853 设备发送:09 03 04 05 00 01 94 73
10:08:33.848 设备接收:09 03 02 00 00 59 85
10:08:33.865 设备发送:0A 03 04 84 00 04 04 6B
10:08:36.859 设备接收:0A 03 08 13 8B 06 CA FF F7 06 CA 50 85
10:08:36.875 设备发送:0A 03 04 8D 00 05 15 A9
10:08:39.886 设备接收:0A 03 0A 09 29 09 C8 00 00 00 00 00 00 94 25
10:08:39.902 设备发送:0A 03 04 98 00 05 04 6D
10:08:42.916 设备接收:0A 03 0A 09 31 09 B7 00 00 00 00 00 00 B0 E2
10:08:42.931 设备发送:0A 03 04 A3 00 05 75 A0
10:08:45.918 设备接收:0A 03 0A 09 35 09 E6 00 00 00 00 00 00 C2 E7
10:08:45.948 设备发送:0A 03 06 84 00 04 05 D3
10:08:48.959 设备接收:0A 03 08 00 00 07 3E 00 0D E1 EA C0 9D
10:08:48.975 设备发送:0A 03 04 04 00 01 C5 80
10:08:51.961 设备接收:0A 03 02 00 02 9C 44
10:08:51.976 设备发送:0A 03 05 84 00 0F 44 50
10:08:54.991 设备接收:0A 03 1E 1F 14 01 86 01 36 1F 0D 01 6C 01 21 1F 06 01 6A 01 1F 1F 6E 01 6D 01 25 1F 0E 01 7E 01 30 13 E3
10:08:55.023 设备发送:0A 03 05 93 00 0F F4 54
10:08:58.019 设备接收:0A 03 1E 1F 71 01 6B 01 24 1F 2E 00 B0 00 8D 05 23 00 00 00 00 05 34 00 01 00 00 05 31 00 00 00 00 09 BE
10:08:58.037 设备发送:0A 03 05 A2 00 0F A5 9B
10:09:01.031 设备接收:0A 03 1E 00 0A 00 00 00 00 00 09 00 02 00 00 00 00 00 00 00 00 00 00 00 00 00 00 00 00 00 00 00 00 04 AC
10:09:01.047 设备发送:0A 03 05 B1 00 03 54 5B
10:09:04.043 设备接收:0A 03 06 00 00 00 00 00 00 52 45
10:09:04.059 设备发送:0A 03 04 2B 00 01 F4 49
10:09:07.058 设备接收:0A 03 02 02 41 DC D5
10:09:07.074 设备发送:0A 03 04 20 00 01 85 8B
10:09:10.090 设备接收:0A 03 02 00 32 9C 50
10:09:10.111 设备发送:0A 03 04 05 00 01 94 40
10:09:13.096 设备接收:0A 03 02 00 00 1D 85
10:09:13.117 设备发送:0B 03 04 84 00 04 05 BA
10:09:16.147 设备接收:0B 03 08 13 8A 02 B2 FF D6 02 B8 37 D8
10:09:16.168 设备发送:0B 03 04 8D 00 05 14 78
10:09:19.134 设备接收:0B 03 0A 09 3E 03 D3 00 00 00 00 00 00 56 2A
10:09:19.155 设备发送:0B 03 04 98 00 05 05 BC

