
09:24:25.864 设备接收:FF FF FF FF FF FF FF FF FF FF FF FF FF FF FF FF FF FF FF FF FF FF FF FF FF FF FF FF FF FF FF FF FF FF FF FF FF FF FF FF FF FF FF FF FF FF FF FF FF FF FF FF FF FF FF FF FF FF FF FF FF FF FF FF FF FF FF FF FF FF FF FF FF FF FF FF FF FF FF FF FF FF FF FF FF FF FF FF FF FF FF FF FF FF FF FF FF FF FF FF FF FF FF FF FF FF FF FF FF FF FF FF FF FF FF FF FF FF FF FF FF FF FF FF FF FF FF FF FF FF FF FF FF FF FF FF FF FF FF FF FF FF FF FF FF FF FF FF FF FF
09:24:25.873 设备发送:07 03 04 8D 00 21 14 AF
09:24:26.661 设备接收:FF FF FF FF FF FF FF FF FF FF FF FF FF FF FF FF FF FF FF FF FF FF FF FF FF FF FF FF FF FF FF FF FF FF FF FF FF FF FF FF FF FF FF FF FF FF FF FF FF FF FF FF FF FF FF FF FF FF FF FF FF FF FF FF FF FF FF FF FF FF FF FF FF FF FF FF FF FF FF FF FF FF FF FF FF FF FF FF FF FF FF FF FF FF FF FF FF FF FF FF FF FF FF FF FF FF FF FF FF FF FF FF FF FF FF FF FF FF FF FF FF FF FF FF FF FF FF FF FF FF FF FF FF FF FF FF FF FF FF FF FF FF FF FF FF FF FF FF FF FF
09:24:26.704 设备发送:07 03 06 84 00 04 04 CE
09:24:27.511 设备接收:FF FF FF FF FF FF FF FF FF FF FF FF FF FF FF FF FF FF FF FF FF FF FF FF FF FF FF FF FF FF FF FF FF FF FF FF FF FF FF FF FF FF FF FF FF FF FF FF FF FF FF FF FF FF FF FF FF FF FF FF FF FF FF FF FF FF FF FF FF FF FF FF FF FF FF FF FF FF FF FF FF FF FF FF FF FF FF FF FF FF FF FF FF FF FF FF FF FF FF FF FF FF FF FF FF FF FF FF FF FF FF FF FF FF FF FF FF FF FF FF FF FF FF FF FF FF FF FF FF FF FF FF FF FF FF FF FF FF FF FF FF FF FF FF FF FF FF FF FF FF
09:24:27.526 设备发送:07 03 04 04 00 01 C4 9D
09:24:28.336 设备接收:FF FF FF FF FF FF FF FF FF FF FF FF FF FF FF FF FF FF FF FF FF FF FF FF FF FF FF FF FF FF FF FF FF FF FF FF FF FF FF FF FF FF FF FF FF FF FF FF FF FF FF FF FF FF FF FF FF FF FF FF FF FF FF FF FF FF FF FF FF FF FF FF FF FF FF FF FF FF FF FF FF FF FF FF FF FF FF FF FF FF FF FF FF FF FF FF FF FF FF FF FF FF FF FF FF FF FF FF FF FF FF FF FF FF FF FF FF FF FF FF FF FF FF FF FF FF FF FF FF FF FF FF FF FF FF FF FF FF FF FF FF FF FF FF FF FF FF FF FF FF
09:24:28.352 设备发送:08 03 04 84 00 04 05 89
09:24:29.132 设备接收:FF FF FF FF FF FF FF FF FF FF FF FF FF FF FF FF FF FF FF FF FF FF FF FF FF FF FF FF FF FF FF FF FF FF FF FF FF FF FF FF FF FF FF FF FF FF FF FF FF FF FF FF FF FF FF FF FF FF FF FF FF FF FF FF FF FF FF FF FF FF FF FF FF FF FF FF FF FF FF FF FF FF FF FF FF FF FF FF FF FF FF FF FF FF FF FF 06 03 08 00 00 04 05 00 0C E2 C1 0B 14 FF FF FF FF FF FF FF FF FF FF FF FF FF FF FF FF FF FF FF FF FF FF FF FF FF FF FF FF FF FF FF FF FF FF FF FF FF FF FF FF FF
09:24:29.147 设备发送:08 03 04 8D 00 21 14 50
09:24:29.959 设备接收:FF FF FF FF FF FF FF FF FF FF FF FF FF FF FF FF FF FF FF FF FF FF FF FF FF FF FF FF FF FF FF FF FF FF FF FF FF FF FF FF FF FF FF FF FF FF FF FF FF FF FF FF FF FF FF FF FF FF FF FF FF FF FF FF FF FF FF FF FF FF FF FF FF FF FF FF FF FF FF FF FF FF FF FF FF FF FF FF FF FF FF FF FF FF FF FF FF FF FF FF FF FF FF FF FF FF FF FF FF FF FF FF 1F 38 D9 96 FD FF FF FF FF FF FF FF FF FF FF FF FF FF FF FF FF FF FF FF FF FF FF FF FF FF FF FF FF FF FF FF FF FF
09:24:29.989 设备发送:08 03 06 84 00 04 04 31
09:24:30.776 设备接收:FF FF FF FF FF FF FF FF FF FF FF FF FF FF FF FF FF FF FF FF FF FF FF FF FF FF FF FF FF FF FF FF FF FF FF FF FF FF FF FF FF FF FF FF FF FF FF FF FF FF FF FF FF FF FF FF FF FF FF FF FF FF FF FF FF FF FF FF FF FF FF FF FF FF FF FF FF FF FF FF FF FF FF FF FF FF FF FF FF FF FF FF FF FF FF FF FF FF FF FF FF FF FF FF FF FF FF FF FF FF FF FF FF FF FF FF FF FF FF FF FF FF FF FF FF FF FF FF FF FF FF FF FF FF FF FF FF FF FF FF FF FF FF FF FF FF FF FF FF FF
09:24:30.798 设备发送:08 03 04 04 00 01 C4 62
09:24:31.609 设备接收:FF FF FF FF FF FF FF FF FF FF FF FF FF FF FF FF FF FF FF FF FF FF FF FF FF FF FF FF FF FF FF FF FF FF FF FF FF FF FF FF FF FF FF FF FF FF FF FF FF FF FF FF FF FF FF FF FF FF FF FF FF FF FF FF FF FF FF FF FF FF FF FF FF FF FF FF FF FF FF FF FF FF FF FF FF FF FF FF FF FF FF FF FF FF FF FF FF FF FF FF FF FF FF FF FF FF FF FF FF FF FF FF FF FF FF FF FF FF FF FF FF FF FF 07 03 42 09 27 08 37 00 00 00 00 00 00 00 00 00 00 00 00 00 00 00 00 00 00 09 2D
09:24:31.625 设备发送:09 03 04 84 00 04 04 58
09:24:32.409 设备接收:08 2E 00 00 00 00 00 00 00 00 00 00 00 00 00 00 00 00 00 00 09 32 08 4C 00 00 00 00 00 00 00 00 00 00 00 00 00 00 00 00 00 00 0B 99 FF FF FF FF FF FF FF FF FF FF FF FF FF FF FF FF FF FF FF FF FF FF FF FF FF FF FF FF FF FF FF FF FF FF FF FF FF FF FF FF FF FF FF FF FF FF FF FF FF FF FF FF FF FF FF FF FF FF FF FF FF FF FF FF FF FF FF FF FF FF FF FF FF FF FF FF FF FF FF FF FF FF FF FF FF FF FF FF FF FF FF FF FF FF FF FF FF FF FF FF FF FF FF FF FF FF
09:24:32.424 设备发送:09 03 04 8D 00 21 15 81
09:24:33.249 设备接收:FF FF FF FF FF FF FF FF FF FF FF FF FF FF FF FF FF FF FF FF FF FF FF FF FF FF FF FF FF FF FF FF FF FF FF FF FF FF FF FF FF FF FF FF FF FF FF FF FF FF FF FF FF FF FF FF FF FF FF FF FF FF FF FF FF FF FF FF FF FF FF FF FF FF FF FF FF FF FF FF FF FF FF FF FF FF FF FF FF FF FF FF FF FF FF FF FF FF FF FF FF FF FF FF FF FF FF FF FF FF FF FF FF FF FF FF FF FF FF FF FF FF FF FF FF FF FF FF FF FF FF FF FF FF FF FF FF FF FF FF FF FF FF FF FF FF FF FF FF FF
09:24:33.265 设备发送:09 03 06 84 00 04 05 E0
09:24:34.075 设备接收:FF FF FF FF FF FF FF FF FF FF FF FF FF FF FF FF FF FF FF FF FF FF FF FF FF FF FF FF FF FF FF FF FF FF FF FF FF FF FF FF FF FF FF FF FF FF FF FF FF FF FF FF FF FF FF FF FF FF FF FF FF FF FF FF FF FF FF FF FF FF FF FF FF FF FF FF FF FF FF FF FF FF FF FF FF FF FF FF FF FF FF FF FF FF FF FF FF FF FF FF FF FF FF FF FF FF FF FF FF FF FF FF FF FF FF FF FF FF FF FF FF FF FF FF FF FF FF FF FF FF FF FF FF FF FF FF FF FF FF FF FF FF FF FF FF FF FF FF FF FF
09:24:34.091 设备发送:09 03 04 04 00 01 C5 B3
09:24:34.875 设备接收:FF FF FF FF FF FF FF FF FF FF FF FF FF FF FF FF FF FF FF FF FF FF FF FF FF FF FF FF FF FF FF FF FF FF FF FF FF FF FF FF FF FF FF FF FF FF FF FF FF FF FF FF FF FF FF FF FF FF FF FF FF FF FF FF FF FF FF FF FF FF FF FF FF FF FF FF FF FF FF FF FF FF FF FF FF FF FF FF FF FF FF FF FF FF FF FF FF FF FF FF FF FF FF FF FF FF FF FF FF FF FF FF FF FF FF FF FF FF FF FF FF FF FF FF FF FF FF FF FF FF FF FF FF FF FF FF FF FF FF FF FF FF FF FF FF FF FF FF FF FF
09:24:34.890 设备发送:0A 03 04 84 00 04 04 6B
09:24:35.702 设备接收:FF FF FF FF FF FF FF FF FF FF FF FF FF FF FF FF FF FF FF FF FF FF FF FF FF FF FF FF FF FF FF FF FF FF FF FF FF FF FF FF FF FF FF FF FF FF FF FF FF FF FF FF FF FF FF FF FF FF FF FF FF FF FF FF FF FF FF FF FF FF FF FF FF FF FF FF FF FF FF FF FF FF FF FF FF FF FF FF FF FF FF FF FF FF FF FF FF FF FF FF FF FF FF FF FF FF FF FF FF FF FF FF FF FF FF FF FF FF FF FF FF FF FF FF FF FF FF FF FF FF FF FF FF FF FF FF FF FF FF FF FF FF FF FF FF FF FF FF FF FF
09:24:35.717 设备发送:0A 03 04 8D 00 21 15 B2
09:24:36.532 设备接收:FF FF FF FF FF FF FF FF FF FF FF FF FF FF FF FF FF FF FF FF FF FF FF FF FF FF FF FF FF FF FF FF FF FF FF FF FF FF FF FF FF FF FF FF FF FF FF FF FF FF FF FF FF FF FF FF FF FF FF FF FF FF FF FF FF FF FF FF FF FF FF FF FF FF FF FF FF FF FF FF FF FF FF FF FF FF FF FF FF FF FF FF FF FF FF FF FF FF FF FF FF FF FF FF FF FF FF FF FF FF FF FF FF FF FF FF FF FF FF FF FF FF FF FF FF FF FF FF FF FF FF FF FF FF FF FF FF FF FF FF FF FF FF FF FF FF FF FF FF FF
09:24:36.548 设备发送:0A 03 06 84 00 04 05 D3
09:24:37.357 设备接收:FF FF FF FF FF FF FF FF FF FF FF FF FF FF FF FF FF FF FF FF FF FF FF FF FF FF FF FF FF FF FF FF FF FF FF FF FF FF FF FF FF FF FF FF FF FF FF FF FF FF FF FF FF FF FF FF FF FF FF FF FF FF FF FF FF FF FF FF FF FF FF FF FF FF FF FF FF FF FF FF FF FF FF FF FF FF FF FF FF FF FF FF FF FF FF FF FF FF FF FF FF FF FF FF FF FF FF FF FF FF FF FF FF FF FF FF FF FF FF FF FF FF FF FF FF FF FF FF FF FF FF FF FF FF FF FF FF FF FF FF FF FF FF FF FF FF FF FF FF FF
09:24:37.372 设备发送:0A 03 04 04 00 01 C5 80
09:24:38.185 设备接收:FF FF FF FF FF FF FF FF FF FF FF FF FF FF FF FF FF FF FF FF FF FF FF FF FF FF FF FF FF FF FF FF FF FF FF FF FF FF FF FF FF FF FF FF FF FF FF FF FF FF FF FF FF FF FF FF FF FF FF FF FF FF FF FF FF FF FF FF FF FF FF FF FF FF FF FF FF FF FF FF FF FF FF FF FF FF FF FF FF FF FF FF FF FF FF FF FF FF FF FF FF FF FF FF FF FF FF FF FF FF FF FF FF FF FF FF FF FF FF FF FF FF FF FF FF FF FF FF FF FF FF FF FF FF FF FF FF FF FF FF FF FF FF FF FF FF FF FF FF FF
09:24:38.200 设备发送:0B 03 04 84 00 04 05 BA
09:24:38.982 设备接收:FF FF FF FF FF FF FF FF FF FF FF FF FF FF FF FF FF FF FF FF FF FF FF FF FF FF FF FF FF FF FF FF FF FF FF FF FF FF FF FF FF FF FF FF FF FF FF FF FF FF FF FF FF FF FF FF FF FF FF FF FF FF FF FF FF FF FF FF FF FF FF FF FF FF FF FF FF FF FF FF FF FF FF FF FF FF FF FF FF FF FF FF FF FF FF FF FF FF FF FF FF FF FF FF FF FF FF FF FF FF FF FF FF FF FF FF FF FF FF FF FF FF FF FF FF FF FF FF FF FF FF FF FF FF FF FF FF FF FF FF FF FF FF FF FF FF FF FF FF FF
09:24:38.998 设备发送:0B 03 04 8D 00 21 14 63
09:24:39.807 设备接收:FF FF FF FF FF FF FF FF FF FF FF FF FF FF FF FF FF FF FF FF FF FF FF FF FF FF FF FF FF FF FF FF FF FF FF FF FF FF FF FF FF FF FF FF FF FF FF FF FF FF FF FF FF FF FF FF FF FF FF FF FF FF FF FF FF FF FF FF FF FF FF FF FF FF FF FF FF FF FF FF FF FF FF FF FF FF FF FF FF FF FF FF FF FF FF FF FF FF FF FF FF FF FF FF FF FF FF FF FF FF FF FF FF FF FF FF FF FF FF FF FF FF FF FF FF FF FF FF FF FF FF FF FF FF FF FF FF FF FF FF FF FF FF FF FF FF FF FF FF FF
09:24:39.822 设备发送:0B 03 06 84 00 04 04 02
09:24:40.634 设备接收:FF FF FF FF FF FF FF FF FF FF FF FF FF FF FF FF FF FF FF FF FF FF FF FF FF FF FF FF FF FF FF FF FF FF FF FF FF FF FF FF FF FF FF FF FF FF FF FF FF FF FF FF FF FF FF FF FF FF FF FF FF FF FF FF FF FF FF FF FF FF FF FF FF FF FF FF FF FF FF FF FF FF FF FF FF FF FF FF FF FF FF FF FF FF FF FF FF FF FF FF FF FF FF FF FF FF FF FF FF FF FF FF FF FF FF FF FF FF FF FF FF FF FF FF FF FF FF FF FF FF FF FF FF FF FF FF FF FF FF FF FF FF FF FF FF FF FF FF FF FF
09:24:40.649 设备发送:0B 03 04 04 00 01 C4 51
09:24:41.430 设备接收:FF FF FF FF FF FF FF FF FF FF FF FF FF FF FF FF FF FF FF FF FF FF FF FF FF FF FF FF FF FF FF FF FF FF FF FF FF FF FF FF FF FF FF FF FF FF FF FF FF FF FF FF FF FF FF FF FF FF FF FF FF FF FF FF FF FF FF FF FF FF FF FF FF FF FF FF FF FF FF FF FF FF FF FF FF FF FF FF FF FF FF FF FF FF FF FF FF FF FF FF FF FF FF FF FF FF FF FF FF FF FF FF FF FF FF FF FF FF FF FF FF FF FF FF FF FF FF FF FF FF FF FF FF FF FF FF FF FF FF FF FF FF FF FF FF FF FF FF FF FF
09:24:41.461 设备发送:0C 03 04 84 00 04 04 0D
09:24:42.271 设备接收:FF FF FF FF FF FF FF FF FF FF FF FF FF FF FF FF FF FF FF FF FF FF FF FF FF FF FF FF FF FF FF FF FF FF FF FF FF FF FF FF FF FF FF FF FF FF FF FF FF FF FF FF FF FF FF FF FF FF FF FF FF FF FF FF FF FF FF FF FF FF FF FF FF FF FF FF FF FF FF FF FF FF FF FF FF FF FF FF FF FF FF FF FF FF FF FF FF FF FF FF FF FF FF FF FF FF FF FF FF FF FF FF FF FF FF FF FF FF FF FF FF FF FF FF FF FF FF FF FF FF FF FF FF FF FF FF FF FF FF FF FF FF FF FF FF FF FF FF FF FF
09:24:42.302 设备发送:0C 03 04 8D 00 21 15 D4
09:24:43.081 设备接收:FF FF FF FF FF FF FF FF FF FF FF FF FF FF FF FF FF FF FF FF FF FF FF FF FF FF FF FF FF FF FF FF FF FF FF FF FF FF FF FF FF FF FF FF FF FF FF FF FF FF FF FF FF FF FF FF FF FF FF FF FF FF FF FF FF FF FF FF FF FF FF FF FF FF FF FF FF FF FF FF FF FF FF FF FF FF FF FF FF FF FF FF FF FF FF FF FF FF FF FF FF FF FF FF FF FF FF FF FF FF FF FF FF FF FF FF FF FF FF FF FF FF FF FF FF FF FF FF FF FF FF FF FF FF FF FF FF FF FF FF FF FF FF FF FF FF FF FF FF FF
09:24:43.097 设备发送:0C 03 06 84 00 04 05 B5
09:24:43.910 设备接收:FF FF FF FF FF FF FF FF FF FF FF FF FF FF FF FF FF FF FF FF FF FF FF FF FF FF FF FF FF FF FF FF FF FF FF FF FF FF FF FF FF FF FF FF FF FF FF FF FF FF FF FF FF FF FF FF FF FF FF FF FF FF FF FF FF FF FF FF FF FF FF FF FF FF FF FF FF FF FF FF FF FF FF FF FF FF FF FF FF FF FF FF FF FF FF FF FF FF FF FF FF FF FF FF FF FF FF FF FF FF FF FF FF FF FF FF FF FF FF FF FF FF FF FF FF FF FF FF FF FF FF FF FF FF FF FF FF FF FF FF FF FF FF FF FF FF FF FF FF FF
09:24:43.925 设备发送:0C 03 04 04 00 01 C5 E6
09:24:44.720 设备接收:FF FF FF FF FF FF FF FF FF FF FF FF FF FF FF FF FF FF FF FF FF FF FF FF FF FF FF FF FF FF FF FF FF FF FF FF FF FF FF FF FF FF FF FF FF FF FF FF FF FF FF FF FF FF FF FF FF FF FF FF FF FF FF FF FF FF FF FF FF FF FF FF FF FF FF FF FF FF FF FF FF FF FF FF FF FF FF FF FF FF FF FF FF FF FF FF FF FF FF FF FF FF FF FF FF FF FF FF FF FF FF FF FF FF FF FF FF FF FF FF FF FF FF FF FF FF FF FF FF FF FF FF FF FF FF FF FF FF FF FF FF FF FF FF FF FF FF FF FF FF
09:24:44.735 设备发送:01 03 04 84 00 04 05 10
09:24:45.547 设备接收:FF FF FF FF FF FF FF FF FF FF FF FF FF FF FF FF FF FF FF FF FF FF FF FF FF FF FF FF FF FF FF FF FF FF FF FF FF FF FF FF FF FF FF FF FF FF FF FF FF FF FF FF FF FF FF FF FF FF FF FF FF FF FF FF FF FF FF FF FF FF FF FF FF FF FF FF FF FF FF FF FF FF FF FF FF FF FF FF FF FF FF FF FF FF FF FF FF FF FF FF FF FF FF FF FF FF FF FF FF FF FF FF FF FF FF FF FF FF FF FF FF FF FF FF FF FF FF FF FF FF FF FF FF FF FF FF FF FF FF FF FF FF FF FF FF FF FF FF FF FF
09:24:45.578 设备发送:01 03 04 8D 00 21 14 C9
09:24:46.392 设备接收:FF FF FF FF FF FF FF FF FF FF FF FF FF FF FF FF FF FF FF FF FF FF FF FF FF FF FF FF FF FF FF FF FF FF FF FF FF FF FF FF FF FF FF FF FF FF FF FF FF FF FF FF FF FF FF FF FF FF FF FF FF FF FF FF FF FF FF FF FF FF FF FF FF FF FF FF FF FF FF FF FF FF FF FF FF FF FF FF FF FF FF FF FF FF FF FF FF FF FF FF FF FF FF FF FF FF FF FF FF FF FF FF FF FF FF FF FF FF FF FF FF FF FF FF FF FF FF FF FF FF FF FF FF FF FF FF FF FF FF FF FF FF FF FF FF FF FF FF FF FF
09:24:46.407 设备发送:01 03 06 84 00 04 04 A8
09:24:47.185 设备接收:FF FF FF FF FF FF FF FF FF FF FF FF FF FF FF FF FF FF FF FF FF FF FF FF FF FF FF FF FF FF FF FF FF FF FF FF FF FF FF FF FF FF FF FF FF FF FF FF FF FF FF FF FF FF FF FF FF FF FF FF FF FF FF FF FF FF FF FF FF FF FF FF FF FF FF FF FF FF FF FF FF 0C 03 08 00 00 01 1F 00 03 E3 52 02 A5 0C 03 02 00 02 14 44 01 03 08 13 85 02 7E 00 12 02 7E 08 AB 01 03 42 09 28 03 B3 00 00 00 00 00 00 00 00 00 00 00 00 00 00 00 00 00 00 09 2B 03 C1 00 00 00 00 00 00 00
09:24:47.201 设备发送:01 03 04 04 00 01 C4 FB
09:24:48.013 设备接收:00 00 00 00 00 00 00 00 00 00 00 09 2D 03 D3 00 00 00 00 00 00 00 00 00 00 00 00 00 00 00 00 00 00 65 09 01 03 08 00 00 01 9D 00 04 0B EC 3E A6 01 03 02 00 02 39 85
09:24:48.028 设备发送:02 03 04 84 00 04 05 23
09:24:48.809 设备接收:02 03 08 13 85 07 0D FF F0 07 0E 90 E7
09:24:48.856 设备发送:02 03 04 8D 00 21 14 FA
09:24:49.633 设备接收:02 03 42 09 32 0A 02 00 00 00 00 00 00 00 00 00 00 00 00 00 00 00 00 00 00 09 35 0A 16 00 00 00 00 00 00 00 00 00 00 00 00 00 00 00 00 00 00 09 3C 0A 2B 00 00 00 00 00 00 00 00 00 00 00 00 00 00 00 00 00 00 C7 4C
09:24:49.649 设备发送:02 03 06 84 00 04 04 9B
09:24:50.473 设备接收:02 03 08 00 00 04 2A 00 0B D7 E0 AD 6B
09:24:50.552 设备发送:02 03 04 04 00 01 C4 C8
09:24:51.285 设备接收:02 03 02 00 02 7D 85
09:24:51.301 设备发送:03 03 04 84 00 04 04 F2
09:24:52.085 设备接收:03 03 08 13 85 0B A5 FF E4 0B A5 F1 B4
09:24:52.133 设备发送:03 03 04 8D 00 21 15 2B
09:24:52.944 设备接收:03 03 42 09 36 10 76 00 00 00 00 00 00 00 00 00 00 00 00 00 00 00 00 00 00 09 37 10 7E 00 00 00 00 00 00 00 00 00 00 00 00 00 00 00 00 00 00 09 44 10 8E 00 00 00 00 00 00 00 00 00 00 00 00 00 00 00 00 00 00 32 4E
09:24:52.959 设备发送:03 03 06 84 00 04 05 4A
09:24:53.752 设备接收:03 03 08 00 00 07 B8 00 0F 8F 4E EB C4
09:24:53.768 设备发送:03 03 04 04 00 01 C5 19
09:24:54.564 设备接收:03 03 02 00 02 40 45
09:24:54.611 设备发送:04 03 04 84 00 04 05 45
09:24:55.375 设备接收:04 03 08 13 85 05 9E FF DE 05 9F AB 55 FF FF
09:24:55.421 设备发送:04 03 04 8D 00 21 14 9C
09:24:56.203 设备接收:04 03 42 09 28 08 14 00 00 00 00 00 00 00 00 00 00 00 00 00 00 00 00 00 00 09 30 08 03 00 00 00 00 00 00 00 00 00 00 00 00 00 00 00 00 00 00 09 37 08 46 00 00 00 00 00 00 00 00 00 00 00 00 00 00 00 00 00 00 2F 8A FF FF
09:24:56.219 设备发送:04 03 06 84 00 04 04 FD
09:24:57.046 设备接收:04 03 08 00 00 04 3C 00 09 8E 2D A0 25
09:24:57.061 设备发送:04 03 04 04 00 01 C4 AE
09:24:57.857 设备接收:04 03 02 00 02 F5 85 FF FF FF FF FF FF
09:24:57.872 设备发送:05 03 04 84 00 04 04 94
09:24:58.684 设备接收:05 03 08 13 85 06 3A FF F0 06 3A 7E C1
09:24:58.700 设备发送:05 03 04 8D 00 21 15 4D
09:24:59.496 设备接收:05 03 42 09 2E 08 DD 00 00 00 00 00 00 00 00 00 00 00 00 00 00 00 00 00 00 09 29 08 E4 00 00 00 00 00 00 00 00 00 00 00 00 00 00 00 00 00 00 09 38 08 EA 00 00 00 00 00 00 00 00 00 00 00 00 00 00 00 00 00 00 86 7C FF FF FF FF FF FF FF FF FF FF FF FF FF FF FF
09:24:59.511 设备发送:05 03 06 84 00 04 05 2C
09:25:00.338 设备发送:05 03 06 84 00 04 05 2C
09:25:01.136 设备接收:05 03 08 00 00 04 91 00 0D EE 57 E1 23 FF FF FF FF FF FF FF FF FF FF FF FF FF FF FF FF FF FF FF FF FF FF FF FF FF FF FF FF FF FF FF FF FF FF FF FF FF FF FF FF FF FF FF FF FF FF FF FF FF FF FF FF FF FF FF FF FF FF FF FF FF FF FF FF FF FF FF FF FF FF FF FF FF FF FF FF FF FF FF FF FF FF FF FF FF FF FF FF FF FF FF FF FF FF FF FF FF FF FF FF FF FF FF FF FF FF FF FF FF FF FF FF FF FF FF
09:25:01.152 设备发送:05 03 04 04 00 01 C5 7F
09:25:01.978 设备接收:FF FF FF FF FF FF FF FF FF FF FF FF FF FF FF FF FF FF FF FF FF FF FF FF FF FF FF FF FF FF FF FF FF FF FF FF FF FF FF FF FF FF FF FF FF FF FF FF FF FF FF FF FF FF FF FF FF FF FF FF FF FF FF FF FF FF FF FF FF FF FF FF FF FF FF FF FF FF FF FF FF FF FF FF FF FF FF FF FF FF FF FF FF FF FF FF FF FF FF FF FF FF FF FF FF FF FF FF FF FF FF FF FF FF FF FF FF FF FF FF FF FF FF FF FF FF FF FF FF FF FF FF FF FF FF FF FF FF FF FF FF FF FF FF FF FF FF FF FF FF
09:25:01.993 设备发送:06 03 04 84 00 04 04 A7
09:25:02.783 设备接收:FF FF FF FF FF FF FF FF FF FF FF FF FF FF FF FF FF FF FF FF FF FF FF FF FF FF FF FF FF FF FF FF FF FF FF FF FF FF FF FF FF FF FF FF FF FF FF FF FF FF FF FF FF FF FF FF FF FF FF FF FF FF FF FF FF FF FF FF FF FF FF FF FF FF FF FF FF FF FF FF FF FF FF FF FF FF FF FF FF FF FF FF FF FF FF FF FF FF FF FF FF FF FF FF FF FF FF FF FF FF FF FF FF FF FF FF FF FF FF FF FF FF FF FF FF FF FF FF FF FF FF FF FF FF FF FF FF FF FF FF FF FF FF FF FF FF FF FF FF FF
09:25:02.791 设备发送:06 03 04 8D 00 21 15 7E
09:25:03.585 设备接收:FF FF FF FF FF FF FF FF FF FF FF FF FF FF FF FF FF FF FF FF FF FF FF FF FF FF FF FF FF FF FF FF FF FF FF FF FF FF FF FF FF FF FF FF FF FF FF FF FF FF FF FF FF FF FF FF FF FF FF FF FF FF FF FF FF FF FF FF FF FF FF FF FF FF FF FF FF FF FF FF FF FF FF FF FF FF FF FF FF FF FF FF FF FF FF FF FF FF FF FF FF FF FF FF FF FF FF FF FF FF FF FF FF FF FF FF FF FF FF FF FF FF FF FF FF FF FF FF FF FF FF FF FF FF FF FF FF FF FF FF FF FF FF FF FF FF FF FF FF FF
09:25:03.600 设备发送:06 03 06 84 00 04 05 1F
09:25:04.399 设备接收:FF FF FF FF FF FF FF FF FF FF FF FF FF FF FF FF FF FF FF FF FF FF FF FF FF FF FF FF FF FF FF FF FF FF FF FF FF FF FF FF FF FF FF FF FF FF FF FF FF FF FF FF FF FF FF FF FF FF FF FF FF FF FF FF FF FF FF FF FF FF FF FF FF FF FF FF FF FF FF FF FF FF FF FF FF FF FF FF FF FF FF FF FF FF FF FF FF FF FF FF FF FF FF FF FF FF FF FF FF FF FF FF FF FF FF FF FF FF FF FF FF FF FF FF FF FF FF FF FF FF FF FF FF FF FF FF FF FF FF FF FF FF FF FF FF FF FF FF FF FF
09:25:04.429 设备发送:06 03 04 04 00 01 C5 4C
09:25:05.238 设备接收:FF FF FF FF FF FF FF FF FF FF FF FF FF FF FF FF FF FF FF FF FF FF FF FF FF FF FF FF FF FF FF FF FF FF FF FF FF FF FF FF FF FF FF FF FF FF FF FF FF FF FF FF FF FF FF FF FF FF FF FF FF FD FF FF FF FF FF FD FF FF FF FF FF FF FF FF FF FF FD FD FF FF FF FF FF FF FF FF FF FF FF FF FF FF FF FF FF FF FF FF FF FF FF FF FF FF FF FF FF FF FF FF FF FF FF FF FF FF FF FF FF FF FF FF FF FF FF FF FF FF FF FF FF FF FF FF FF FF FD FF FF FF FF FD FF FF FF FF FF FF
09:25:05.253 设备发送:07 03 04 84 00 04 05 76
09:25:06.032 设备接收:FF FF FF FF FF FF FF FF FF FF FF FF FF FF FF FF FF FF FF FF FF FF FF FF FF FF FF FF FF FF FF FF FF FF FF FF FF FF FF FF FF FF FD FF FF FF FF FF FF FF FF FF FF FF FF FF FF FF FF FF FF FF FF FF FF FF FF FF FF FF FF FF FF FF FF FF FF FF FF FD FF FF FF FF FF FF FF FF FF FF FF FF FD FF FF FF FF FF FF FF FF FF FF FF FF FF FF FD FF FF FF FF FF FF FF FF FF FF FF FF FF FF FD FF FF FF FF FF FF FF FF FF FF FF FF FF FF FF FF FF FF FF FF FD FF FF FF FF FF FF
09:25:06.077 设备发送:07 03 04 8D 00 21 14 AF
09:25:06.859 设备接收:FF FF FF FF FF FD FF FF FF FF FF FF FF FF FF FF FF FF FF FF FF FF FF FD FF FF FF FF FF FF FF FF FF FF FF FF FF FF FF FF FF FF FF FF FF FF FF FF FF FF FF FF FF FF FD FF FF FF FD FF FF FF FD FF FF FF FF FF FF FF FF FF FF FF FF FF FF FF FF FF FF FD FF FF FF FF FF FF FF FF FF FF FF FF FF FF FF FF FF FD FF FF FF FF FF FF FF FD FF FF FF FF FF FF FF FF FF FF FD FF FF FF FF FF FF FF FF FD FF FF FF FF FF FF FF FF FF FF FF FF FF FF FF FF FF FF FF FF FF FF
09:25:06.891 设备发送:07 03 06 84 00 04 04 CE
09:25:07.704 设备接收:FF FF FF FF FD FF FF FF FF FF FF FF FF FF FF FF FF FF FF FF FF FF FF FF FF FF FF FF FF FD FD FF FD FF FF FF FD FF FF FF FF FF FF FF FF FD FF FF FF FF FF FF FD FD FF FF FD FF FF FD FF FF FF FD FD FD FF FF FF FD FF FD FF FF FF FF FD FF FD FF FF FD FF FF FD FF FF FD FF FD FF FF FF FF FF FF FF FF FF FF FF FF FF FF FF FF FF FF FF FF FF FF FF FF FD FD FF FF FF FF FD FF FF FD FF FF FF FD FF FF FF FF FF FF FF FD FD FF FF FF FF FF FF FF FF FF FF FF FD FF
09:25:07.719 设备发送:07 03 04 04 00 01 C4 9D
09:25:08.549 设备接收:FD FF FF FF FF FF FF FF FF FF FF FD FF FF FF FF FF FF FF FF FF FF FF FF FF FF FF FF FF FF FD FF FF FF FF FF FF FF FD FD FF FF FF FD FF FF FF FF FF FF FF FD FD FF FF FD FD FF FD FD FF FF FF FF FF FD FF FF FF FF FD FD FF FD FF FF FD FD FD FD FF FD FD FD FF FF FF FF FD FF FD FF FF FF FF FF FF FF FF FF FF FD FF FD FD FD FF FF FF FF FD FF FF FF FF FD FF FF FD FF FF FF FF FF FD FF FF FD FD FF FD FF FF FF FD FD FD FF FD FD FF FF FD FF FD FD FD FF FF FD
09:25:08.563 设备发送:08 03 04 84 00 04 05 89
09:25:09.343 设备接收:FD FD FF FF FF FF FD FF FD FD FD FD FD FF FF FF FF FD FD FD FF FF FF FD FD FF FD FD FF FF FF FF FF FD FD FD FF FD FF FD FD FF FF FD FD FF FF FF FD FF FF FF FF FF FF FF FD FD FD FD FF FF FF FF FF FF FF FD FD FF FF FD FF FF FD FF FF FF FF FF FF FD FD FD FF FF FF FF FF FD FF FF FF FD FF FF FF FF FF FD FD FD FF FD FD FF FD FD FD FF FD FF FD FF FF FF FF FD FF FD FD FF FF FF FF FF FD FF FD FF FD FF FF FD FD FD FF FD FD FD FD FD FD FD FF FD FD FF FF FF
09:25:09.358 设备发送:08 03 04 8D 00 21 14 50
09:25:10.141 设备接收:FF FF FF FD FD FD FD FF FD FF FF FF FF FF FF FF FD FD FD FD FD FF FD FD FD FD FD FD FD FF FF FD FD FD FD FF FD FF FF FF FD FF FD FD FD FD FD FD FF FD FF FD FF FD FD FD FF FD FD FD FF FD FD FF FD FF FD FF FD FF FD FD FF FF FF FF FD FF FF FF FD FD FF FD FD FD FF FD FD FD FF FF FD FF FF FD FF FF FD FF FF FF FF FF FF FF FF FF FD FF FF FF FF FF FD FF FF FF FF FD FD FF FD FD FD FD FF FD FD FD FF FD FD FD FF FF FF FF FF FF FF FF FF FF FD FF FF FD FD FD
09:25:10.172 设备发送:08 03 06 84 00 04 04 31
09:25:10.953 设备接收:FD FD FF FD FF FD FD FD FF FF FD FD FD FF FD FF FF FF FF FF FD FF FD FF FF FF FD FF FF FD FF FD FF FF FF FD FF FD FF FF FF FD FD FD FD FD FD FD FD FF FF FD FD FD FD FF FF FD FD FD FD FD FD FD FD FD FD FD FD FF FD FD FF FD FD FD FF FD FD FD FD FD FD FD FD FF FD FD FD FD FD FD FD FD FF FD FF FF FF FD FD FF FD FD FD FD FD FD FF FF FF FD FD FD FD FD FD FD FD FD FC FD FD FD FD FD FD FD FD FD FD FD FD FD FF FF FD FD FD FD FD FD FF FF FD FD FF FD FD FD
09:25:10.999 设备发送:08 03 04 04 00 01 C4 62
09:25:11.812 设备接收:FD FD FD FD FD FD FD FD FD FD FD FD FD FD FD FD FF FF FD FD FF FD FD FD FD FD FD FD FD FD FD FF FF FD FF FD FD FD FD FD FF FD FC FD FD FD FF FD FD FD FD FD FD FD FD FD FD FD FD FD FD FD FD FD FF FD FD FF FF FD FD FD FF FD FD FD FD FD FD FF FD FF FD FF FD FD FF FF FC FD FF FD FD FD FD FD FD FD FD FD FD FF FD FD FF FD FD FF FD FD FD FD FD FD FF FD FD FF FD FF FD FF FD FD FF FD FD FD FF FD FD FD FD FF FD FD FD FD FF FD FF FD FD FF FD FD FD FD FF FD
09:25:11.827 设备发送:09 03 04 84 00 04 04 58
09:25:12.625 设备接收:FD FD FD FF FF FD FF FF FD FF FD FD FD FD FD FD FD FD FD FD FD FD FF FD FF FD FD FD FD FD FD FD FD FD FD FD FD FF FD FD FD FD FD FD FD FD FD FD FD FF FD FD FD FD FF FD FD FF FD FD FD FD FD FF FD FF FD FD FF FF FD FD FF FD FD FD FD FD FD FD FF FD FD FD FD FF FF FD FF FF FD FD FD FF FD FF FD FF FD FF FD FD FD FD FD FD FF FD FD FD FD FD FD FD FD FD FD FD FD FF FD FD FD FD FD FD FD FD FD FD FD FD FD FD FD FF FF FF FF FF FF FF FF FF FF FF FF FF FF FF
09:25:12.640 设备发送:09 03 04 8D 00 21 15 81
09:25:13.437 设备接收:FF FF FF FF FF FF FF FF FF FF FF FF FF FF FF FF FF FF FF FF FF FF FF FF FF FF FF FF FF FF FF FF FF FF FF FF FF FF FF FF FF FF FF FF FF FF FF FF FF FF FF FF FF FF FF FF FF FF FF FF FF FF FF FF FF FF FF FF FF FF FF FF FF FF FF FF FF FF FF FF FF FF FF FF 7F FD FD FD FD FD FD FD FD FF FF FD FD FD FF FD FD FD FF FD FF FD FD FF FD FD FD FD FD FD FD FD FD FD FD FF FD FD FD FD FD FD FD FC FD FD FD FD FD FC FD FF FD FD FC FD FD FD FD FC FD FF FD FF FF FF
09:25:13.453 设备发送:09 03 06 84 00 04 05 E0
09:25:14.262 设备接收:FF FF FF FF FF FD FF FF FF FF FF FD FF FF FD FF FF FF FD FF FF FD FD FD FD FD FD FF FD FF FF FD FD FD FD FD FD FD FF FD FD FF FD FD FF FD FF FF FD FD FF FF FF FF FD FF FF FF FD FD FD FF FD FF FF FD FF FD FF FF FD FF FF FF FF FF FD FF FF FD FD FD FF FF FD FD FD FF FF FD FF FD FF FD FF FD FD FD FD FF FF FD FD FD FF FF FF FF FD FD FF FF FF FF FD FF FF FD FD FF FD FD FF FF FF FD FF FF FD FD FD FF FD FD FD FD FF FD FD FD FF FF FD FF FD FF FD FD FF FF
09:25:14.279 设备发送:09 03 04 04 00 01 C5 B3
09:25:15.075 设备接收:FF FD FD FD FF FF FD FD FD FF FD FF FF FD FD FD FD FF FF FF FD FF FF FD FF FF FF FF FF FF FF FD FF FF FF FD FD FF FF FD FF FF FF FF FF FF FD FF FF FF FF FF FF FF FD FF FD FD FF FF FF FF FD FD FD FF FF FF FF FF FD FF FD FD FF FD FF FD FD FF FD FD FF FF FD FF FF FD FD FF FF FF FF FD FD FD FF FD FF FD FF FF FD FF FD FF FF FF FF FD FD FD FD FD FF FF FD FF FF FF FF FF FF FD FF FD FF FD FD FF FD FD FD FD FD FD FF FF FF FF FD FD FD FD FD FF FF FF FF FF
09:25:15.090 设备发送:0A 03 04 84 00 04 04 6B
09:25:15.887 设备接收:FD FF FF FD FF FF FF FD FD FF FF FF FF FF FF FF FD FD FF FD FD FD FF FF FF FF FF FF FF FF FF FD FF FD FF FD FF FF FD FF FD FD FD FD FD FF FF FD FF FF FF FF FD FF FD FD FF FD FF FD FD FF FD FD FD FD FD FD FD FF FF FF FF FF FF FF FF FD FF FF FF FF FD FD FF FF FD FD FD FD FD FF FF FF FF FD FF FF FC FD FF FF FF FF FD FF FD FD FF FF FD FD FD FF FF FF FF FF FD FD FF FF FF FD FD FF FF FF FD FD FF FD FD FD FD FF FD FF FF FD FD FF FF FD FF FD FD FF FD FF
09:25:15.901 设备发送:0A 03 04 8D 00 21 15 B2
09:25:16.696 设备接收:FF FF FF FF FF FF FD FD FC FF FF FF FD FD FF FF FF FF FF FF FD FD FF FF FD FD FD FD FD FD FF FD FF FD FF FD FF FD FF FD FF FF FF FD FF FF FF FF FF FD FD FD FD FF FD FD FD FC FD FD FF FF FF FD FD FD FF FD FF FD FF FD FF FF FF FF FD FF FD FF FF FD FD FF FD FD FD FF FD FD FF FD FF FD FF FD FD FF FD FD FD FD FD FD FF FD FD FD FF FF FD FF FD FD FD FF FD FD FD FD FD FF FF FD FD FD FD FD FD FD FD FF FF FD FD FD FD FF FF FD FD FD FD FD FD FF FD FF FD FD
09:25:16.742 设备发送:0A 03 06 84 00 04 05 D3
09:25:17.521 设备接收:FD FD FD FC FD FF FD FF FC FF FD FF FF FD FD FF FF FF FD FD FD FD FD FD FD FD FD FF FD FD FD FD FD FD FF FF FD FD FD FD FD FD FD FD FF FD FD FF FF FD FD FF FF FD FF FD FD FD FD FF FD FD FF FD FD FF FD FD FD FF FD FD FF FF FF FD FF FD FD FD FD FD FD FD FF FF FD FD FD FD FD FD FD FF FF FD FD FD FD FD FF FF FD FF FD FF FD FD FD FC FF FF FF FF FD FD FD FF FF FD FD FF FD FF FD FF FD FD FF FF FD FD FF FD FD FD FF FD FD FF FD FC FD FF FD FF FD FD FF FD
09:25:17.567 设备发送:0A 03 04 04 00 01 C5 80
09:25:18.349 设备接收:FD FF FD FD FF FD FD FC FD FD FF FD FD FC FF FD FF FF FF FF FF FD FF FF FF FD FD FD FF FD FD FF FD FF FF FD FD FF FF FD FF FD FF FF FF FF FD FD FF FD FF FF FD FD FF FD FF FF FD FF FF FD FD FD FD FF FF FD FF FF FF FD FF FD FD FF FF FF FD FD FD FC FF FF FD FF FD FD FF FD FD FD FD FD FD FD FD FD FD FD FC FD FD FF FD FD FD FD FF FD FD FD FD FF FD FD FD FF FF FF FF FD FD FD FF FF FF FF FD FD FD FF FC FF FF FF FF FF FD FF FF FD FD FD FD FF FD FD FF FD
09:25:18.380 设备发送:0B 03 04 84 00 04 05 BA
09:25:19.176 设备接收:FD FD FD FF FD FF FF FF FF FF FD FD FD FD FF FF FF FD FD FD FD FD FF FF FF FF FF FF FD FD FF FD FD FD FD FD FD FD FD FD FD FD FD FF FC FD FF FD FD FD FF FD FF FD FD FD FD FD FD FD FC FD FC FD FF FD FF FD FD FD FD FD FF FF FC FD FF FD FD FD FD FF FD FD FD FD FD FD FD FD FD FD FD FD FD FD FD FD FD FC FD FD FD FD FC FD FD FD FD FD FD FD FD FD FD FC FD FD FF FD FF FD FD FF FD FD FD FF FF FD FD FD FD FF FD FD FD FF FF FF FF FF FD FD FD FF FD FF FD FF
09:25:19.192 设备发送:0B 03 04 8D 00 21 14 63
09:25:19.987 设备接收:FD FF FD FF FD FF FF FD FD FD FF FD FC FD FF FD FF FF FD FF FD FD FF FD FD FD FD FD FD FF FD FD FD FD FD FD FD FD FD FF FF FD FD FD FD FD FD FD FD FD FD FF FD FF FD FD FD FF FD FD FD FD FD FF FF FF FD FF FD FD FD FD FD FD FD FD FF FD FD FD FD FD FD FD FF FD FD FC FD FF FD FD FF FD FD FD FF FF FD FD FD FD FD FF FD FD FD FD FD FF FF FD FF FF FF FD FF FF FF FD FD FD FF FD FF FF FF FF FD FD FF FD FD FF FF FD FD FD FF FF FF FD FF FF FD FD FD FF FF FD
09:25:20.002 设备发送:0B 03 06 84 00 04 04 02
09:25:20.799 设备接收:FF FD FF FD FF FD FD FD FF FF FD FF FD FD FF FF FD FD FF FD FF FF FF FF FF FF FD FD FF FD FF FD FD FD FF FD FD FF FD FD FF FF FD FF FF FD FD FF FD FD FF FD FD FF FD FD FF FF FD FD FF FD FF FF FD FD FD FF FD FF FD FD FF FD FC FF FD FF FD FD FF FD FD FD FD FF FD FD FD FF FF FD FF FF FD FD FD FD FF FF FD FD FD FD FD FF FD FD FF FD FD FF FD FD FD FD FD FF FF FD FF FD FD FF FD FD FD FD FD FD FD FD FD FD FD FF FD FD FF FD FF FF FD FF FF FF FD FD FD FD
09:25:20.815 设备发送:0B 03 04 04 00 01 C4 51
09:25:21.612 设备接收:FD FD FC FF FD FD FD FD FC FD FD FD FC FC FD FD FD FD FF FD FD FD FD FD FD FD FF FD FD FD FD FD FF FD FD FF FF FF FD FD FD FF FF FD FD FD FD FD FD FD FD FF FF FD FD FD FD FF FD FD FD FF FF FF FD FD FD FC FD FD FC FD FC FD FD FD FC FD FD FC FD FF FD FC FD FD FF FD FD FD FD FF FF FD FF FD FD FF FD FD FD FD FD FF FD FD FD FF FD FF FC FD FD FF FD FD FF FD FD FD FD FD FF FD FC FD FF FD FD FD FD FF FC FD FD FD FD FF FD FD FD FD FF FF FD FD FF FF FD FF
09:25:21.661 设备发送:0C 03 04 84 00 04 04 0D
09:25:22.455 设备接收:FD FD FD FD FC FD FD FD FF FD FD FF FC FD FD FD FD FF FF FF FD FD FD FD FD FD FD FD FF FC FD FD FD FD FF FD FD FD FD FF FD FD FF FD FD FD FD FD FF FF FD FF FD FD FD FD FD FF FD FD FD FD FD FC FE FD FF FD FD FD FD FD FD FD FD FD FD FD FF FD FC FD FD FD FD FF FF FF FD FD FD FD FD FC FD FD FD FF FC FD FF FD FD FD FD FD FD FC FD FD FF FC FD FD FD FD FD FD FF FD FD FD FD FF FD FF FD FD FF FD FF FD FF FC FF FD FD FD FD FD FD FF FD FD FF FD FF FF FD FD
09:25:22.470 设备发送:0C 03 04 8D 00 21 15 D4
09:25:23.274 设备接收:FF FD FD FF FD FD FD FD FD FD FD FD FD FD FD FF FD FC FC FD FD FF FD FF FD FF FD FD FD FD FD FC FF FD FD FD FD FD FC FC FC FC FD FD FF FD FD FD FC FD FD FD FF FD FD FD FD FF FD FF FF FD FD FD FD FD FD FD FD FF FD FD FD FD FD FD FF FD FD FD FF FF FF FD FD FD FD FD FD FC FD FC FD FF FD FD FD FF FD FD FD FD FD FD FD FD FD FC FD FD FF FD FD FF FD FC FD FF FF FF FD FF FD FF FD FD FD FF FD FD FF FD FD FF FF FF FD FD FF FF FD FD FD FD FD FF FD FD FC FF
09:25:23.280 设备发送:0C 03 06 84 00 04 05 B5
09:25:24.091 设备接收:FF FD FD FD FD FF FD FD FF FC FD FD FD FD FF FD FD FF FD FF FD FD FC FF FD FD FC FD FD FF FD FD FF FD FF FD FF FD FD FF FF FD FD FF FF FD FF FF FF FD FD FD FD FC FD FF FF FF FD FD FD FF FD FD FD FF FD FD FC FD FD FD FF FF FD FD FF FF FD FD FC FF FF FD FF FD FF FD FD FD FF FD FF FF FD FF FD FF FF FF FF FD FD FD FD FD FF FD FF FF FF FD FD FD FF FF FF FF FF FD FF FF FD FD FD FF FF FF FD FD FD FD FD FF FF FD FD FD FF FF FF FF FF FF FD FC FF FD FD FF
09:25:24.106 设备发送:0C 03 04 04 00 01 C5 E6
09:25:24.905 设备接收:FF FF FF FF FD FD FF FD FD FD FD FD FD FF FD FD FF FD FF FC FD FC FF FD FD FD FC FD FF FD FF FD FD FF FF FD FF FD FD FF FF FF FD FD FF FF FF FF FC FD FF FF FD FC FD FD FD FD FF FD FF FF FD FD FF FF FD FF FF FD FD FC FF FF FF FD FF FF FD FF FD FD FD FF FF FD FD FD FD FD FF FD FD FF FC FD FD FD FD FF FD FC FC FD FF FD FD FF FD FD FC FD FD FD FD FD FD FD FD FF FD FD FD FD FC FF FD FF FF FF FD FF FD FD FF FF FF FD FF FD FD FD FF FD FD FF FD FD FF FD
09:25:24.936 设备发送:01 03 04 84 00 04 05 10
09:25:25.733 设备接收:FD FD FC FD FF FD FF FD FD FF FF FD FD FD FD FD FD FD FD FD FD FC FD FF FD FF FD FD FD FD FF FD FD FD FD FD FD FD FD FD FF FF FD FD FF FD FD FD FF FF FD FC FD FD FD FD FD FD FF FD FD FD FD FD FD FD FF FD FD FD FD FD FF FD FD FF FF FD FD FF FD FD FF FD FD FD FD FD FD FF FF FF FD FD FD FD FF FF FD FF FF FD FD FD FF FF FD FD FD FF FD FD FD FD FD FD FD FD FF FD FF FD FD FD FD FD FF FD FD FD FD FF FF FD FD FD FD FD FF FD FD FD FD FD FC FF FC FF FD FD
09:25:25.749 设备发送:01 03 04 8D 00 21 14 C9
09:25:26.546 设备接收:FD FF FC FD FF FD FD FD FD FD FF FD FF FD FF FD FF FD FD FF FD FD FD FC FD FC FD FF FD FD FD FD FF FF FD FF FD FF FD FD FD FF FD FD FD FD FC FF FD FD FD FD FD FC FD FD FC FD FD FC FD FD FF FD FD FF FF FF FF FF FF FF FF FF FF FF FF FF FF FF FF FF FF FF FF FF FF FF FF FF FF FF FF FF FF FF FF FF FF FF FF FF FF FF FF FF FF FF FF FF FF FF FF FF FF FF FF FF FF FF FF FF FF FD FD FF FD FD FF FD FF FD FD FF FD FF FD FD FD FD FF FD FF FF FD FD FF FD FD FD
09:25:26.561 设备发送:01 03 06 84 00 04 04 A8
09:25:27.388 设备接收:FD FD FF FF FF FF FD FD FF FD FD FD FF FD FD FD FF FC FD FD FF FF FF FF FF FD FF FD FD FF FF FF FD FF FF FF FF FD FD FF FF FD FD FF FD FF FD FD FD FF FD FD FD FD FF FD FD FF FD FD FF FF FF FD FD FF FF FD FF FD FD FD FD FD FD FF FF FD FD FD FF FF FF FD FF FD FF FF FD FF FD FF FD FC FC FD FD FD FD FD FD FD FC FC FC FD FD FD FD FD FD FC FD FD FC FD FD FF FD FD FD FF FD FD FC FD FD FC FD FD FC FD FC FC FD FC FC FD FC FC FD FD FD FD FC FD FD FD FC FD
09:25:27.404 设备发送:01 03 04 04 00 01 C4 FB
09:25:28.188 设备接收:FF FF FD FD FC FD FD FD FD FD FD FC FC FD FF FD FC FF FD FD FD FD FD FF FD FC FD FD FD FD FD FC FD FD FD FF FC FD FC FD FC FD FD FC FC FD FC FC FC FC FD FD FC FD FC FD FD FD FD FD FC FD FD FC FD FD FD FC FC FC FC FC FC FC FD FD FF FD FD FD FD FC FC FD FD FD FD FD FD FD FD FD FC FD FC FD FC FC FD FC FD FD FC FD FC FC FD FC FC FF FD FD FD FD FF FD FD FD FD FC FC FC FC FD FC FC FD FC FC FD FD FC FC FD FD FC FD FD FD FC FD FD FD FD FD FC FD FD FD FF
09:25:28.203 设备发送:02 03 04 84 00 04 05 23
09:25:29.030 设备接收:9F 9D FD FD FD FD FD FF FD FD FC FD FC FD FD FC FD FF FF FC FD FD FD FF FC FD FD FD FD FD FD FC FC FD FC FD FD FC FD FF FD FC FC FD FC FC FD FC FD FC FD FC FD FD FD FF FD FD FD FD FD FD FF FC FC FD FC FC FC FD FC FC FC FD FD FD FD FD FC FD FD FD FC FD FC FF FC FD FD FD FD FD FC FD FD FC FC FD FD FC FD FC FD FF FD FD FF FC FF FD FD FD FD FD FD FC FC FC FC FC FC FD FC FC FD FD FD FD FF FD FD FF FC FD FD FC FD FC FC FF FD FD FC FC FD FD FD FD FC FD
09:25:29.045 设备发送:02 03 04 8D 00 21 14 FA
09:25:29.842 设备接收:FD FD FD FD FD FD FC FD FF FF FD FD FC FF FC FD FD FF FD FD FD FC FC FF FF FC FC FC FD FD FF FD FD FC FD FC FD FD FD FD FD FD FD FD FD FC FC FD FD FD FD FD FD FC FD FD FF FD FD FD FD FD FD FC FD FD FC FD FD FF FD FF FD FD FD FC FC FD FD FD FC FD FC FD FC FD FC FC FD FD FD FD FD FC FF FD FD FC FD FC FD FC FD FD FD FD FF FC FD FD FD FF FD FD FD FD FC FC FC FD FD FC FD FD FD FC FD FD FC FC FC FD FC FC FF FD FD FD FD FC FD FD FC FD FD FD FF FD FD FD
09:25:29.857 设备发送:02 03 06 84 00 04 04 9B
09:25:30.637 设备接收:FD FD FC FD FC FC FD FC FC FD FF FD FD FD FD FC FC FD FD FF FD FD FF FD FD FD FD FF FF FF FD FD FC FF FD FF FC FD FD FC FD FF FD FD FF FD FF FD FF FD FD FC FC FC FC FD FC FC FC FD FD FD FD FC FD FC FD FD FD FC FC FC FC FC FD FE FD FD FD FD FC FD FC FC FD FF FC FC FC FD FD FC FD FC FD FD FD FF FC FC FC FC FC FD FC FD FC FC FD FD FC FC FC FC FC FD FD FC FD FC FC FC FD FD FF FF FF FF FF FD FF FF FF FD FF FF FD FD FD FD FF FD FF FD FD FC FF FF FD FF
09:25:30.668 设备发送:02 03 04 04 00 01 C4 C8
09:25:31.481 设备接收:FF FF FD FF FD FD FD FD FD FD FF FD FD FD FF FD FD FD FD FF FD FD FF FD FD FF FD FC FD FF FF FD FD FF FC FD FD FC FD FD FC FD FD FD FD FD FF FD FD FD FD FD FD FF FF FF FD FD FD FF FF FD FF FF FD FF FD FD FF FF FD FD FF FF FD FD FD FF FD FD FD FF FD FD FC FF FD FF FF FF FD FF FC FD FF FF FD FF FD FF FF FF FF FF FD FD FF FF FF FF FD FF FD FD FF FF FF FD FD FF FC FD FD FF FF FF FF FF FF FF FD FF FD FF FF FD FC FF FF FF FD FD FF FD FD FD FD FF FD FD
09:25:31.495 设备发送:03 03 04 84 00 04 04 F2
09:25:32.305 设备接收:FD FD FD FD FF FD FD FD FD FD FD FF FD FD FD FD FF FD FD FD FD FD FD FF FF FD FD FD FF FF FD FF FF FD FF FD FF FD FD FF FD FD FF FD FC FD FD FD FF FD FD FD FD FD FD FD FD FC FF FF FD FD FD FD FF FF FF FF FD FF FD FF FD FD FD FF FD FD FF FF FF FF FF FF FF FF FD FD FD FC FD FD FD FC FF FD FD FD FD FF FD FF FC FC FD FD FF FF FF FD FF FD FF FF FF FD FD FD FF FF FD FF FC FD FF FD FD FD FC FF FD FD FD FF FD FD FD FF FD FD FD FD FD FD FD FC FD FD FD FD
09:25:32.321 设备发送:03 03 04 8D 00 21 15 2B
09:25:33.099 设备接收:FC FF FD FD FD FD FD FD FF FD FF FD FD FF FD FD FF FD FD FF FF FF FF FD FF FD FD FF FD FD FD FD FD FF FD FD FC FF FD FD FD FD FD FD FD FD FD FD FD FF FF FC FD FD FD FC FD FF FD FF FD FD FF FD FD FF FD FD FF FC FF FF FF FF FF FD FD FF FF FF FD FD FD FD FD FD FD FD FF FF FD FC FD FD FF FF FF FD FD FD FC FC FD FD FD FD FD FF FD FC FF FF FD FC FD FD FF FD FD FD FD FC FD FF FF FF FF FF FF FD FD FC FD FF FD FD FF FD FF FF FF FD FF FF FD FD FF FD FD FC
09:25:33.115 设备发送:03 03 06 84 00 04 05 4A
09:25:33.940 设备接收:FD FF FF FF FD FD FD FD FD FD FD FF FD FD FF FD FC FD FF FF FD FF FD FC FC FD FD FD FF FD FD FD FD FD FD FD FF FD FF FF FF FD FD FD FD FD FD FF FD FD FF FD FF FD FD FD FF FD FD FD FD FD FD FF FF FF FD FD FD FC FF FF FF FD FD FF FF FF FD FD FF FD FD FF FF FF FD FD FD FC FD FF FF FD FD FF FD FF FF FF FF FD FF FD FF FC FD FD FD FD FD FD FD FD FD FD FD FD FD FD FD FD FD FF FD FD FC FD FC FF FC FD FF FD FD FD FF FF FF FF FD FF FD FF FF FD FD FF FD FF
09:25:33.956 设备发送:03 03 04 04 00 01 C5 19
09:25:34.735 设备接收:FD FF FD FD FF FD FF FC FF FD FD FF FD FD FD FD FF FD FF FC FF FF FD FF FF FF FC FD FD FF FF FD FD FD FF FF FF FD FF FF FF FF FD FF FF FF FF FF FD FD FF FF FF FF FF FF FF FF FD FD FD FD FD FD FF FD FD FF FF FF FD FD FD FD FD FF FF FF FF FF FF FF FF FF FD FF FF FD FD FF FF FF FF FD FD FF FF FF FD FD FF FF FD FD FF FF FD FF FF FF FF FF FD FF FF FF FD FF FF FD FD FD FD FD FC FF FD FD FD FF FD FD FF FF FF FF FF FF FF FD FF FF FD FD FF FF FF FD FF FC
09:25:34.784 设备发送:04 03 04 84 00 04 05 45
09:25:35.596 设备接收:FC FD FD FD FD FF FF FD FD FD FF FD FF FF FD FF FF FD FD FD FC FD FD FF FC FD FF FD FD FF FD FD FD FD FD FD FF FD FF FF FD FF FF FF FF FD FD FF FF FF FD FF FD FD FF FC FF FD FF FD FF FD FC FD FD FC FF FF FD FF FF FF FF FF FD FF FD FF FD FF FF FD FF FF FC FD FD FF FD FF FF FF FD FF FF FD FF FF FF FD FF FD FF FD FD FD FD FD FF FD FF FC FD FD FD FC FF FF FD FD FD FD FF FD FD FF FF FF FD FF FD FD FF FF FD FD FC FF FF FD FD FD FF FF FF FD FD FF FD FD
09:25:35.605 设备发送:04 03 04 8D 00 21 14 9C
09:25:36.400 设备接收:FF FD FD FF FF FD FF FD FF FF FD FF FF FF FF FF FD FF FD FF FF FF FF FD FF FF FF FD FF FD FD FF FD FF FD FD FF FF FF FD FD FF FD FC FD FD FD FF FF FF FD FF FF FC FF FF FF FF FF FF FD FF FF FD FD FF FF FF FF FF FF FD FF FD FF FF FD FD FF FF FF FF FD FF FF FF FF FF FF FF FF FF FD FF FF FF FF FD FF FD FF FD FD FF FF FF FF FF FF FF FF FF FF FD FD FF FD FF FD FD FF FF FF FD FF FF FF FF FD FF FD FD FD FF FF FF FF FF FF FD FF FD FD FF FF FF FD FF FD FD
09:25:36.415 设备发送:04 03 06 84 00 04 04 FD
09:25:37.210 设备接收:FD FF FF FD FF FF FF FF FF FF FF FF FD FF FD FF FF FF FF FD FD FF FF FD FF FF FD FF FF FF FF FF FF FD FF FF FF FF FD FD FF FF FF FD FF FD FF FF FD FF FD FF FF FF FF FF FF FF FD FD FF FF FD FD FF FF FD FF FD FD FD FD FD FF FF FF FF FF FF FD FF FD FF FF FF FD FD FF FF FF FF FF FF FF FF FF FF FF FD FF FF FF FF FC FF FF FF FF FD FF FD FF FF FF FF FF FF FF FF FF FF FF FF FD FF FD FF FD FD FD FF FF FC FD FD FD FD FF FD FD FD FF FF FF FF FF FD FF FF FF
09:25:37.225 设备发送:04 03 04 04 00 01 C4 AE
09:25:38.037 设备接收:FF FF FF FF FF FF FF FF FF FF FF FF FD FD FC FF FF FF FF FF FF FF FF FF FF FF FD FF FF FD FF FF FF FF FF FD FF FF FF FD FF FF FD FF FF FD FF FD FD FF FF FD FD FF FF FF FD FD FF FF FF FF FF FF FD FF FF FF FF FF FF FF FD FD FF FF FF FD FF FF FD FF FF FF FF FF FD FF FD FF FD FF FF FF FF FF FF FF FF FD FF FF FF FD FF FF FD FF FF FD FF FF FD FF FF FD FF FD FF FF FF FF FF FF FF FF FD FF FF FD FF FD FF FF FD FF FF FF FD FF FF FF FD FF FF FD FF FD FF FF
09:25:38.068 设备发送:05 03 04 84 00 04 04 94
09:25:38.863 设备接收:FF FF FD FF FF FF FF FD FF FD FF FF FF FF FF FF FD FF FF FF FF FF FD FF FD FD FF FD FD FF FF FF FF FF FF FF FF FF FD FF FF FF FF FF FF FD FD FD FF FF FD FF FF FF FF FF FF FD FF FF FF FF FD FD FF FF FF FF FF FF FF FF FD FF FF FF FD FF FF FF FF FF FF FF FF FF FD FF FF FF FF FF FF FF FD FF FF FD FF FD FF FF FF FF FD FF FF FD FD FF FF FD FF FF FD FF FF FF FD FD FF FD FD FF FD FF FF FF FF FD FD FF FF FD FF FF FF FF FD FF FD FF FF FF FF FF FF FF FF FF
09:25:38.877 设备发送:05 03 04 8D 00 21 15 4D
09:25:39.673 设备接收:FF FD FF FF FF FF FF FF FF FF FD FF FF FD FF FF FD FF FF FF FD FD FC FC FD FF FF FF FD FD FF FD FF FF FF FD FF FF FD FF FF FF FF FD FF FF FF FD FF FF FF FF FD FF FF FF FF FF FF FF FF FD FF FF FF FD FD FF FD FF FF FF FF FD FF FF FF FD FF FF FF FF FF FD FD FD FF FF FF FD FF FF FF FF FD FD FF FF FF FF FD FF FD FF FF FF FF FF FF FF FD FF FF FF FF FF FF FF FF FF FF FF FF FF FF FF FD FD FD FF FF FD FF FD FF FF FF FF FF FF FD FF FF FF FF FF FF FF FF FF
09:25:39.689 设备发送:05 03 06 84 00 04 05 2C
09:25:40.495 设备接收:FF FF FF FF FF FF FF FF FF FC FF FF FD FF FF FF FF FD FF FD FF FF FF FF FF FF FF FF FF FF FF FF FF FF FF FF FF FF FF FF FD FF FF FF FF FF FF FF FF FD FF FF FF FD FD FF FF FF FF FF FF FF FF FF FF FD FD FF FF FF FD FF FF FF FD FF FF FF FF FF FF FF FD FF FF FF FF FD FD FF FF FF FF FF FD FF FF FF FD FD FF FD FF FF FD FF FD FF FF FF FF FF FF FF FF FF FF FF FF FD FF FF FF FD FD FF FF FF FF FF FF FF FF FF FF FF FF FF FD FD FD FF FF FF FF FF FF FF FF FD
09:25:40.518 设备发送:05 03 04 04 00 01 C5 7F
09:25:41.331 设备接收:FF FD FF FF FF FF FD FD FF FF FF FF FF FF FF FD FF FF FF FD FD FD FF FF FD FD FD FF FF FD FD FF FD FC FD FF FD FF FF FF FF FF FF FD FF FF FF FF FF FF FF FF FD FF FF FF FF FF FD FF FF FF FF FD FD FD FF FD FF FF FF FF FF FD FF FF FF FF FF FF FF FF FF FF FF FF FF FF FF FF FF FF FD FD FF FF FD FF FF FF FF FF FD FD FD FF FD FF FF FF FD FC FC FD FC FD FD FC FC FD FD FD FC FD FF FD FF FD FD FD FC FD FD FF FD FD FD FF FF FF FF FD FC FF FF FF FF FD FF FD
09:25:41.346 设备发送:06 03 04 84 00 04 04 A7
09:25:42.126 设备接收:FF FD FD FC FD FF FF FD FC FF FF FD FD FD FD FD FD FD FD FD FD FD FF FF FF FD FD FD FC FD FD FD FD FD FF FC FD FD FD FF FD FD FF FD FD FF FF FD FF FF FD FD FD FD FD FD FD FD FD FF FF FF FF FD FD FF FD FF FD FD FD FD FF FD FF FF FF FD FF FD FD FD FF FD FD FF FD FD FD FF FD FD FF FD FC FF FD FD FD FD FD FD FC FD FC FD FD FD FF FF FD FD FD FF FF FF FF FF FF FF FF FF FD FF FD FF FD FD FD FF FF FD FF FF FD FF FF FF FF FF FF FF FF FF FF FF FD FF FF FF
09:25:42.156 设备发送:06 03 04 8D 00 21 15 7E
09:25:42.948 设备接收:FF FD FD FF FF FF FF FF FF FF FF FF FF FF FF FD FF FF FF FF FF FF FF FF FF FD FF FF FF FF FF FF FF FF FF FF FF FF FF FD FD FF FF FF FF FF FF FF FF FF FF FF FF FF FF FF FF FF FF FF FD FF FF FF FF FF FD FF FD FD FD FF FF FF FF FF FF FF FD FF FD FF FD FD FF FF FC FD FD FF FF FF FF FF FF FD FF FF FF FF FD FF FF FF FF FF FF FD FF FF FF FF FF FF FF FD FF FF FF FF FF FF FD FF FF FF FF FF FF FD FF FF FD FF FD FF FF FF FF FF FF FF FF FD FF FF FF FF FF FF
09:25:42.978 设备发送:06 03 06 84 00 04 05 1F
09:25:43.759 设备接收:FF FF FD FF FF FF FF FF FF FF FF FF FF FD FF FD FF FF FF FF FF FF FF FF FF FD FF FF FF FF FF FF FF FF FF FF FF FF FF FF FF FF FF FF FF FF FF FF FF FF FD FF FF FF FF FD FF FF FF FF FF FF FF FF FD FF FF FF FF FF FF FF FF FF FF FF FF FF FF FD FF FF FF FF FF FF FF FF FF FF FF FF FF FF FF FD FF FF FF FF FF FF FF FF FF FF FF FD FF FF FF FF FF FF FF FF FF FF FF FF FD FF FF FF FF FF FF FF FF FF FF FF FF FF FF FF FF FF FF FF FF FD FD FF FF FF FF FD FF FF
09:25:43.790 设备发送:06 03 04 04 00 01 C5 4C
09:25:44.589 设备接收:FF FF FF FF FF FF FF FF FF FF FF FF FF FF FF FF FF FF FF FF FF FF FF FF FF FF FF FF FF FF FF FF FF FF FF FF FF FF FF FF FF FF FF FD FF FF FF FF FF FF FF FF FD FF FF FF FF FF FF FF FD FF FF FD FF FF FF FF FF FF FF FF FF FF FF FD FF FF FF FF FF FF FF FF FF FF FF FF FF FD FF FF FF FF FF FD FF FF FF FF FF FC FF FF FF FF FF FF FF FF FD FF FF FF FF FF FF FF FF FF FF FF FD FF FF FF FF FF FF FD FF FF FF FF FF FF FF FF FD FF FF FF FF FF FF FF FF FF FF FF
09:25:44.608 设备发送:07 03 04 84 00 04 05 76
09:25:45.400 设备接收:FF FF FF FF FF FF FF FF FF FF FF FF FF FF FF FD FF FF FF FF FF FF FF FF FF FF FF FD FF FF FF FF FF FF FF FF FF FF FF FF FF FF FF FD FF FF FF FF FF FF FF FF FF FD FF FF FF FF FF FF FF FF FF FF FF FF FF FF FF FF FF FF FF FF FF FF FF FF FF FF FF FF FF FF FF FF FF FF FF FF FF FF FF FF FF FF FF FF FF FF FF FF FF FF FF FF FF FF FF FF FF FF FD FF FF FF FF FF FF FF FF FD FF FD FF FF FF FF FF FF FF FF FF FF FF FF FF FF FF FF FF FF FF FF FF FF FF FF FF FF
09:25:45.416 设备发送:07 03 04 8D 00 21 14 AF
09:25:46.212 设备接收:FF FF FF FF FF FF FF FF FF FF FF FF FF FF FF FF FF FF FF FF FF FF FF FF FF FF FF FF FF FF FF FF FF FF FF FF FF FF FF FF FF FF FF FF FF FF FF FF FF FF FF FF FF FF FF FF FF FF FF FF FF FF FF FF FF FF FF FF FF FF FF FF FF FF FF FF FF FF FF FF FF FF FF FF FF FF FF FF FF FF FF FF FF FF FF FF FF FF FF FF FF FF FF FF FF FF FF FF FF FF FF FF FF FF FF FF FF FF FF FF FF FF FF FF FF FF FF FF FF FF FF FF FF FF FF FF FF FF FF FF FF FF FF FF FF FF FF FF FF FF
09:25:46.242 设备发送:07 03 06 84 00 04 04 CE
09:25:47.055 设备接收:FF FF FF FF FF FF FF FF FF FF FF FF FF FF FF FF FF FF FF FF FF FF FF FF FF FF FF FF FF FF FF FF FF FF FF FF FF FF FF FD FF FF FF FF FF FF FD FF FF FD FF FF FF FF FF FD FF FF FF FF FF FF FF FF FF FF FF FF FF FF FF FD FF FF FF FF FF FF FF FF FF FD FD FF FF FF FF FF FF FF FF FF FF FF FF FF FF FF FF FF FF FF FF FF FD FF FF FF FF FF FF FF FF FF FF FF FF FF FF FF FF FF FF FF FF FF FF FF FF FF FF FF FF FD FF FF FF FF FF FF FF FF FF FF FF FF FF FF FF FF
09:25:47.071 设备发送:07 03 04 04 00 01 C4 9D
09:25:47.882 设备接收:FF FF FF FF FF FF FF FF FF FF FF FF FF FF FF FD FF FF FF FF FF FF FF FD FF FF FF FF FF FF FF FF FF FF FF FF FF FF FF FF FF FF FF FF FF FF FF FF FF FF FF FF FF FF FF FF FD FD FF FF FF FF FF FF FF FF FF FF FF FF FF FF FF FF FF FF FF FF FF FF FF FF FF FF FF FF FF FF FF FF FF FF FF FF FF FF FF FF FF FF FF FF FF FF FF FF FF FF FF FF FF FF FF FF FF FF FF FF FF FF FF FF FF FF FF FF FF FF FF FF FF FF FF FF FF FF FF FF FF FF FF FF FF FF FF FF FF FF FF FF
09:25:47.898 设备发送:08 03 04 84 00 04 05 89
09:25:48.681 设备接收:FF FF FF FF FF FF FF FF FF FF FF FF FF FF FF FF FF FF FF FF FF FF FF FF FF FF FF FF FF FF FF FF FF FF FF FF FF FF FF FF FF FF FF FF FF FF FF FF FF FF FF FF FF FF FF FF FF FF FD FF FF FF FF FF FF FF FF FF FF FF FF FD FF FF FF FF FF FD FF FF FF FD FF FF FF FF FF FF FF FF FF FF FF FF FF FF FF FF FF FF FF FF FF FF FF FF FD FF FF FF FF FF FF FF FC FF FF FF FF FF FF FF FF FF FF FF FF FF FF FF FF FF FF FF FF FF FF FF FF FF FF FF FF FF FF FF FF FF FF FF
09:25:48.759 设备发送:08 03 04 8D 00 21 14 50
09:25:49.492 设备接收:FF FF FF FF FF FF FF FF FF FF FF FF FF FF FF FF FF FF FF FF FF FF FF FF FF FF FF FF FF FF FF FF FF FF FF FF FF FF FF FF FF FF FF FF FF FF FF FF FF FF FF FF FF FF FF FF FF FF FF FF FF FF FF FF FF FF FF FF FF FF FF FF FF FF FF FF FF FF FF FF FF FF FF FF FF FF FF FF FF FF FF FF FF FF FF FF FF FF FF FF FF FF FF FF FF FF FF FF FF FF FF FF FF FF FF FF FD FF FF FF FF FF FF FF FF FF FF FF FF FF FF FF FF FF FF FF FF FF FF FF FF FF FD FF FF FD FF FF FF FF
09:25:49.539 设备发送:08 03 06 84 00 04 04 31
09:25:50.321 设备接收:FF FF FF FF FF FF FF FF FF FF FF FF FF FF FF FF FF FF FF FD FF FF FD FF FD FF FD FD FF FF FF FF FF FF FF FF FF FF FF FF FF FF FF FF FF FF FF FF FF FF FF FF FF FF FF FF FF FF FF FF FF FF FF FF FF FF FF FF FF FF FF FF FF FF FF FF FF FF FF FF FF FF FF FF FF FF FF FF FF FF FF FF FF FF FF FD FF FF FF FF FF FF FF FF FF FD FF FF FF FF FF FF FF FF FF FF FF FF FF FF FF FF FF FF FF FF FF FF FF FF FF FF FF FF FF FF FF FF FF FD FF FF FF FF FF FF FF FF FF FF
09:25:50.336 设备发送:08 03 04 04 00 01 C4 62
09:25:51.163 设备接收:FF FF FF FF FF FF FF FF FF FF FF FF FF FF FF FF FF FF FF FF FF FF FF FF FF FF FF FF FF FF FF FF FD FF FF FF FF FF FF FF FF FF FF FF FF FF FF FF FF FF FF FF FF FF FF FF FF FF FF FF FF FF FF FF FF FF FF FF FF FF FF FF FF FF FF FF FF FF FF FF FF FF FF FF FF FF FF FF FF FF FF FF FF FF FF FF FF FF FF FF FD FF FF FF FF FF FF FF FF FF FF FF FF FF FF FF FF FF FF FF FF FF FF FF FF FF FF FF FF FF FF FF FF FF FF FF FF FF FF FF FF FF FF FF FF FF FF FF FF FF
09:25:51.178 设备发送:09 03 04 84 00 04 04 58
09:25:51.975 设备接收:FF FF FF FF FF FF FF FF FF FF FF FF FF FF FF FF FF FF FF FF FF FF FF FF FF FF FF FF FF FF FF FF FF FF FF FF FD FF FF FF FF FF FF FF FF FF FF FF FF FF FF FF FF FF FF FF FF FF FF FF FF FF FF FF FF FF FF FF FF FF FF FF FF FF FF FF FF FF FF FD FF FF FF FF FF FF FF FF FF FF FF FF FF FF FF FF FF FF FF FF FF FF FF FF FF FF FF FF FF FF FF FF FF FF FF FF FF FF FF FF FF FF FF FF FF FF FF FF FF FF FF FF FF FF FF FF FF FF FF FF FF FF FF FF FF FF FF FF FF FF
09:25:51.990 设备发送:09 03 04 8D 00 21 15 81
09:25:52.801 设备接收:FF FF FF FF FF FF FF FF FF FF FF FF FF FF FF FF FF FF FF FF FF FF FF FF FF FF FF FF FF FF FF FF FF FF FF FF FF FF FF FF FF FF FF FF FF FF FF FF FF FF FF FF FF FF FF FF FF FF FF FF FF FF FF FF FF FF FF FF FF FF FF FF FF FF FF FF FF FF FF FF FF FF FF FF FF FD FF FF FF FF FF FF FF FF FF FF FF FF FF FF FF FF FF FF FF FF FF FF FF FF FF FF FF FF FF FF FF FF FF FF FF FF FF FF FF FF FF FF FF FF FF FF FF FF FF FF FF FF FF FF FF FF FF FF FF FF FF FF FF FF
09:25:52.816 设备发送:09 03 06 84 00 04 05 E0
09:25:53.599 设备接收:FF FF FF FF FF FF FF FF FF FF FF FF FF FF FF FF FF FF FF FF FF FF FF FF FF FF FF FF FF FF FF FF FF FF FF FF FF FF FF FF FF FF FF FF FF FF FF FF FF FF FF FF FF FF FF FF FF FF FD FF FF FF FF FF FF FF FF FF FF FF FF FF FF FF FF FF FF FF FF FF FF FF FF FF FF FF FF FF FF FF FF FF FF FF FF FF FF FF FF FF FF FF FF FF FF FF FF FF FF FF FF FF FF FF FF FF FF FF FF FF FF FF FF FF FF FF FF FF FF FF FF FF FF FD FF FF FF FF FF FF FF FF FF FF FF FF FF FF FF FF
09:25:53.630 设备发送:09 03 04 04 00 01 C5 B3
09:25:54.426 设备接收:FF FF FF FF FF FF FF FF FF FF FF FF FF FF FF FF FF FF FF FF FF FF FF FF FF FF FF FF FF FF FF FF FF FF FF FF FF FF FF FF FF FF FF FF FF FF FF FF FF FF FF FF FF FF FF FF FF FF FF FF FF FF FF FF FF FF FF FF FF FF FF FF FF FF FF FF FF FF FF FF FF FF FF FF FF FF FF FF FF FF FF FF FF FF FF FF FF FF FF FF FF FF FF FF FF FF FF FF FF FF FF FF FF FF FF FF FF FF FF FF FF FF FF FF FF FF FF FF FF FF FF FF FF FF FF FF FF FF FF FF FF FF FF FF FF FF FF FF FF FF
09:25:54.442 设备发送:0A 03 04 84 00 04 04 6B
