
15:57:23.169 设备接收:01 03 0A 09 03 01 B0 00 00 00 00 00 00 90 6E
15:57:23.189 设备发送:01 03 04 98 00 05 05 16
15:57:25.210 设备接收:01 03 0A 09 04 01 FF 00 00 00 00 00 00 08 9A
15:57:25.225 设备发送:01 03 04 A3 00 05 74 DB
15:57:27.237 设备接收:01 03 0A 09 08 01 DF 00 00 00 00 00 00 7C 58
15:57:27.253 设备发送:01 03 06 84 00 04 04 A8
15:57:29.250 设备接收:01 03 08 00 00 1C E3 00 04 44 0C 20 99
15:57:29.266 设备发送:01 03 04 04 00 01 C4 FB
15:57:31.278 设备接收:01 03 02 00 02 39 85
15:57:31.309 设备发送:01 03 05 84 00 0F 45 2B
15:57:33.290 设备接收:01 03 1E 03 8D 00 00 00 00 03 8E 00 00 00 00 1A 9B 00 F6 00 A7 03 88 00 01 00 00 03 83 00 00 00 00 55 6C
15:57:33.305 设备发送:01 03 05 93 00 0F F5 2F
15:57:35.311 设备接收:01 03 1E 1D 8E 00 7B 00 5D 03 79 00 00 00 00 03 82 00 04 00 00 03 82 00 00 00 00 03 82 00 00 00 00 23 B6
15:57:35.390 设备发送:01 03 05 A2 00 0F A4 E0
15:57:37.326 设备接收:01 03 1E 00 02 00 00 00 00 00 02 00 00 00 00 00 00 00 00 00 00 00 00 00 00 00 00 00 00 00 00 00 00 C1 C0
15:57:37.342 设备发送:01 03 05 B1 00 03 55 20
15:57:39.368 设备接收:01 03 06 00 00 00 00 00 00 21 75
15:57:39.384 设备发送:01 03 04 2B 00 01 F5 32
15:57:41.378 设备接收:01 03 02 02 A8 B8 9A
15:57:41.393 设备发送:01 03 04 20 00 01 84 F0
15:57:43.397 设备接收:01 03 02 00 32 39 91
15:57:43.413 设备发送:01 03 04 05 00 01 95 3B
15:57:45.417 设备接收:01 03 02 00 00 B8 44
15:57:45.433 设备发送:02 03 04 84 00 04 05 23
15:57:47.426 设备接收:02 03 08 13 85 02 78 FF E2 02 78 3F CA
15:57:47.441 设备发送:02 03 04 8D 00 05 14 E1
15:57:49.464 设备接收:02 03 0A 09 13 03 B2 00 00 00 00 00 00 FA 74
15:57:49.485 设备发送:02 03 04 98 00 05 05 25
15:57:51.459 设备接收:02 03 0A 09 0F 03 C4 00 00 00 00 00 00 75 73
15:57:51.489 设备发送:02 03 04 A3 00 05 74 E8
15:57:53.488 设备接收:02 03 0A 09 14 03 D6 00 00 00 00 00 00 F9 82
15:57:53.504 设备发送:02 03 06 84 00 04 04 9B
15:57:55.528 设备接收:02 03 08 00 00 51 4F 00 0C 79 0D E0 8A
15:57:55.544 设备发送:02 03 04 04 00 01 C4 C8
15:57:57.543 设备接收:02 03 02 00 02 7D 85
15:57:57.573 设备发送:02 03 05 84 00 0F 45 18
15:57:59.538 设备接收:02 03 1E 1D C8 00 F8 00 BD 1D 8B 00 88 00 67 04 74 00 03 00 00 04 75 00 00 00 00 1D 5D 00 E7 00 AE EC 95
15:57:59.568 设备发送:02 03 05 93 00 0F F5 1C
15:58:01.560 设备接收:02 03 1E 1E 13 00 E2 00 AE 1D 97 00 7D 00 5E 04 72 00 01 00 00 04 74 00 00 00 00 04 74 00 00 00 00 48 F4
15:58:01.638 设备发送:02 03 05 A2 00 0F A4 D3
15:58:03.590 设备接收:02 03 1E 00 00 00 00 00 00 00 00 00 05 00 00 00 00 00 00 00 00 00 00 00 00 00 00 00 00 00 00 00 00 39 EF
15:58:03.606 设备发送:02 03 05 B1 00 03 55 13
15:58:05.618 设备接收:02 03 06 00 00 00 00 00 00 35 85
15:58:05.634 设备发送:02 03 04 2B 00 01 F5 01
15:58:07.632 设备接收:02 03 02 02 2C FC F9
15:58:07.663 设备发送:02 03 04 20 00 01 84 C3
15:58:09.632 设备接收:02 03 02 00 31 3D 90
15:58:09.664 设备发送:02 03 04 05 00 01 95 08
15:58:11.678 设备接收:02 03 02 00 00 FC 44
15:58:11.695 设备发送:03 03 04 84 00 04 04 F2
15:58:13.675 设备接收:03 03 08 13 86 03 6A 00 19 03 6A 71 9C
15:58:13.691 设备发送:03 03 04 8D 00 05 15 30
15:58:15.720 设备接收:03 03 0A 09 15 05 05 00 00 00 00 00 00 94 74
15:58:15.752 设备发送:03 03 04 98 00 05 04 F4
15:58:17.736 设备接收:03 03 0A 09 0F 05 08 00 00 00 00 00 00 FB D4
15:58:17.752 设备发送:03 03 04 A3 00 05 75 39
15:58:19.764 设备接收:03 03 0A 09 1A 05 22 00 00 00 00 00 00 82 86
15:58:19.802 设备发送:03 03 06 84 00 04 05 4A
15:58:21.761 设备接收:03 03 08 00 00 70 E3 00 10 6D EC 7C 51
15:58:21.777 设备发送:03 03 04 04 00 01 C5 19
15:58:23.795 设备接收:03 03 02 00 02 40 45
15:58:23.810 设备发送:03 03 05 84 00 0F 44 C9
15:58:25.829 设备接收:03 03 1E 1C 54 00 F9 00 B4 1B A0 00 FC 00 B2 1C 27 00 F2 00 AF 1C 4A 00 E8 00 A8 1C 46 01 06 00 BD 1A 0B
15:58:25.844 设备发送:03 03 05 93 00 0F F4 CD
15:58:27.833 设备接收:03 03 1E 17 15 00 94 00 57 04 5B 00 00 00 00 04 63 00 00 00 00 04 56 00 01 00 00 04 60 00 0C 00 01 CF 0A
15:58:27.848 设备发送:03 03 05 A2 00 0F A5 02
15:58:29.842 设备接收:03 03 1E 00 0C 00 01 00 00 00 06 00 03 00 00 00 00 00 00 00 00 00 00 00 00 00 00 00 00 00 00 00 00 67 48
15:58:29.872 设备发送:03 03 05 B1 00 03 54 C2
15:58:31.868 设备接收:03 03 06 00 00 00 00 00 00 38 15
15:58:31.884 设备发送:03 03 04 2B 00 01 F4 D0
15:58:33.892 设备接收:03 03 02 01 E1 00 5C
15:58:33.907 设备发送:03 03 04 20 00 01 85 12
15:58:35.902 设备接收:03 03 02 00 33 81 91
15:58:35.917 设备发送:03 03 04 05 00 01 94 D9
15:58:37.922 设备接收:03 03 02 00 00 C1 84
15:58:37.938 设备发送:04 03 04 84 00 04 05 45
15:58:39.942 设备接收:04 03 08 13 88 02 3F 00 11 02 3F C9 98
15:58:39.957 设备发送:04 03 04 8D 00 05 14 87
15:58:41.975 设备接收:04 03 0A 09 0B 03 6A 00 00 00 00 00 00 01 BF
15:58:41.990 设备发送:04 03 04 98 00 05 05 43
15:58:43.992 设备接收:04 03 0A 09 0A 03 67 00 00 00 00 00 00 D0 EF FF
15:58:44.007 设备发送:04 03 04 A3 00 05 74 8E
15:58:46.020 设备接收:04 03 0A 09 13 03 AA 00 00 00 00 00 00 6B B3
15:58:46.036 设备发送:04 03 06 84 00 04 04 FD
15:58:48.033 设备接收:04 03 08 00 00 23 73 00 09 F9 D3 55 4C
15:58:48.049 设备发送:04 03 04 04 00 01 C4 AE
15:58:50.049 设备接收:04 03 02 00 02 F5 85
15:58:50.065 设备发送:04 03 05 84 00 0F 45 7E
15:58:52.058 设备接收:04 03 1E 1F 6D 00 8F 00 73 1F 3E 00 50 00 40 1E A8 00 44 00 35 1D 00 00 81 00 5F 1D EF 00 92 00 70 1F DC
15:58:52.074 设备发送:04 03 05 93 00 0F F5 7A
15:58:54.084 设备接收:04 03 1E 1D 70 00 99 00 73 1E 51 00 4B 00 3A 1E E2 00 4D 00 3D 05 65 00 00 00 00 05 6D 00 00 00 00 AF B7
15:58:54.100 设备发送:04 03 05 A2 00 0F A4 B5
15:58:56.085 设备接收:04 03 1E 00 00 00 00 00 00 00 06 00 01 00 00 00 00 00 00 00 00 00 00 00 00 00 00 00 00 00 00 00 00 BF E0
15:58:56.116 设备发送:04 03 05 B1 00 03 55 75
15:58:58.128 设备接收:04 03 06 00 00 00 00 00 00 1E 25
15:58:58.143 设备发送:04 03 04 2B 00 01 F5 67
15:59:00.137 设备接收:04 03 02 02 D7 35 7A
15:59:00.155 设备发送:04 03 04 20 00 01 84 A5
15:59:02.149 设备接收:04 03 02 00 24 74 5F
15:59:02.211 设备发送:04 03 04 05 00 01 95 6E
15:59:04.174 设备接收:04 03 02 00 00 74 44
15:59:04.189 设备发送:05 03 04 84 00 04 04 94
15:59:06.217 设备接收:05 03 08 13 85 02 7E FF E3 02 7E 7C 7C
15:59:06.249 设备发送:05 03 04 8D 00 05 15 56
15:59:08.215 设备接收:05 03 0A 09 09 03 AA 00 00 00 00 00 00 DA 52
15:59:08.230 设备发送:05 03 04 98 00 05 04 92
15:59:10.243 设备接收:05 03 0A 09 07 03 BA 00 00 00 00 00 00 87 F3
15:59:10.275 设备发送:05 03 04 A3 00 05 75 5F
15:59:12.256 设备接收:05 03 0A 09 15 03 CA 00 00 00 00 00 00 22 94
15:59:12.287 设备发送:05 03 06 84 00 04 05 2C
15:59:14.303 设备接收:05 03 08 00 00 25 5E 00 0E 5E 86 F6 1E
15:59:14.319 设备发送:05 03 04 04 00 01 C5 7F
15:59:16.306 设备接收:05 03 02 00 02 C8 45
15:59:16.321 设备发送:05 03 05 84 00 0F 44 AF
15:59:18.320 设备接收:05 03 1E 1E 20 00 95 00 73 1C D0 00 88 00 64 1D 1B 00 40 00 30 1D 8C 00 95 00 70 1E 90 00 3F 00 31 1D 19
15:59:18.335 设备发送:05 03 05 93 00 0F F4 AB
15:59:20.344 设备接收:05 03 1E 1E 4A 00 44 00 34 1D 5E 00 42 00 32 1C 3D 00 46 00 33 1D 87 00 4B 00 38 1D C9 00 48 00 37 80 82
15:59:20.360 设备发送:05 03 05 A2 00 0F A5 64
15:59:22.402 设备接收:05 03 1E 00 00 00 00 00 00 00 00 00 01 00 00 00 00 00 00 00 00 00 00 00 00 00 00 00 00 00 00 00 00 79 AA
15:59:22.418 设备发送:05 03 05 B1 00 03 54 A4
15:59:24.409 设备接收:05 03 06 00 00 00 00 00 00 13 B5
15:59:24.424 设备发送:05 03 04 2B 00 01 F4 B6
15:59:26.415 设备接收:05 03 02 02 DC 49 7D
15:59:26.446 设备发送:05 03 04 20 00 01 85 74
15:59:28.441 设备接收:05 03 02 00 32 C8 51
15:59:28.456 设备发送:05 03 04 05 00 01 94 BF
15:59:30.465 设备接收:05 03 02 00 00 49 84
15:59:30.480 设备发送:06 03 04 84 00 04 04 A7
15:59:32.492 设备接收:06 03 08 13 89 02 35 00 14 02 35 DA E7
15:59:32.523 设备发送:06 03 04 8D 00 05 15 65
15:59:34.489 设备接收:06 03 0A 09 07 03 56 00 00 00 00 00 00 AF FE FF FF
15:59:34.535 设备发送:06 03 04 98 00 05 04 A1
15:59:36.517 设备接收:06 03 0A 09 0A 03 5E 00 00 00 00 00 00 7E AE
15:59:36.563 设备发送:06 03 04 A3 00 05 75 6C
15:59:38.564 设备接收:06 03 0A 09 13 03 72 00 00 00 00 00 00 34 FC
15:59:38.580 设备发送:06 03 06 84 00 04 05 1F
15:59:40.593 设备接收:06 03 08 00 00 22 2F 00 0D 48 19 3A EE
15:59:40.609 设备发送:06 03 04 04 00 01 C5 4C
15:59:42.601 设备接收:06 03 02 00 02 8C 45
15:59:42.632 设备发送:06 03 05 84 00 0F 44 9C
15:59:44.626 设备接收:06 03 1E 1E 15 00 89 00 69 1D CC 00 92 00 6F 1C C2 00 3D 00 2D 1D F4 00 3E 00 30 1E 6E 00 48 00 38 41 C6
15:59:44.641 设备发送:06 03 05 93 00 0F F4 98
15:59:46.635 设备接收:06 03 1E 1C E8 00 49 00 36 1D A9 00 4C 00 3A 1E 29 00 58 00 44 1D E2 00 2B 00 21 1D 8D 00 35 00 28 A8 1E FF FF
15:59:46.650 设备发送:06 03 05 A2 00 0F A5 57
15:59:48.653 设备接收:06 03 1E 00 00 00 00 00 00 00 00 00 06 00 00 00 00 00 00 00 00 00 00 00 00 00 00 00 00 00 00 00 00 BB 1D
15:59:48.668 设备发送:06 03 05 B1 00 03 54 97
15:59:50.669 设备接收:06 03 06 00 00 00 00 00 00 07 45
15:59:50.747 设备发送:06 03 04 2B 00 01 F4 85
15:59:52.677 设备接收:06 03 02 02 DC 0D 7D
15:59:52.724 设备发送:06 03 04 20 00 01 85 47
15:59:54.722 设备接收:06 03 02 00 35 CD 93
15:59:54.738 设备发送:06 03 04 05 00 01 94 8C
15:59:56.755 设备接收:06 03 02 00 00 0D 84
15:59:56.772 设备发送:07 03 04 84 00 04 05 76
15:59:58.751 设备接收:07 03 08 13 8B 02 43 FF F8 02 43 44 17
15:59:58.766 设备发送:07 03 04 8D 00 05 14 B4
16:00:00.791 设备接收:07 03 0A 09 07 03 78 00 00 00 00 00 00 63 7D FF
16:00:00.807 设备发送:07 03 04 98 00 05 05 70
16:00:02.793 设备接收:07 03 0A 09 06 03 72 00 00 00 00 00 00 C4 ED
16:00:02.808 设备发送:07 03 04 A3 00 05 74 BD
16:00:04.804 设备接收:07 03 0A 09 0E 03 94 00 00 00 00 00 00 24 E3
16:00:04.819 设备发送:07 03 06 84 00 04 04 CE
16:00:06.834 设备接收:07 03 08 00 00 3D 02 00 0B 90 D8 EB EA
16:00:06.850 设备发送:07 03 04 04 00 01 C4 9D
16:00:08.866 设备接收:07 03 02 00 02 B1 85
16:00:08.882 设备发送:07 03 05 84 00 0F 45 4D
16:00:10.875 设备接收:07 03 1E 1D A4 00 94 00 70 1D AB 00 49 00 37 1D 55 00 47 00 35 1D F8 00 41 00 32 1E 73 00 42 00 33 27 2D
16:00:10.890 设备发送:07 03 05 93 00 0F F5 49
16:00:12.896 设备接收:07 03 1E 1D 8C 00 4E 00 3B 1D D0 00 53 00 3F 1B FE 00 85 00 5F 1A 02 00 68 00 45 19 F5 00 60 00 40 AC 6F
16:00:12.927 设备发送:07 03 05 A2 00 0F A4 86
16:00:14.916 设备接收:07 03 1E 00 00 00 00 00 00 00 00 00 04 00 00 00 00 00 00 00 00 00 00 00 00 00 00 00 00 00 00 00 00 F5 3F
16:00:14.948 设备发送:07 03 05 B1 00 03 55 46
16:00:16.981 设备接收:07 03 06 00 00 00 00 00 00 0A D5
16:00:16.996 设备发送:07 03 04 2B 00 01 F5 54
16:00:18.982 设备接收:07 03 02 01 6F 71 F8
16:00:18.997 设备发送:07 03 04 20 00 01 84 96
16:00:20.972 设备接收:07 03 02 00 34 31 93
16:00:21.003 设备发送:07 03 04 05 00 01 95 5D
16:00:23.020 设备接收:07 03 02 00 00 30 44
16:00:23.036 设备发送:08 03 04 84 00 04 05 89
16:00:25.034 设备接收:08 03 08 13 8C 01 FF FF F8 01 FF 52 6A
16:00:25.050 设备发送:08 03 04 8D 00 05 14 4B
16:00:27.064 设备接收:08 03 0A 09 0C 03 08 00 00 00 00 00 00 75 85
16:00:27.079 设备发送:08 03 04 98 00 05 05 8F
16:00:29.071 设备接收:08 03 0A 09 06 03 1E 00 00 00 00 00 00 7C E4
16:00:29.146 设备发送:08 03 04 A3 00 05 74 42
16:00:31.097 设备发送:08 03 06 84 00 04 04 31
16:00:31.113 设备接收:08 03 0A 09 11 03 4D 00 00 00 00 00 00 F4 11
16:00:33.125 设备接收:08 03 08 00 00 30 F8 00 0C F2 F8 9B 8E
16:00:33.140 设备发送:08 03 04 04 00 01 C4 62
16:00:35.111 设备接收:08 03 02 00 02 E5 84
16:00:35.143 设备发送:08 03 05 84 00 0F 45 B2
16:00:37.154 设备接收:08 03 1E 1F 5E 00 77 00 5F 20 62 00 71 00 5E 1E B8 00 7E 00 63 04 EB 00 00 00 00 1E 1F 00 7D 00 60 55 9F
16:00:37.185 设备发送:08 03 05 93 00 0F F5 B6
16:00:39.171 设备接收:08 03 1E 1E 1D 00 77 00 5C 1E 1D 00 79 00 5D 04 E5 00 00 00 00 04 E5 00 00 00 00 04 E5 00 00 00 00 B7 EF
16:00:39.186 设备发送:08 03 05 A2 00 0F A4 79
16:00:41.184 设备接收:08 03 1E 00 00 00 00 00 00 00 00 00 02 00 00 00 00 00 00 00 00 00 00 00 00 00 00 00 00 00 00 00 00 F7 5B
16:00:41.231 设备发送:08 03 05 B1 00 03 55 B9
16:00:43.210 设备接收:08 03 06 00 00 00 00 00 00 4B 25
16:00:43.226 设备发送:08 03 04 2B 00 01 F5 AB
16:00:45.254 设备接收:08 03 02 01 49 A4 23
16:00:45.270 设备发送:08 03 04 20 00 01 84 69
16:00:47.237 设备接收:08 03 02 00 25 A5 9E
16:00:47.298 设备发送:08 03 04 05 00 01 95 A2
16:00:49.282 设备发送:09 03 04 84 00 04 04 58
16:00:49.313 设备接收:08 03 02 00 00 64 45
16:00:51.294 设备发送:09 03 04 8D 00 05 15 9A
16:00:51.310 设备接收:09 03 08 13 8B 02 46 FF F6 02 46 1D 3F
16:00:53.324 设备接收:09 03 0A 09 09 03 6B 00 00 00 00 00 00 1B 52
16:00:53.356 设备发送:09 03 04 98 00 05 04 5E
16:00:55.330 设备接收:09 03 0A 09 07 03 80 00 00 00 00 00 00 0C 3C
16:00:55.363 设备发送:09 03 04 A3 00 05 75 93
16:00:57.344 设备接收:09 03 0A 09 13 03 91 00 00 00 00 00 00 F2 3D
16:00:57.359 设备发送:09 03 06 84 00 04 05 E0
16:00:59.373 设备接收:09 03 08 00 00 38 27 00 0E D7 0B F0 FC
16:00:59.389 设备发送:09 03 04 04 00 01 C5 B3
16:01:01.371 设备接收:09 03 02 00 02 D8 44
16:01:01.386 设备发送:09 03 05 84 00 0F 44 63
16:01:03.425 设备接收:09 03 1E 1D 7C 00 76 00 59 1D F9 00 8B 00 6B 1D CE 00 7D 00 5F 1D 57 00 41 00 31 1E 21 00 7B 00 5F 79 07
16:01:03.441 设备发送:09 03 05 93 00 0F F4 67
16:01:05.452 设备接收:09 03 1E 1D 7D 00 83 00 63 1D DC 00 7F 00 61 1D 2D 00 3E 00 2F 05 34 00 03 00 00 05 36 00 01 00 00 D1 27
16:01:05.468 设备发送:09 03 05 A2 00 0F A5 A8
16:01:07.477 设备发送:09 03 05 B1 00 03 54 68
16:01:07.493 设备接收:09 03 1E 00 07 00 00 00 00 00 04 00 01 00 00 00 00 00 00 00 00 00 00 00 00 00 00 00 00 00 00 00 00 DB 5E
16:01:09.488 设备接收:09 03 06 00 00 00 00 00 00 46 B5
16:01:09.521 设备发送:09 03 04 2B 00 01 F4 7A
16:01:11.491 设备接收:09 03 02 01 2C 59 C8
16:01:11.538 设备发送:09 03 04 20 00 01 85 B8
16:01:13.536 设备接收:09 03 02 00 34 58 52
16:01:13.552 设备发送:09 03 04 05 00 01 94 73
16:01:15.536 设备接收:09 03 02 00 00 59 85
16:01:15.598 设备发送:0A 03 04 84 00 04 04 6B
16:01:17.599 设备接收:0A 03 08 13 8C 02 25 FF F9 02 25 D0 99
16:01:17.614 设备发送:0A 03 04 8D 00 05 15 A9
16:01:19.615 设备接收:0A 03 0A 09 07 03 4A 00 00 00 00 00 00 63 F3
16:01:19.631 设备发送:0A 03 04 98 00 05 04 6D
16:01:21.629 设备接收:0A 03 0A 09 08 03 40 00 00 00 00 00 00 88 03
16:01:21.644 设备发送:0A 03 04 A3 00 05 75 A0
16:01:23.653 设备接收:0A 03 0A 09 12 03 62 00 00 00 00 00 00 39 61
16:01:23.669 设备发送:0A 03 06 84 00 04 05 D3
16:01:25.663 设备接收:0A 03 08 00 00 34 FA 00 0D AF 20 81 78
16:01:25.695 设备发送:0A 03 04 04 00 01 C5 80
16:01:27.676 设备接收:0A 03 02 00 02 9C 44
16:01:27.691 设备发送:0A 03 05 84 00 0F 44 50
16:01:29.722 设备接收:0A 03 1E 1D FD 00 88 00 68 1E 19 00 78 00 5D 1D 5B 00 7A 00 5C 1D E8 00 85 00 66 1D F3 00 85 00 66 6F D2
16:01:29.737 设备发送:0A 03 05 93 00 0F F4 54
16:01:31.735 设备接收:0A 03 1E 1E 44 00 7A 00 5E 1D ED 00 3C 00 2E 04 F2 00 00 00 00 05 01 00 04 00 00 04 FC 00 00 00 00 3F C7
16:01:31.750 设备发送:0A 03 05 A2 00 0F A5 9B
16:01:33.732 设备接收:0A 03 1E 00 0A 00 00 00 00 00 09 00 02 00 00 00 00 00 00 00 00 00 00 00 00 00 00 00 00 00 00 00 00 04 AC FF FF
16:01:33.747 设备发送:0A 03 05 B1 00 03 54 5B
16:01:35.783 设备接收:0A 03 06 00 00 00 00 00 00 52 45
16:01:35.800 设备发送:0A 03 04 2B 00 01 F4 49
16:01:37.800 设备接收:0A 03 02 01 52 9D E8
16:01:37.815 设备发送:0A 03 04 20 00 01 85 8B
16:01:39.808 设备接收:0A 03 02 00 20 1C 5D
16:01:39.824 设备发送:0A 03 04 05 00 01 94 40
16:01:41.851 设备接收:0A 03 02 00 00 1D 85
16:01:41.867 设备发送:0B 03 04 84 00 04 05 BA
16:01:43.863 设备接收:0B 03 08 13 8C 00 DA FF CC 00 F6 91 60
16:01:43.878 设备发送:0B 03 04 8D 00 05 14 78
16:01:45.892 设备接收:0B 03 0A 09 19 01 60 00 00 00 00 00 00 EA C9
16:01:45.907 设备发送:0B 03 04 98 00 05 05 BC
16:01:47.889 设备接收:0B 03 0A 09 15 01 5E 00 00 00 00 00 00 60 0A
16:01:47.905 设备发送:0B 03 04 A3 00 05 74 71
16:01:49.912 设备接收:0B 03 0A 09 1B 01 57 00 00 00 00 00 00 B5 6A
16:01:49.942 设备发送:0B 03 06 84 00 04 04 02
16:01:51.949 设备发送:0B 03 04 04 00 01 C4 51
16:01:51.965 设备接收:0B 03 08 00 00 14 BB 00 04 90 C1 BF 51
16:01:53.967 设备接收:0B 03 02 00 02 A1 84
16:01:53.983 设备发送:0B 03 05 84 00 0F 45 81
16:01:55.979 设备接收:0B 03 1E 1D 8D 00 7C 00 5E 1B EB 00 43 00 30 1C 9C 00 44 00 31 1C 3D 00 48 00 34 00 00 00 00 00 00 4A CA
16:01:56.010 设备发送:0B 03 05 93 00 0F F5 85
16:01:57.994 设备接收:0B 03 1E 00 00 00 00 00 00 00 00 00 00 00 00 00 00 00 00 00 00 00 00 00 00 00 00 00 00 00 00 00 00 60 B9
16:01:58.009 设备发送:0B 03 05 A2 00 0F A4 4A
16:02:00.052 设备接收:0B 03 1E 00 00 00 00 00 00 00 00 00 00 00 00 00 00 00 00 00 00 00 00 00 00 00 00 00 00 00 00 00 00 60 B9
16:02:00.067 设备发送:0B 03 05 B1 00 03 55 8A
16:02:02.049 设备接收:0B 03 06 00 00 00 00 00 00 5F D5
16:02:02.086 设备发送:0B 03 04 2B 00 01 F5 98
16:02:04.091 设备接收:0B 03 02 01 55 E1 EA
16:02:04.111 设备发送:0B 03 04 20 00 01 84 5A
16:02:06.117 设备接收:0B 03 02 00 10 21 89
16:02:06.133 设备发送:0B 03 04 05 00 01 95 91
16:02:08.112 设备接收:0B 03 02 00 00 20 45
16:02:08.128 设备发送:0C 03 04 84 00 04 04 0D
16:02:10.151 设备接收:0C 03 08 13 8C 00 B1 FF D3 00 CF 5F 09
16:02:10.166 设备发送:0C 03 04 8D 00 05 15 CF
16:02:12.156 设备接收:0C 03 0A 09 1B 01 1F 00 00 00 00 00 00 76 29
16:02:12.172 设备发送:0C 03 04 98 00 05 04 0B
16:02:14.188 设备接收:0C 03 0A 09 15 01 2D 00 00 00 00 00 00 29 8A
16:02:14.202 设备发送:0C 03 04 A3 00 05 75 C6
16:02:16.181 设备接收:0C 03 0A 09 19 01 23 00 00 00 00 00 00 93 4A
16:02:16.201 设备发送:0C 03 06 84 00 04 05 B5
16:02:18.221 设备接收:0C 03 08 00 00 10 97 00 03 FF B3 29 73
16:02:18.253 设备发送:0C 03 04 04 00 01 C5 E6
16:02:20.236 设备接收:0C 03 02 00 02 14 44
16:02:20.265 设备发送:0C 03 05 84 00 0F 44 36
16:02:22.292 设备发送:0C 03 05 84 00 0F 44 36
16:02:24.274 设备接收:0C 03 1E 1C 29 00 72 00 52 1D D4 00 7A 00 5D 03 BF 00 00 00 00 0D 09 00 00 00 00 00 00 00 00 00 00 E2 C1 FF FF FF FF FF FF FF FF FF FF FF FF FF FF FE FE FF FE FE FE FF FE FE FE FE FE FE FF FE FE FF FE FE FE FE FE FE FF FE FE FE FE FE FE FE FF FE FE FE FE FE FE FE FE FF FE FE FE FE FE FE FE FE FE FE FE FE FE FE FE FE FE FE FE FE FE FE FE FE FE FE FE FE FE FE FF FE FE FE FE FE FE FE FE FE FE FE FE FE FE FE FE FE FE FE FE FE FE FE FE FE FE FE FE FE
16:02:24.289 设备发送:0C 03 05 93 00 0F F4 32
16:02:26.318 设备接收:FE FE FE FE FE FE FE FE FE FE FE FE FE FE FE FF FE FE FE FE FE FE FE FE FE FE FE FF FE FE FE FE FE FE FF FE FE FE FE FE FE FE FE FF FE FE FE FE FE FE FE FE FE FE FE FE FE FE FE FE FF FE FE FE FE FE FE FE FE FE FE FE FE FE FE FE FE FE FE FE FE FE FE FE FE FE FE FE FE FE FE FE FE FE FE FE FE FE FE FE FE FE FE FE FE FE FE FE FE FE FE FE FE FE FE FE FE FE FE FE FE FE FE FE FE FE FE FE FE FE FE FE FE FE FE FE FE FE FE FE FE FE FE FE FE FE FE FE FE FE
16:02:26.333 设备发送:0C 03 05 A2 00 0F A5 FD
16:02:28.313 设备接收:FE FE FE FE FE FE FE FE FE FE FE FE FE FE FE FE FE FE FE FE FE FE FE FE FE FE FE FE FE FE FE FE FE FE FE FE FE FE FE FE FE FE FE FE FE FE FE FE FE FE FE FE FE FE FE FE FE FE FE FE FE FE FE FE FE FE FE FE FE FE FE FE FE FE FE FE FE FE FE FE FE FE FE FE FE FE FE FE FE FE FE FE FE FE FE FE FE FE FE FE FE FE FE FE FE FE FE FE FE FE FE FE FE FE FE FE FE FE FE FE FE FE FE FE FE FE FE FE FE FE FE FE FE FE FE FE FE FE FE FE FE FE FE FE FE FE FE FE FE FE
16:02:28.336 设备发送:0C 03 05 B1 00 03 54 3D
16:02:30.359 设备接收:FE FE FE FE FE FE FE FE FE FE FE FE FE FE FE FE FE FE FE FE FE FE FE FE FE FE FE FE FE FE FE FE FE FE FE FE FE FE FE FE FE FF FF FF FE FE FE FE FE FE FE FE FE FE FE FE FE FE FE FE FE FE FE FE FE FE FE FE FE FE FE FE FE FE FE FE FE FE FE FE FE FE FE FE FE FE FE FE FE FE FE FE FE FE FE FE FE FE FE FE FE FE FE FE FE FE FE FE FE FE FE FE FE FE FE FE FE FE FE FE FE FE FE FE FE FE FE FE FE FE FE FE FE FE FE FE FE FE FE FE FE FE FE FE FE FE FE FE FE FE
16:02:30.374 设备发送:0C 03 04 2B 00 01 F4 2F
16:02:32.387 设备接收:FE FE FE FE FE FE FE FE FE FE FE FE FE FE FE FE FE FE FE FE FE FE FE FE FE FE FE FE FE FE FE FE FE FE FE FE FE FE FE FE FE FE FE FE FE FE FE FE FE FE FE FE FE FE FE FE FE FE FE FE FE FE FE FE FE FE FE FE FE FE FE FE FE FE FE FE FE FE FE FE FE FE FE FE FE FE FE FE FE FE FE FE FE FE FE FE FE FE FE FE FE FE FE FE FE FE FE FE FE FE FE FE FE FE FE FE FE FE FE FE FE FE FE FE FE FE FE FE FE FE FE FE FE FE FE FE FE FE FE FE FE FE FE FE FE FE FE FE FE FE
16:02:32.403 设备发送:0C 03 04 20 00 01 85 ED
16:02:34.374 设备接收:FE FE FE FE FE FE FE FE FE FE FE FE FE FE FE FE FE FE FE FE FE FE FE FE FE FE FE FE FE FE FE FE FE FE FE FE FE FE FE FE FE FE FE FE FE FE FE FE FE FE FE FE FE FE FE FE FE FE FE FE FE FE FE FE FE FE FE FE FE FE FE FE FE FE FE FE FE FE FE FE FE FE FE FE FE FE FE FE FE FE FE FE FE FE FE FE FE FE FE FE FE FE FE FE FE FE FE FE FE FE FE FE FE FE FE FE FE FE FE FE FE FE FE FE FE FE FE FE FE FE FE FE FE FE FE FE FE FE FE FE FE FE FE FE FE FE FE FE FE FE
16:02:34.443 设备发送:0C 03 04 05 00 01 94 26
16:02:36.399 设备接收:FE FE FE FE FE FE FE FE FE FE FE FE FE FE FE FE FE FE FE FE FE FE FE FE FE FE FE FE FE FE FE FE FE FE FE FE FE FE FE FE FE FE FE FE FE FE FE FE FE FE FE FE FE FE FE FE FE FE FE FE FE FE FE FE FE FE FE FE FE FE FE FE FE FE FE FE FE FE FE FE FE FE FE FE FE FE FE FE FE FE FE FE FE FE FE FE FE FE FE FE FE FE FE FE FE FE FE FE FE FE FE FE FE FE FE FE FE FE FE FE FE FE FE FE FE FE FE FE FE FE FE FE FE FE FE FE FE FE FE FE FE FE FE FE FE FE FE FE FE FE
16:02:36.429 设备发送:01 03 04 84 00 04 05 10
16:02:38.421 设备接收:FE FE FE FE FE FE FE FE FE FE FE FE FE FE FE FE FE FE FE FE FE FE FE FE FE FE FE FE FE FE FE FE FE FE FE FF FE FE FE FE FE FE FE FE FE FE FE FE FE FE FE FE FE FE FE FE FE FE FE FE FE FE FE FE FE FE FE FE FE FE FE FE FE FE FE FE FE FE FE FE FE FE FE FE FE FE FE FE FE FE FE FE FE FE FE FE FE FE FE FE FE FE FE FE FE FE FE FE FE FE FE FE FE FE FE FE FE FE FE FE FE FE FE FE FE FE FE FE FE FE FE FE FE FE FE FE FE FE FE FE FE FE FE FE FE FE FE FE FE FE
16:02:38.451 设备发送:01 03 04 8D 00 05 14 D2
16:02:40.450 设备接收:FE FE FE FE FE FE FE FE FE FE FE FE FE FE FE FE FE FE FE FE FE FE FE FE FE FE FE FE FE FE FE FE FE FE FE FE FE FE FE FE FE FE FE FE FE FE FE FE FE FE FE FE FE FE FE FE FE FE FE FE FE FE FE FE FE FE FE FE FE FE FE FE FE FE FE FE FE FE FE FE FE FE FE FE FE FE FE FE FE FE FE FE FE FE FE FE FE FF FE FE FE FE FE FE FE FE FE FE FE FE FE FE FE FE FE FE FE FE FE FE FE FE FE FE FE FE FE FE FE FE FE FE FE FE FE FE FE FE FE FE FE FE FE FE FE FE FE FE FE FE
16:02:40.466 设备发送:01 03 04 98 00 05 05 16
16:02:42.481 设备接收:FE FE FE FE FE FE FE FE FE FE FE FE FE FE FE FE FE FE FE FE FE FE FE FE FE FE FE FE FE FE FE FE FE FE FE FE FE FE FE FE FE FE FE FE FE FE FE FE FE FE FE FE FE FE FE FE FE FE FE FE FE FE FE FE FE FE FE FE FE FE FE FE FE FE FE FE FE FE FE FE FE FE FE FE FE FE FE FE FE FE FE FE FE FE FE FE FE FE FE FE FE FE FE FE FE FE FE FE FE FE FE FE FE FE FE FE FE FE FE FE FE FE FE FE FE FE FE FE FE FE FE FE FE FE FE FE FE FE FE FE FE FE FE FE FE FE FE FE FE FE
16:02:42.496 设备发送:01 03 04 A3 00 05 74 DB
16:02:44.493 设备接收:FE FE FE FE FE FE FE FE FE FE FE FE FE FE FE FE FE FE FE FE FE FE FE FE FE FE FE FE FE FE FF FE FE FE FE FE FE FE FE FE FE FE FE FE FE FE FE FE FE FE FE FE FE FE FE FE FE FE FE FE FE FE FE FE FE FE FE FE FE FE FE FE FE FE FE FE FE FE FE FE FE FE FE FE FE FE FE FE FE FE FE FE FE FE FE FE FE FE FE FE FE FE FE FE FE FE FE FE FE FE FE FE FE FE FE FE FE FE FE FE FE FE FE FE FE FE FE FE FE FE FE FE FE FE FE FE FE FE FE FE FE FE FE FE FE FE FE FE FE FE
16:02:44.507 设备发送:01 03 06 84 00 04 04 A8
16:02:46.508 设备接收:FE FE FE FE FE FE FE FE FE FE FE FE FE FE FE FE FE FE FE FE FE FE FE FE FE FE FE FE FE FE FE FE FE FE FE FE FE FE FE FE FE FE FE FE FE FE FE FE FE FE FE FE FE FE FE FE FE FE FE FE FE FE FE FE FE FE FE FE FE FE FE FE FE FE FE FE FE FE FE FE FE FE FE FE FE FE FE FF FE FE FE FE FE FE FE FE FE FE FE FE FE FE FE FE FE FE FE FE FE FE FE FE FE FE FE FE FE FE FE FE FE FE FE FE FE FE FE FE FE FE FE FE FE FE FE FE FE FE FE FE FE FE FE FE FE FE FE FE FE FE
16:02:46.523 设备发送:01 03 04 04 00 01 C4 FB
16:02:48.520 设备发送:01 03 05 84 00 0F 45 2B
16:02:48.536 设备接收:FE FE FE FE FE FE FE FE FE FE FE FE FE FE FE FE FE FE FE FE FE FE FE FE FE FE FE FE FE FE FE FE FE FE FE FE FE FE FE FE FE FE FE FE FE FE FE FE FE FE FE FE FE FE FE FE FE FE FE FE FE FE FE FE FE FE FE FE FF FE FE FE FE FE FE FE FE FE FE FE FE FE FE FE FE FE FE FE FE FE FE FE FE FE FE FE FE FE FE FE FE FE FE FE FE FE FE FE FE FE FE FE FE FE FE FF FE FE FE FE FE FE FE FE FE FE FE FE FE FE FE FE FE FE FE FE FE FE FE FE FE FE FF FE FE FE FE FE FE FE
16:02:50.548 设备接收:FE FE FE FE FE FE FE FE FE FE FE FE FE FE FE FE FE FE FE FE FE FE FE FE FE FE FE FE FE FE FE FE FE FE FE FE FE FE FE FF FE FE FE FE FE FE FE FE FE FE FE FE FE FE FE FE FE FE FE FE FE FE FE FE FE FE FE FE FE FE FE FE FE FE FE FE FE FE FE FE FE FE FE FE FE FE FE FF FE FE FE FE FE FE FE FE FE FE FE FE FE FE FE FE FE FE FE FE FE FE FE FE FE FE FE FE FE FE FE FE FE FE FE FF FE FE FE FE FE FE FE FE FE FE FE FE FE FE FE FE FE FE FE FE FE FE FE FE FE FE
16:02:50.564 设备发送:01 03 05 93 00 0F F5 2F
16:02:52.560 设备接收:FE FE FE FE FE FE FE FE FE FE FE FE FE FE FE FE FE FE FE FE FE FE FE FE FE FE FE FE FE FE FE FE FE FE FE FE FE FE FE FE FE FE FE FE FE FE FE FE FE FE FE FE FE FE FE FE FE FE FE FE FE FE FE FE FE FE FE FE FF FE FE FE FE FE FE FE FE FE FE FE FE FE FE FE FE FE FE FE FE FE FE FE FE FE FE FE FE FE FE FE FE FE FE FE FE FE FF FE FE FE FE FE FE FE FE FE FE FE FE FE FE FE FE FE FE FE FE FE FE FE FE FE FE FE FE FE FE FE FE FE FE FE FE FE FE FE FE FE FE FE
16:02:52.591 设备发送:01 03 05 A2 00 0F A4 E0
16:02:54.592 设备接收:FE FE FE FE FE FE FE FE FE FE FE FE FE FE FE FE FE FE FE FE FE FE FE FE FE FE FE FE FE FE FE FE FE FE FE FE FE FE FE FE FE FE FE FE FE FE FE FE FE FE FE FE FE FE FE FE FE FE FE FE FE FE FE FE FE FE FE FE FF FE FE FE FE FE FE FE FE FE FE FE FE FE FE FE FE FE FE FE FE FE FE FE FE FE FE FE FE FE FE FE FE FE FE FE FE FE FE FE FE FE FE FE FE FE FE FE FE FE FE FE FE FE FE FE FE FE FE FE FE FE FE FE FE FE FE FE FE FE FE FE FE FE FE FE FE FE FE FE FE FE
16:02:54.609 设备发送:01 03 05 B1 00 03 55 20
16:02:56.593 设备接收:FE FE FE FE FE FE FE FE FE FE FE FE FE FE FE FE FE FE FE FE FE FE FE FE FE FE FE FE FE FE FE FE FE FE FE FE FE FE FE FE FE FE FE FE FE FE FE FE FE FE FE FE FE FE FE FE FE FE FE FE FE FE FE FE FE FE FE FE FE FE FE FE FE FE FE FE FE FE FE FE FE FE FE FE FE FE FE FE FE FE FE FE FE FE FE FE FE FE FE FE FE FE FE FE FE FE FE FE FE FE FE FE FE FE FE FE FE FE FE FE FE FE FE FE FE FE FE FE FE FE FE FE FE FE FE FE FE FE FE FE FE FE FE FE FE FE FE FE FE FE
16:02:56.607 设备发送:01 03 04 2B 00 01 F5 32
16:02:58.639 设备接收:FE FE FE FE FE FE FE FE FE FE FE FE FE FE FE FE FE FE FE FE FE FE FE FE FE FE FE FE FE FE FE FE FE FE FE FE FE FE FE FE FE FE FE FE FE FE FE FE FE FE FE FE FE FE FE FE FE FE FE FE FE FE FE FE FE FE FE FE FE FE FE FE FE FE FE FE FE FE FE FE FE FE FE FE FE FE FE FE FE FE FE FE FE FE FE FE FE FE FE FE FE FE FE FE FE FE FE FE FE FE FE FE FE FE FE FE FE FE FE FE FE FE FE FE FE FE FE FE FE FE FE FE FE FE FE FE FE FE FE FE FE FE FE FE FE FE FE FE FE FE
16:02:58.653 设备发送:01 03 04 20 00 01 84 F0
16:03:00.636 设备接收:FE FE FE FE FE FE FE FE FE FE FE FE FE FE FE FE FE FE FE FE FE FE FE FE FE FE FE FE FE FE FE FE FE FE FE FE FE FE FE FE FE FE FE FE FE FE FE FE FE FE FE FE FE FE FE FE FE FE FE FE FE FE FE FE FE FE FE FE FE FE FE FE FE FE FE FE FE FE FE FE FE FE FE FE FE FE FE FE FE FE FE FE FE FE FE FE FE FE FE FE FE FE FE FE FE FE FE FE FE FE FE FE FE FE FE FE FE FE FE FE FE FE FE FE FE FE FE FE FE FE FE FE FE FE FE FE FE FE FE FE FE FE FE FF FE FE FE FE FE FE
16:03:00.650 设备发送:01 03 04 05 00 01 95 3B
16:03:02.651 设备接收:FE FE FE FE FE FE FE FE FE FE FE FE FE FE FE FE FE FE FE FE FE FE FE FE FE FE FE FE FE FE FE FE FE FE FE FE FE FE FE FE FE FE FE FE FE FE FE FE FE FE FE FE FE FE FE FE FE FE FE FE FE FE FE FE FE FE FE FE FE FE FE FE FE FE FE FE FE FE FE FE FE FE FE FE FE FE FE FE FE FE FE FE FE FE FE FE FE FE FE FE FE FE FE FE FE FE FE FE FE FE FE FE FE FE FE FE FE FE FE FE FE FE FE FE FE FE FE FE FE FE FE FE FE FE FE FE FE FE FE FE FE FE FE FE FE FE FE FE FE FE
16:03:02.667 设备发送:02 03 04 84 00 04 05 23
16:03:04.671 设备接收:FE FE FE FE FE FE FE FE FE FE FE FE FE FE FE FE FE FE FE FE FE FE FE FE FE FE FE FE FE FE FE FE FE FE FE FE FE FE FE FE FE FE FE FE FE FE FE FE FE FE FE FE FE FE FE FE FE FE FE FE FE FE FE FE FE FE FE FE FE FE FE FE FE FE FE FE FE FE FE FE FE FE FE FE FE FE FE FE FE FE FE FE FE FE FE FE FE FE FE FE FE FE FE FE FE FE FE FE FE FE FE FE FE FE FE FE FE FE FE FE FE FE FE FE FE FE FE FE FE FE FE FE FE FE FE FE FE FE FE FE FE FE FE FE FE FE FE FE FE FE
16:03:04.701 设备发送:02 03 04 8D 00 05 14 E1
16:03:06.690 设备接收:FE FE FE FE FE FE FE FE FE FE FE FF FE FE FE FE FE FE FE FE FE FE FE FE FE FE FE FE FE FE FE FE FE FE FE FE FE FE FE FE FE FE FE FE FE FE FE FE FE FE FE FE FE FE FE FE FE FE FE FF FE FE FE FE FE FE FE FE FE FE FE FE FE FE FE FE FE FE FE FE FE FE FE FE FE FE FE FE FE FE FE FE FE FE FE FE FE FE FE FE FE FE FE FE FE FE FE FE FE FE FE FE FE FE FE FE FE FE FE FE FE FE FE FE FE FE FE FE FE FE FE FE FF FE FE FE FE FE FE FE FE FE FE FE FE FE FE FE FE FE
16:03:06.720 设备发送:02 03 04 98 00 05 05 25
16:03:08.724 设备接收:FE FE FE FE FE FE FE FE FE FE FE FE FE FE FE FE FE FE FE FE FE FE FE FE FE FE FE FE FE FE FE FE FE FE FE FE FE FE FE FF FE FE FE FE FE FE FE FE FE FE FE FE FE FE FE FE FE FE FE FE FE FE FE FE FE FE FE FE FE FE FE FE FE FE FE FE FE FE FE FE FE FE FE FE FE FE FE FF FE FE FE FE FE FE FE FE FE FE FE FE FE FE FE FE FE FE FE FE FE FE FE FE FE FE FE FE FE FE FE FE FE FE FE FE FE FE FE FE FE FE FE FE FF FE FE FE FE FE FE FE FE FE FE FE FE FE FE FE FE FE
16:03:08.739 设备发送:02 03 04 A3 00 05 74 E8
16:03:10.736 设备接收:FE FE FE FE FE FE FE FE FE FE FE FE FE FE FE FE FE FE FE FE FE FE FE FE FE FE FE FE FE FE FE FE FE FE FE FE FE FE FE FF FE FE FE FE FE FE FE FE FE FE FE FE FE FE FE FE FE FE FF FE FE FE FE FE FE FE FE FE FE FE FE FE FE FE FE FE FE FE FE FE FE FE FE FE FE FE FE FE FE FE FE FE FE FE FE FE FE FE FE FE FE FE FE FE FE FE FF FE FE FE FE FE FE FE FE FF FE FE FE FE FE FE FE FF FE FE FE FE FE FE FE FE FE FF FE FE FE FE FE FE FE FE FE FE FE FE FE FE FE FE
16:03:10.768 设备发送:02 03 06 84 00 04 04 9B
16:03:12.772 设备接收:FE FE FE FE FE FE FE FE FE FE FE FE FE FE FE FE FE FE FE FE FE FE FE FE FE FE FE FE FE FE FE FE FE FE FE FE FE FE FE FE FE FE FE FE FE FE FE FE FE FE FE FE FE FF FE FE FE FE FF FE FE FE FE FF FE FE FE FE FE FE FE FE FE FF FF FE FE FE FE FE FE FE FE FF FE FE FE FE FE FE FE FE FE FF FE FE FE FE FE FE FE FE FE FF FE FE FE FE FE FE FE FE FE FF FE FE FE FE FE FE FE FE FE 01 03 02 00 32 39 91 FF FE FE FE FE FE FF FE FE FE FE FE FE FE FE FE FE FE FE FE
16:03:12.778 设备发送:02 03 04 04 00 01 C4 C8
16:03:14.795 设备接收:FF FE FE FE FE FE FE FE FE FE FF FE FE FE FE FE FE FE FE FE FF FF FE FE FE FE FE FE FE FE FE FE FE FE FE FE FE FE FE FE FF FE FE FE FE FE FE FE FE FE FF FF FF FE FE FE FE FE FE FE FE FE FE FE FE FE FE FE FE FE FF FE FE FE FE FE FE FE FE FE FF FE FE FE FE FE FE FE FE FE FF FE FE FE FE FE FE FE FE FE FF FE FE FE FE FE FE FE FE FE FF FE FE FE FE FE FE FE FE FE FF FE FE FE FE FE FE FE FE FE FE FE FE FF FE FE FE FE FE FE FE FE FE FF FE FE FE FE FE FE
16:03:14.810 设备发送:02 03 05 84 00 0F 45 18
16:03:16.814 设备接收:FE FE FE FE FE FE FE FE FE FE FE FE FE FF FE FE FE FE FE FE FE FE FE FF FF FE FF FE FE FE FE FE FE FF FE FE FE FE FE FE FE FE FF FF FE FE FE FE FE FE FE FE FE FF FF FE FE FE FE FE FE FE FE FF FF FE FE FE FE FE FE FE FE FF FE FE FE FE FE FE FE FE FE FF FF FE FE FE FE FE FE FE FE FF FE FE FE FE FE FE FE FE FE FF FE FE FE FE FE FE FE FE FE FF FF FE FE FE FE FE FE FE FE FF FE FE FE FE FE FE FF FE FE FF FF FE FE FE FE FE FE FE FE FF FF FF FF FF FE FF
16:03:16.831 设备发送:02 03 05 93 00 0F F5 1C
16:03:18.845 设备接收:FF FE FE FF FF FE FE FE FE FE FE FE FE FF FF FE FE FF FE FE FE FE FE FF FF FF FE FE FE FE FE FE FE FF FF FE FE FE FE FE FE FE FE FF FF FE FE FE FE FE FE FE FE FF FF FE FE FF FE FE FE FE FE FF FE FE FE FE FE FE FE FE FE FF FE FE FE FE FE FE FE FE FE FF FF FE FE FE FE FE FE FE FE FF FF FF FE FE FE FE FE FE FE FF FF FE FF FE FE FE FE FE FE FF FF FE FE FF FE FE FE FE FE FF FF FE FE FE FF FE FF FE FE FF FF FE FE FF FE FF FE FF FF FF FF FE FF FF FE FF
16:03:18.861 设备发送:02 03 05 A2 00 0F A4 D3
16:03:20.839 设备接收:FE FE FE FF FF FF FE FE FE FE FE FE FE FF FE FE FF FE FE FE FE FE FF FF FF FF FE FE FE FE FE FE FE FF FE FE FE FF FE FE FE FE FF FF FE FF FE FE FE FE FE FE FE FF FF FE FF FE FF FE FE FE FE FF FF FF FF FE FE FF FF FF FE FF FF FF FF FE FF FF FF FE FF FF FF FE FE FE FE FE FF FE FE FF FF FF FF FE FE FF FE FE FF FF FF FE FF FE FE FE FE FE FE FF FE FE FE FE FF FF FE FF FE FF FF FE FE FF FE FE FE FF FE FF FF FF FF FE FF FE FF FE FE FE FF FE FE FE FE FE
16:03:20.860 设备发送:02 03 05 B1 00 03 55 13
16:03:22.81800

