15:49:16.267 设备发送:02 03 06 84 00 04 04 9B
15:49:17.087 设备发送:02 03 06 84 00 04 04 9B
15:49:17.910 设备发送:02 03 06 84 00 04 04 9B
15:49:18.720 设备发送:02 03 04 04 00 01 C4 C8
15:49:19.548 设备发送:02 03 04 04 00 01 C4 C8
15:49:20.358 设备发送:02 03 04 04 00 01 C4 C8
15:49:21.214 设备发送:03 03 04 84 00 04 04 F2
15:49:22.019 设备发送:03 03 04 84 00 04 04 F2
15:49:22.828 设备发送:03 03 04 84 00 04 04 F2
15:49:23.668 设备发送:03 03 06 84 00 04 05 4A
15:49:24.477 设备发送:03 03 06 84 00 04 05 4A
15:49:25.304 设备发送:03 03 06 84 00 04 05 4A
15:49:26.117 设备发送:03 03 04 04 00 01 C5 19
15:49:26.944 设备发送:03 03 04 04 00 01 C5 19
15:49:27.754 设备发送:03 03 04 04 00 01 C5 19
15:49:28.582 设备发送:05 03 04 84 00 04 04 94
15:49:29.391 设备发送:05 03 04 84 00 04 04 94
15:49:30.217 设备发送:05 03 04 84 00 04 04 94
15:49:31.039 设备发送:05 03 06 84 00 04 05 2C
15:49:31.854 设备发送:05 03 06 84 00 04 05 2C
15:49:32.680 设备发送:05 03 06 84 00 04 05 2C
15:49:33.489 设备发送:05 03 04 04 00 01 C5 7F
15:49:34.314 设备发送:05 03 04 04 00 01 C5 7F
15:49:35.144 设备发送:05 03 04 04 00 01 C5 7F
15:49:35.950 设备发送:0C 03 04 84 00 04 04 0D
15:49:36.777 设备发送:0C 03 04 84 00 04 04 0D
15:49:37.588 设备发送:0C 03 04 84 00 04 04 0D
15:49:38.431 设备发送:0C 03 06 84 00 04 05 B5
15:49:39.245 设备发送:0C 03 06 84 00 04 05 B5
15:49:40.061 设备发送:0C 03 06 84 00 04 05 B5
15:49:40.891 设备发送:0C 03 04 04 00 01 C5 E6
15:49:41.704 设备发送:0C 03 04 04 00 01 C5 E6
15:49:42.515 设备发送:0C 03 04 04 00 01 C5 E6
15:49:43.329 设备发送:01 03 04 84 00 04 05 10
15:49:44.138 设备接收:01 07 48 03 89 00 48 3B D0 C0 14 65 B4
15:49:44.153 设备发送:01 03 06 84 00 04 04 A8
15:49:44.981 设备接收:01 03 08 00 00 1E 52 00 03 F0 E7 DB EF
15:49:44.997 设备发送:01 03 04 04 00 01 C4 FB
15:49:45.808 设备发送:01 03 04 04 00 01 C4 FB
15:49:46.618 设备发送:01 03 04 04 00 01 C4 FB
15:49:47.430 设备发送:02 03 04 84 00 04 05 23
15:49:48.254 设备发送:02 03 04 84 00 04 05 23
15:49:49.066 设备发送:02 03 04 84 00 04 05 23
15:49:49.890 设备发送:02 03 06 84 00 04 04 9B
15:49:50.711 设备发送:02 03 06 84 00 04 04 9B
15:49:51.540 设备发送:02 03 06 84 00 04 04 9B
15:49:52.367 设备发送:02 03 04 04 00 01 C4 C8
15:49:53.178 设备发送:02 03 04 04 00 01 C4 C8
15:49:53.988 设备发送:02 03 04 04 00 01 C4 C8
15:49:54.814 设备发送:03 03 04 84 00 04 04 F2
15:49:55.635 设备发送:03 03 04 84 00 04 04 F2
15:49:55.76000

