
14:21:55.053 设备接收:05 03 1E 00 00 00 00 00 00 00 00 00 01 00 00 00 00 00 00 00 00 00 00 00 00 00 00 00 00 00 00 00 00 79 AA
14:21:55.147 设备发送:05 03 05 B1 00 03 54 A4
14:21:58.143 设备接收:05 03 06 00 00 00 00 00 00 13 B5
14:21:58.159 设备发送:05 03 04 2B 00 01 F4 B6
14:22:01.163 设备发送:05 03 04 20 00 01 85 74
14:22:01.178 设备接收:05 03 02 01 F9 88 56
14:22:45.025 设备发送:01 03 08 40 00 01 87 BE 
05 03 04 05 00 01 94 BF 
05 03 04 05 00 01 94 BF 
01 10 08 40 00 
01 02 40 01 D1 50 
01 10 08 40 00 01 02 40 01 D1 50

14:22:45.080 设备接收:05 03 02 00 43 08 75 01 03 02 40 01 48 44
14:22:47.113 设备接收:05 03 02 00 00 49 84 FD FB 7F FD 5D 5F 84
14:22:47.159 设备发送:06 03 04 84 00 04 04 A7
14:22:50.124 设备接收:06 03 08 13 88 08 C0 00 0D 08 C0 51 B8
14:22:50.155 设备发送:06 03 04 8D 00 05 15 65
14:22:53.165 设备接收:06 03 0A 09 14 0C 8D 00 00 00 00 00 00 5D 83
14:22:53.181 设备发送:06 03 04 98 00 05 04 A1
14:22:56.167 设备接收:06 03 0A 09 27 0C 75 00 00 00 00 00 00 64 BD
14:22:56.183 设备发送:06 03 04 A3 00 05 75 6C
14:22:59.213 设备接收:06 03 0A 09 26 0C 90 00 00 00 00 00 00 DD E3
14:22:59.228 设备发送:06 03 06 84 00 04 05 1F
14:23:02.244 设备接收:06 03 08 00 00 35 73 00 0D 84 6F 3D 22
14:23:02.275 设备发送:06 03 04 04 00 01 C5 4C
14:23:05.239 设备接收:06 03 02 00 02 8C 45
14:23:05.270 设备发送:06 03 05 84 00 0F 44 9C
14:23:08.312 设备接收:06 03 1E 1E 3C 02 0E 01 97 1D B5 01 F6 01 7E 1D D2 01 07 00 C8 1E 1D 01 05 00 C9 1E 2A 01 09 00 CC 4B 62
14:23:08.343 设备发送:06 03 05 93 00 0F F4 98
14:23:11.357 设备接收:06 03 1E 1C F3 01 11 00 CA 1D 8F 01 17 00 D3 1E 08 01 18 00 D7 1B 35 00 FF 00 B1 1D E6 00 FE 00 C2 DF BF
14:23:11.385 设备发送:06 03 05 A2 00 0F A5 57
14:23:14.406 设备接收:06 03 1E 00 00 00 00 00 00 00 00 00 07 00 00 00 00 00 00 00 00 00 00 00 00 00 00 00 00 00 00 00 00 AB CC
14:23:14.422 设备发送:06 03 05 B1 00 03 54 97

