
10:27:36.61200
10:27:36.61400
10:27:36.61700
10:27:36.61900
10:27:36.62100
10:27:36.62300
10:27:36.62500
10:27:36.62800
10:27:36.63000
10:27:36.64000
10:27:37.345 设备接收:01 03 08 13 86 06 5E FF ED 06 5E B8 D4
10:27:37.368 设备发送:01 03 06 84 00 04 04 A8
10:27:38.181 设备接收:01 05 08 00 00 07 65 00 03 F2 65 AD 23
10:27:38.196 设备发送:01 03 04 04 00 01 C4 FB
10:27:38.978 设备接收:01 03 02 00 02 39 85
10:27:38.994 设备发送:02 03 04 84 00 04 05 23
10:27:39.828 设备发送:02 03 04 84 00 04 05 23
10:27:40.639 设备发送:02 03 04 84 00 04 05 23
10:27:41.455 设备发送:02 03 06 84 00 04 04 9B
10:27:42.296 设备发送:02 03 06 84 00 04 04 9B
10:27:43.124 设备发送:02 03 06 84 00 04 04 9B
10:27:43.934 设备发送:02 03 04 04 00 01 C4 C8
10:27:44.716 设备接收:02 03 02 00 02 7D 85
10:27:44.731 设备发送:03 03 04 84 00 04 04 F2
10:27:45.545 设备接收:03 03 08 13 88 18 03 FF C9 18 03 3A 8D
10:27:45.561 设备发送:03 03 06 84 00 04 05 4A
10:27:46.371 设备接收:03 03 08 00 00 20 89 00 0F 29 C1 AA D3
10:27:46.387 设备发送:03 03 04 04 00 01 C5 19
10:27:47.200 设备接收:03 03 02 00 02 40 45
10:27:47.215 设备发送:05 03 04 84 00 04 04 94
10:27:48.027 设备发送:05 03 04 84 00 04 04 94
10:27:48.840 设备发送:05 03 04 84 00 04 04 94
10:27:49.651 设备发送:05 03 06 84 00 04 05 2C
10:27:50.479 设备发送:05 03 06 84 00 04 05 2C
10:27:51.323 设备发送:05 03 06 84 00 04 05 2C
10:27:52.103 设备接收:05 03 08 00 00 07 75 06 0D CF 12 48 A5
10:27:52.118 设备发送:05 03 04 04 00 01 C5 7F
10:27:52.959 设备发送:05 03 04 04 00 01 C5 7F
10:27:53.768 设备发送:05 03 04 04 00 01 C5 7F
10:27:54.593 设备发送:0C 03 04 84 00 04 04 0D
10:27:55.405 设备发送:0C 03 04 84 00 04 04 0D
10:27:56.215 设备发送:0C 03 04 84 00 04 04 0D
10:27:57.048 设备发送:0C 03 06 84 00 04 05 B5
10:27:57.856 设备发送:0C 03 06 84 00 04 05 B5
10:27:58.686 设备发送:0C 03 06 84 00 04 05 B5
10:27:59.496 设备发送:0C 03 04 04 00 01 C5 E6
10:28:00.322 设备发送:0C 03 04 04 00 01 C5 E6
10:28:01.136 设备发送:0C 03 04 04 00 01 C5 E6
10:28:01.961 设备发送:01 03 04 84 00 04 05 10
10:28:02.770 设备发送:01 03 04 84 00 04 05 10
10:28:03.600 设备接收:01 03 08 13 8B 06 65 FF ED 06 65 C0 02
10:28:03.616 设备发送:01 03 06 84 00 04 04 A8
10:28:04.426 设备发送:01 03 06 84 00 04 04 A8
10:28:05.250 设备发送:01 03 06 84 00 04 04 A8
10:28:06.030 设备接收:67 AB B8 4C 14 46 72 00 C3 DE 66 8D B9
10:28:06.046 设备发送:01 03 04 04 00 01 C4 FB
10:28:06.873 设备接收:01 03 02 80 00 B9 8D
10:28:06.888 设备发送:02 03 04 84 00 04 05 23
10:28:07.700 设备发送:02 03 04 84 00 04 05 23
10:28:08.512 设备发送:02 03 04 84 00 04 05 23
10:28:09.340 设备发送:02 03 06 84 00 04 04 9B
10:28:10.162 设备发送:02 03 06 84 00 04 04 9B
10:28:10.971 设备发送:02 03 06 84 00 04 04 9B
10:28:11.797 设备发送:02 03 04 04 00 01 C4 C8
10:28:12.606 设备发送:02 03 04 04 00 01 C4 C8
10:28:13.435 设备发送:02 03 04 04 00 01 C4 C8
10:28:14.260 设备发送:03 03 04 84 00 04 04 F2
10:28:15.076 设备接收:03 03 08 13 8B 18 0F 00 25 18 0F E8 68
10:28:15.092 设备发送:03 03 06 84 00 04 05 4A
10:28:15.877 设备接收:03 03 08 00 00 20 BB 00 0F 29 C6 D2 D5
10:28:15.893 设备发送:03 03 04 04 00 01 C5 19
10:28:16.720 设备接收:03 03 02 00 02 40 45
10:28:16.736 设备发送:05 03 04 84 00 04 04 94
10:28:17.548 设备发送:05 03 04 84 00 04 04 94
10:28:18.360 设备发送:05 03 04 84 00 04 04 94
10:28:19.198 设备发送:05 03 06 84 00 04 05 2C
10:28:20.016 设备发送:05 03 06 84 00 04 05 2C
10:28:20.832 设备发送:05 03 06 84 00 04 05 2C
10:28:21.644 设备发送:05 03 04 04 00 01 C5 7F
10:28:22.469 设备发送:05 03 04 04 00 01 C5 7F
10:28:23.278 设备发送:05 03 04 04 00 01 C5 7F
10:28:24.107 设备发送:0C 03 04 84 00 04 04 0D
10:28:24.918 设备发送:0C 03 04 84 00 04 04 0D
10:28:25.760 设备发送:0C 03 04 84 00 04 04 0D
10:28:26.570 设备发送:0C 03 06 84 00 04 05 B5
10:28:27.406 设备发送:0C 03 06 84 00 04 05 B5
10:28:28.219 设备发送:0C 03 06 84 00 04 05 B5
10:28:29.031 设备发送:0C 03 04 04 00 01 C5 E6
10:28:29.842 设备发送:0C 03 04 04 00 01 C5 E6
10:28:30.669 设备发送:0C 03 04 04 00 01 C5 E6
10:28:31.485 设备发送:01 03 04 84 00 04 05 10
10:28:32.294 设备接收:01 00 08 13 8B 06 3C FF D7 06 48 FB 61
10:28:32.310 设备发送:01 03 06 84 00 04 04 A8
10:28:33.121 设备发送:01 03 06 84 00 04 04 A8
10:28:33.932 设备接收:01 03 08 00 00 07 7F 00 03 F2 67 75 20
10:28:33.963 设备发送:01 03 04 04 00 01 C4 FB
10:28:34.775 设备发送:01 03 04 04 00 01 C4 FB
10:28:35.588 设备发送:01 03 04 04 00 01 C4 FB
10:28:36.395 设备发送:02 03 04 84 00 04 05 23
10:28:37.225 设备发送:02 03 04 84 00 04 05 23
10:28:38.038 设备发送:02 03 04 84 00 04 05 23
10:28:38.879 设备发送:02 03 06 84 00 04 04 9B
10:28:39.693 设备发送:02 03 06 84 00 04 04 9B
10:28:40.504 设备发送:02 03 06 84 00 04 04 9B
10:28:41.316 设备发送:02 03 04 04 00 01 C4 C8
10:28:42.127 设备发送:02 03 04 04 00 01 C4 C8
10:28:42.939 设备接收:02 03 02 00 02 7D 85
10:28:42.954 设备发送:03 03 04 84 00 04 04 F2
10:28:43.778 设备接收:03 03 08 13 8A 18 24 FF C8 18 25 FD 50
10:28:43.793 设备发送:03 03 06 84 00 04 05 4A
10:28:44.603 设备接收:03 03 08 00 00 20 EE 00 0F 29 CC 5E DE
10:28:44.618 设备发送:03 03 04 04 00 01 C5 19
10:28:45.401 设备接收:03 03 02 00 02 40 45
10:28:45.417 设备发送:05 03 04 84 00 04 04 94
10:28:46.231 设备发送:05 03 04 84 00 04 04 94
10:28:47.061 设备发送:05 03 04 84 00 04 04 94
10:28:47.891 设备发送:05 03 06 84 00 04 05 2C
10:28:48.706 设备发送:05 03 06 84 00 04 05 2C
10:28:49.516 设备发送:05 03 06 84 00 04 05 2C
10:28:50.339 设备发送:05 03 04 04 00 01 C5 7F
10:28:51.149 设备发送:05 03 04 04 00 01 C5 7F
10:28:51.993 设备发送:05 03 04 04 00 01 C5 7F
10:28:52.802 设备发送:0C 03 04 84 00 04 04 0D
10:28:53.616 设备发送:0C 03 04 84 00 04 04 0D
10:28:54.426 设备发送:0C 03 04 84 00 04 04 0D
10:28:55.272 设备发送:0C 03 06 84 00 04 05 B5
10:28:56.084 设备发送:0C 03 06 84 00 04 05 B5
10:28:56.911 设备发送:0C 03 06 84 00 04 05 B5
10:28:57.735 设备发送:0C 03 04 04 00 01 C5 E6
10:28:58.544 设备发送:0C 03 04 04 00 01 C5 E6
10:28:59.355 设备发送:0C 03 04 04 00 01 C5 E6
10:29:00.185 设备发送:01 03 04 84 00 04 05 10
10:29:00.998 设备接收:01 03 08 13 88 06 73 FF EB 06 73 DB 0E
10:29:01.014 设备发送:01 03 06 84 00 04 04 A8
10:29:01.826 设备接收:01 03 08 00 00 07 8B 00 03 F2 69 45 31
10:29:01.841 设备发送:01 03 04 04 00 01 C4 FB
10:29:02.619 设备接收:01 03 02 00 02 39 85
10:29:02.651 设备发送:02 03 04 84 00 04 05 23
10:29:03.479 设备发送:02 03 04 84 00 04 05 23
10:29:04.285 设备发送:02 03 04 84 00 04 05 23
10:29:05.115 设备发送:02 03 06 84 00 04 04 9B
10:29:05.925 设备发送:02 03 06 84 00 04 04 9B
10:29:06.737 设备发送:02 03 06 84 00 04 04 9B
10:29:07.549 设备发送:02 03 04 04 00 01 C4 C8
10:29:08.377 设备发送:02 03 04 04 00 01 C4 C8
10:29:09.191 设备发送:02 03 04 04 00 01 C4 C8
10:29:10.005 设备接收:02 03 02 00 02 7D 85
10:29:10.021 设备发送:03 03 04 84 00 04 04 F2
10:29:10.820 设备接收:03 03 08 13 88 18 25 FF CA 18 25 42 90
10:29:10.835 设备发送:03 03 06 84 00 04 05 4A
10:29:11.662 设备接收:03 03 08 00 00 21 1D 00 0F 29 D0 5A D3
10:29:11.677 设备发送:03 03 04 04 00 01 C5 19
10:29:12.457 设备接收:03 03 02 00 02 40 45
10:29:12.488 设备发送:05 03 04 84 00 04 04 94
10:29:13.301 设备发送:05 03 04 84 00 04 04 94
10:29:14.111 设备发送:05 03 04 84 00 04 04 94
10:29:14.955 设备发送:05 03 06 84 00 04 05 2C
10:29:15.764 设备发送:05 03 06 84 00 04 05 2C
10:29:16.592 设备发送:05 03 06 84 00 04 05 2C
10:29:17.403 设备发送:05 03 04 04 00 01 C5 7F
10:29:18.227 设备发送:05 03 04 04 00 01 C5 7F
10:29:19.035 设备接收:14 03 02 00 02 C8 15
10:29:19.050 设备发送:0C 03 04 84 00 04 04 0D
10:29:19.879 设备发送:0C 03 04 84 00 04 04 0D
10:29:20.694 设备发送:0C 03 04 84 00 04 04 0D
10:29:21.508 设备发送:0C 03 06 84 00 04 05 B5
10:29:22.316 设备发送:0C 03 06 84 00 04 05 B5
10:29:23.147 设备发送:0C 03 06 84 00 04 05 B5
10:29:23.959 设备发送:0C 03 04 04 00 01 C5 E6
10:29:24.783 设备发送:0C 03 04 04 00 01 C5 E6
10:29:25.597 设备发送:0C 03 04 04 00 01 C5 E6
10:29:26.414 设备发送:01 03 04 84 00 04 05 10
10:29:27.241 设备发送:01 03 04 84 00 04 05 10
10:29:28.051 设备接收:01 03 08 13 87 06 7A FF ED 06 7A D8 08
10:29:28.066 设备发送:01 03 06 84 00 04 04 A8
10:29:28.875 设备发送:01 03 06 84 00 04 04 A8
10:29:29.713 设备发送:01 03 06 84 00 04 04 A8
10:29:30.522 设备发送:01 03 04 04 00 01 C4 FB
10:29:31.337 设备接收:01 03 0A 00 02 39 85
10:29:31.352 设备发送:02 03 04 84 00 04 05 23
10:29:32.196 设备发送:02 03 04 84 00 04 05 23
10:29:32.977 设备接收:02 03 08 13 89 12 9D FF D3 12 9D 21 08
10:29:32.992 设备发送:02 03 06 84 00 04 04 9B
10:29:33.791 设备发送:02 03 06 84 00 04 04 9B
10:29:34.622 设备发送:02 03 06 84 00 04 04 9B
10:29:35.431 设备发送:02 03 04 04 00 01 C4 C8
10:29:36.272 设备发送:02 03 04 04 00 01 C4 C8
10:29:37.082 设备发送:02 03 04 04 00 01 C4 C8
10:29:37.913 设备发送:03 03 04 84 00 04 04 F2
10:29:38.692 设备接收:03 03 08 13 89 18 41 00 27 18 41 82 52
10:29:38.707 设备发送:03 03 06 84 00 04 05 4A
10:29:39.534 设备接收:03 03 08 00 00 21 4D 00 0F 29 D5 5A DC
10:29:39.550 设备发送:03 03 04 04 00 01 C5 19
10:29:40.346 设备接收:03 03 02 00 02 40 45
10:29:40.423 设备发送:05 03 04 84 00 04 04 94
10:29:41.170 设备发送:05 03 04 84 00 04 04 94
10:29:41.997 设备发送:05 03 04 84 00 04 04 94
10:29:42.838 设备发送:05 03 06 84 00 04 05 2C
10:29:43.646 设备发送:05 03 06 84 00 04 05 2C
10:29:44.471 设备发送:05 03 06 84 00 04 05 2C
10:29:45.281 设备发送:05 03 04 04 00 01 C5 7F
10:29:46.108 设备发送:05 03 04 04 00 01 C5 7F
10:29:46.935 设备发送:05 03 04 04 00 01 C5 7F
10:29:47.743 设备发送:0C 03 04 84 00 04 04 0D
10:29:48.556 设备发送:0C 03 04 84 00 04 04 0D
10:29:49.365 设备发送:0C 03 04 84 00 04 04 0D
10:29:50.192 设备发送:0C 03 06 84 00 04 05 B5
10:29:51.020 设备发送:0C 03 06 84 00 04 05 B5
10:29:51.831 设备发送:0C 03 06 84 00 04 05 B5
10:29:52.659 设备发送:0C 03 04 04 00 01 C5 E6
10:29:53.470 设备发送:0C 03 04 04 00 01 C5 E6
10:29:54.302 设备发送:0C 03 04 04 00 01 C5 E6
10:29:55.110 设备发送:01 03 04 84 00 04 05 10
10:29:55.925 设备接收:01 03 08 13 8A 06 71 FF D4 06 71 30 C3
10:29:55.940 设备发送:01 03 06 84 00 04 04 A8
10:29:56.734 设备接收:01 03 08 00 00 07 A5 00 03 F2 6B 2C F6
10:29:56.781 设备发送:01 03 04 04 00 01 C4 FB
10:29:57.589 设备发送:01 03 04 04 00 01 C4 FB
10:29:58.415 设备发送:01 03 04 04 00 01 C4 FB
10:29:59.225 设备发送:02 03 04 84 00 04 05 23
10:30:00.054 设备发送:02 03 04 84 00 04 05 23
10:30:00.863 设备发送:02 03 04 84 00 04 05 23
10:30:01.689 设备发送:02 03 06 84 00 04 04 9B
10:30:02.498 设备发送:02 03 06 84 00 04 04 9B
10:30:03.329 设备发送:02 03 06 84 00 04 04 9B
10:30:04.137 设备接收:02 03 08 00 00 16 20 00 0B 8D EE 8D 6C
10:30:04.152 设备发送:02 03 04 04 00 01 C4 C8
10:30:04.945 设备发送:02 03 04 04 00 01 C4 C8
10:30:05.788 设备发送:02 03 04 04 00 01 C4 C8
10:30:06.597 设备发送:03 03 04 84 00 04 04 F2
10:30:07.423 设备接收:03 03 08 13 89 18 30 00 25 18 31 5E 7D
10:30:07.439 设备发送:03 03 06 84 00 04 05 4A
10:30:08.219 设备接收:03 03 08 00 00 21 7C 00 0F 29 DA 67 1C
10:30:08.235 设备发送:03 03 04 04 00 01 C5 19
10:30:09.048 设备接收:03 03 02 00 02 40 45
10:30:09.065 设备发送:05 03 04 84 00 04 04 94
10:30:09.905 设备发送:05 03 04 84 00 04 04 94
10:30:10.718 设备发送:05 03 04 84 00 04 04 94
10:30:11.530 设备发送:05 03 06 84 00 04 05 2C
10:30:12.344 设备发送:05 03 06 84 00 04 05 2C
10:30:13.157 设备发送:05 03 06 84 00 04 05 2C
10:30:13.981 设备发送:05 03 04 04 00 01 C5 7F
10:30:14.810 设备发送:05 03 04 04 00 01 C5 7F
10:30:15.622 设备发送:05 03 04 04 00 01 C5 7F
10:30:16.434 设备发送:0C 03 04 84 00 04 04 0D
10:30:17.265 设备发送:0C 03 04 84 00 04 04 0D
10:30:18.075 设备发送:0C 03 04 84 00 04 04 0D
10:30:18.902 设备发送:0C 03 06 84 00 04 05 B5
10:30:19.742 设备发送:0C 03 06 84 00 04 05 B5
10:30:20.552 设备发送:0C 03 06 84 00 04 05 B5
10:30:21.361 设备发送:0C 03 04 04 00 01 C5 E6
10:30:22.172 设备发送:0C 03 04 04 00 01 C5 E6
10:30:22.983 设备发送:0C 03 04 04 00 01 C5 E6
10:30:23.825 设备发送:01 03 04 84 00 04 05 10
10:30:24.638 设备接收:01 03 08 13 86 06 7C FF EC 06 7C 91 0A
10:30:24.653 设备发送:01 03 06 84 00 04 04 A8
10:30:25.436 设备接收:01 03 08 00 00 07 B1 00 03 F2 6C 5D 37
10:30:25.468 设备发送:01 03 04 04 00 01 C4 FB
10:30:26.265 设备接收:01 03 02 00 02 39 85
10:30:26.280 设备发送:02 03 04 84 00 04 05 23
10:30:27.094 设备发送:02 03 04 84 00 04 05 23
10:30:27.921 设备发送:02 03 04 84 00 04 05 23
10:30:28.748 设备发送:02 03 06 84 00 04 04 9B
10:30:29.561 设备发送:02 03 06 84 00 04 04 9B
10:30:30.370 设备发送:02 03 06 84 00 04 04 9B
10:30:31.197 设备发送:02 03 04 04 00 01 C4 C8
10:30:32.035 设备发送:02 03 04 04 00 01 C4 C8
10:30:32.847 设备发送:02 03 04 04 00 01 C4 C8
10:30:33.659 设备发送:03 03 04 84 00 04 04 F2
10:30:34.472 设备接收:03 03 08 13 85 18 56 FF CC 18 57 FB BF
10:30:34.488 设备发送:03 03 06 84 00 04 05 4A
10:30:35.283 设备接收:03 03 08 00 00 21 AC 00 0F 29 DF 66 CD
10:30:35.299 设备发送:03 03 04 04 00 01 C5 19
10:30:36.083 设备接收:03 03 02 00 02 40 45
10:30:36.128 设备发送:05 03 04 84 00 04 04 94
10:30:36.936 设备发送:05 03 04 84 00 04 04 94
10:30:37.779 设备发送:05 03 04 84 00 04 04 94
10:30:38.589 设备发送:05 03 06 84 00 04 05 2C
10:30:39.401 设备发送:05 03 06 84 00 04 05 2C
10:30:40.216 设备发送:05 03 06 84 00 04 05 2C
10:30:41.026 设备接收:05 0B 80 00 55 07 90 27 55 BD 6A 8D B9
10:30:41.057 设备发送:05 03 04 04 00 01 C5 7F
10:30:41.868 设备发送:05 03 04 04 00 01 C5 7F
10:30:42.684 设备发送:05 03 04 04 00 01 C5 7F
10:30:43.512 设备发送:0C 03 04 84 00 04 04 0D
10:30:44.325 设备发送:0C 03 04 84 00 04 04 0D
10:30:45.157 设备发送:0C 03 04 84 00 04 04 0D
10:30:45.968 设备发送:0C 03 06 84 00 04 05 B5
10:30:46.778 设备发送:0C 03 06 84 00 04 05 B5
10:30:47.605 设备发送:0C 03 06 84 00 04 05 B5
10:30:48.427 设备发送:0C 03 04 04 00 01 C5 E6
10:30:49.238 设备发送:0C 03 04 04 00 01 C5 E6
10:30:50.051 设备发送:0C 03 04 04 00 01 C5 E6
10:30:50.894 设备发送:01 03 04 84 00 04 05 10
10:30:51.711 设备发送:01 03 04 84 00 04 05 10
10:30:52.535 设备发送:01 03 04 84 00 04 05 10
10:30:53.316 设备接收:01 03 08 13 86 06 7C FF EF 06 7D A0 CA
10:30:53.331 设备发送:01 03 06 84 00 04 04 A8
10:30:54.143 设备接收:01 03 08 00 00 07 B9 61 D3 D0 6E B5 5C
10:30:54.158 设备发送:01 03 04 04 00 01 C4 FB
10:30:54.964 设备发送:01 03 04 04 00 01 C4 FB
10:30:55.777 设备接收:01 03 02 00 02 39 85
10:30:55.793 设备发送:02 03 04 84 00 04 05 23
10:30:56.617 设备发送:02 03 04 84 00 04 05 23
10:30:57.432 设备发送:02 03 04 84 00 04 05 23
10:30:58.260 设备发送:02 03 06 84 00 04 04 9B
10:30:59.086 设备发送:02 03 06 84 00 04 04 9B
10:30:59.901 设备发送:02 03 06 84 00 04 04 9B
10:31:00.712 设备发送:02 03 04 04 00 01 C4 C8
10:31:01.538 设备发送:02 03 04 04 00 01 C4 C8
10:31:02.365 设备发送:02 03 04 04 00 01 C4 C8
10:31:03.175 设备发送:03 03 04 84 00 04 04 F2
10:31:03.986 设备接收:03 03 08 13 89 18 41 FF C9 18 41 D2 73
10:31:04.018 设备发送:03 03 06 84 00 04 05 4A
10:31:04.801 设备接收:03 03 08 00 00 21 DF 00 0F 29 E4 22 D5
10:31:04.816 设备发送:03 03 04 04 00 01 C5 19
10:31:05.615 设备接收:03 03 02 00 02 40 45
10:31:05.631 设备发送:05 03 04 84 00 04 04 94
10:31:06.473 设备发送:05 03 04 84 00 04 04 94
10:31:07.286 设备发送:05 03 04 84 00 04 04 94
10:31:08.100 设备接收:05 03 08 13 8B 05 B1 FF 92 05 B1 D4 7A
10:31:08.115 设备发送:05 03 06 84 00 04 05 2C
10:31:08.927 设备发送:05 03 06 84 00 04 05 2C
10:31:09.738 设备发送:05 03 06 84 00 04 05 2C
10:31:10.547 设备接收:05 03 08 00 00 07 C6 00 0D CF 1B 8D 79
10:31:10.562 设备发送:05 03 04 04 00 01 C5 7F
10:31:11.373 设备发送:05 03 04 04 00 01 C5 7F
10:31:12.189 设备发送:05 03 04 04 00 01 C5 7F
10:31:13.001 设备接收:05 03 02 00 02 C8 45
10:31:13.017 设备发送:0C 03 04 84 00 04 04 0D
10:31:13.841 设备发送:0C 03 04 84 00 04 04 0D
10:31:14.653 设备发送:0C 03 04 84 00 04 04 0D
10:31:15.495 设备发送:0C 03 06 84 00 04 05 B5
10:31:16.311 设备发送:0C 03 06 84 00 04 05 B5
10:31:17.125 设备发送:0C 03 06 84 00 04 05 B5
10:31:17.936 设备发送:0C 03 04 04 00 01 C5 E6
10:31:18.762 设备发送:0C 03 04 04 00 01 C5 E6
10:31:19.574 设备发送:0C 03 04 04 00 01 C5 E6
10:31:20.402 设备发送:01 03 04 84 00 04 05 10
10:31:21.212 设备发送:01 03 04 84 00 04 05 10
10:31:22.052 设备发送:01 03 04 84 00 04 05 10
10:31:22.850 设备发送:01 03 06 84 00 04 04 A8
10:31:23.661 设备接收:01 03 08 00 00 07 CC 00 03 F2 6F 71 3C
10:31:23.677 设备发送:01 03 04 04 00 01 C4 FB
10:31:24.522 设备发送:01 03 04 04 00 01 C4 FB
10:31:25.305 设备接收:01 03 02 00 02 39 85
10:31:25.320 设备发送:02 03 04 84 00 04 05 23
10:31:26.119 设备发送:02 03 04 84 00 04 05 23
10:31:26.963 设备发送:02 03 04 84 00 04 05 23
10:31:27.794 设备发送:02 03 06 84 00 04 04 9B
10:31:28.607 设备发送:02 03 06 84 00 04 04 9B
10:31:29.439 设备发送:02 03 06 84 00 04 04 9B
10:31:30.250 设备发送:02 03 04 04 00 01 C4 C8
10:31:31.074 设备发送:02 03 04 04 00 01 C4 C8
10:31:31.71600

