16:30:36.712 设备接收:02 03 02 02 D3 BC B9
16:30:36.732 设备发送:02 03 04 20 00 01 84 C3
16:30:39.711 设备接收:02 03 02 00 31 3D 90
16:30:39.731 设备发送:02 03 04 05 00 01 95 08
16:30:42.730 设备接收:02 03 02 00 00 FC 44
16:30:42.780 设备发送:03 03 04 84 00 04 04 F2
16:30:45.772 设备接收:03 03 08 13 87 02 9B FF FF 02 9B 0C AF
16:30:45.792 设备发送:03 03 04 8D 00 05 15 30
16:30:48.799 设备接收:03 03 0A 09 13 03 E0 00 00 00 00 00 00 8B 30
16:30:48.819 设备发送:03 03 04 98 00 05 04 F4
16:30:51.795 设备接收:03 03 0A 09 16 03 E1 00 00 00 00 00 00 A4 A0
16:30:51.809 设备发送:03 03 04 A3 00 05 75 39
16:30:54.819 设备接收:03 03 0A 09 1C 04 08 00 00 00 00 00 00 E3 28
16:30:54.838 设备发送:03 03 06 84 00 04 05 4A
16:30:57.840 设备接收:03 03 08 00 00 8D 1D 00 10 F7 FD EA C4
16:30:57.851 设备发送:03 03 04 04 00 01 C5 19
16:31:00.867 设备接收:03 03 02 00 02 40 45
16:31:00.888 设备发送:03 03 05 84 00 0F 44 C9
16:31:03.890 设备接收:03 03 1E 1C 99 00 B7 00 86 1C 52 00 B8 00 86 1D 34 00 A8 00 7E 1C 79 00 AD 00 7E 1B D5 00 E3 00 A2 E9 8E
16:31:03.912 设备发送:03 03 05 93 00 0F F4 CD
16:31:06.893 设备接收:03 03 1E 17 1E 00 7C 00 49 04 6F 00 00 00 00 04 75 00 00 00 00 04 68 00 05 00 00 04 72 00 05 00 00 56 2D
16:31:06.945 设备发送:03 03 05 A2 00 0F A5 02
16:31:09.932 设备接收:03 03 1E 00 0E 00 01 00 00 00 07 00 04 00 00 00 00 00 00 00 00 00 00 00 00 00 00 00 00 00 00 00 00 5C 60
16:31:09.942 设备发送:03 03 05 B1 00 03 54 C2
16:31:12.942 设备接收:03 03 06 00 00 00 00 00 00 38 15
16:31:12.952 设备发送:03 03 04 2B 00 01 F4 D0
16:31:15.981 设备接收:03 03 02 02 C3 80 B5
16:31:15.992 设备发送:03 03 04 20 00 01 85 12
16:31:18.986 设备接收:03 03 02 00 33 81 91
16:31:19.006 设备发送:03 03 04 05 00 01 94 D9
16:31:22.009 设备接收:03 03 02 00 00 C1 84
16:31:22.020 设备发送:04 03 04 84 00 04 05 45
16:31:25.027 设备接收:04 03 08 13 8A 01 35 FF F4 01 35 D3 7E
16:31:25.048 设备发送:04 03 04 8D 00 05 14 87
16:31:28.041 设备接收:04 03 0A 09 0A 02 40 00 00 00 00 00 00 46 21
16:31:28.064 设备发送:04 03 04 98 00 05 05 43
16:31:31.051 设备接收:04 03 0A 09 0F 02 06 00 00 00 00 00 00 5E B5
16:31:31.062 设备发送:04 03 04 A3 00 05 74 8E
16:31:34.091 设备接收:04 03 0A 09 14 02 3D 00 00 00 00 00 00 6A 86
16:31:34.113 设备发送:04 03 06 84 00 04 04 FD
16:31:37.107 设备接收:04 03 08 00 00 43 B9 00 0A 3B 88 24 67
16:31:37.127 设备发送:04 03 04 04 00 01 C4 AE
16:31:40.138 设备接收:04 03 02 00 02 F5 85
16:31:40.158 设备发送:04 03 05 84 00 0F 45 7E
16:31:43.160 设备接收:04 03 1E 1F D7 00 4F 00 41 1E C8 00 44 00 35 1E C7 00 29 00 20 1C D1 00 43 00 31 1C B0 00 58 00 40 55 A9
16:31:43.182 设备发送:04 03 05 93 00 0F F5 7A
16:31:46.172 设备接收:04 03 1E 1D 58 00 5C 00 45 1C AF 00 31 00 24 1C 11 00 30 00 23 05 54 00 00 00 00 05 5E 00 03 00 00 22 AD
16:31:46.193 设备发送:04 03 05 A2 00 0F A4 B5
16:31:49.194 设备接收:04 03 1E 00 00 00 00 00 00 00 05 00 01 00 00 00 00 00 00 00 00 00 00 00 00 00 00 00 00 00 00 00 00 EB 05
16:31:49.208 设备发送:04 03 05 B1 00 03 55 75
16:31:52.190 设备接收:04 03 06 00 00 00 00 00 00 1E 25
16:31:52.210 设备发送:04 03 04 2B 00 01 F5 67
16:31:55.223 设备接收:04 03 02 02 57 34 DA
16:31:55.241 设备发送:04 03 04 20 00 01 84 A5
16:31:58.274 设备接收:04 03 02 00 2D B4 59
16:31:58.283 设备发送:04 03 04 05 00 01 95 6E
16:32:01.275 设备接收:04 03 02 00 00 74 44
16:32:01.291 设备发送:05 03 04 84 00 04 04 94
16:32:04.303 设备接收:05 03 08 13 84 01 69 FF F5 01 6A F9 B7
16:32:04.323 设备发送:05 03 04 8D 00 05 15 56
16:32:07.312 设备接收:05 03 0A 09 0A 02 4B 00 00 00 00 00 00 FE 60
16:32:07.331 设备发送:05 03 04 98 00 05 04 92
16:32:10.335 设备接收:05 03 0A 09 08 02 53 00 00 00 00 00 00 7F 01
16:32:10.354 设备发送:05 03 04 A3 00 05 75 5F
16:32:13.363 设备接收:05 03 0A 09 12 02 64 00 00 00 00 00 00 8A A2
16:32:13.372 设备发送:05 03 06 84 00 04 05 2C
16:32:16.374 设备接收:05 03 08 00 00 46 8D 00 0E A2 6E 3B 11
16:32:16.396 设备发送:05 03 04 04 00 01 C5 7F
16:32:19.401 设备接收:05 03 02 00 02 C8 45
16:32:19.422 设备发送:05 03 05 84 00 0F 44 AF
16:32:22.416 设备接收:05 03 1E 1C DD 00 5A 00 42 1D A9 00 59 00 43 1D A2 00 2F 00 24 1C 38 00 6B 00 4D 1D 86 00 30 00 24 11 09
16:32:22.437 设备发送:05 03 05 93 00 0F F4 AB
16:32:25.432 设备接收:05 03 1E 1C A4 00 34 00 26 1D 8B 00 28 00 1E 1D 37 00 33 00 26 1D 82 00 2F 00 24 1D D5 00 2B 00 21 31 B5
16:32:25.454 设备发送:05 03 05 A2 00 0F A5 64
16:32:28.466 设备接收:05 03 1E 00 00 00 00 00 00 00 00 00 01 00 00 00 00 00 00 00 00 00 00 00 00 00 00 00 00 00 00 00 00 79 AA
16:32:28.486 设备发送:05 03 05 B1 00 03 54 A4
16:32:31.474 设备接收:05 03 06 00 00 00 00 00 00 13 B5
16:32:31.495 设备发送:05 03 04 2B 00 01 F4 B6
16:32:34.489 设备接收:05 03 02 01 F9 88 56
16:32:34.510 设备发送:05 03 04 20 00 01 85 74
16:32:37.525 设备接收:05 03 02 00 31 88 50
16:32:37.545 设备发送:05 03 04 05 00 01 94 BF
16:32:40.526 设备接收:05 03 02 00 00 49 84
16:32:40.543 设备发送:06 03 04 84 00 04 04 A7
16:32:43.567 设备接收:06 03 08 13 85 01 34 FF F1 01 35 0A 07
16:32:43.587 设备发送:06 03 04 8D 00 05 15 65
16:32:46.569 设备接收:06 03 0A 09 04 02 0F 00 00 00 00 00 00 B3 C7
16:32:46.592 设备发送:06 03 04 98 00 05 04 A1
16:32:49.620 设备接收:06 03 0A 09 0B 02 0A 00 00 00 00 00 00 A7 37
16:32:49.631 设备发送:06 03 04 A3 00 05 75 6C
16:32:52.649 设备接收:06 03 0A 09 12 02 20 00 00 00 00 00 00 8B 65
16:32:52.668 设备发送:06 03 06 84 00 04 05 1F
16:32:55.664 设备接收:06 03 08 00 00 3F D8 00 0D 85 79 98 0E
16:32:55.679 设备发送:06 03 04 04 00 01 C5 4C
16:32:58.690 设备接收:06 03 02 00 02 8C 45
16:32:58.707 设备发送:06 03 05 84 00 0F 44 9C
16:33:01.689 设备接收:06 03 1E 1D EC 00 59 00 44 1D 3E 00 5A 00 43 1B A1 00 22 00 18 1D 7E 00 30 00 24 1D 87 00 30 00 24 1B 5C
16:33:01.720 设备发送:06 03 05 93 00 0F F4 98
16:33:04.715 设备接收:06 03 1E 1C AD 00 2C 00 20 1C F2 00 2C 00 20 1D BB 00 3C 00 2E 1C C7 00 1A 00 13 1C 04 00 18 00 11 23 16
16:33:04.746 设备发送:06 03 05 A2 00 0F A5 57
16:33:07.748 设备接收:06 03 1E 00 00 00 00 00 00 00 00 00 07 00 00 00 00 00 00 00 00 00 00 00 00 00 00 00 00 00 00 00 00 AB CC
16:33:07.764 设备发送:06 03 05 B1 00 03 54 97
16:33:10.771 设备接收:06 03 06 00 00 00 00 00 00 07 45
16:33:10.815 设备发送:06 03 04 2B 00 01 F4 85
16:33:13.793 设备接收:06 03 02 01 E6 8D 9E
16:33:13.809 设备发送:06 03 04 20 00 01 85 47
16:33:16.809 设备接收:06 03 02 00 34 0C 53
16:33:16.824 设备发送:06 03 04 05 00 01 94 8C
16:33:19.816 设备接收:06 03 02 00 00 0D 84
16:33:19.847 设备发送:07 03 04 84 00 04 05 76
16:33:22.835 设备接收:07 03 08 13 8A 01 34 FF DF 01 36 D1 F3
16:33:22.849 设备发送:07 03 04 8D 00 05 14 B4
16:33:25.849 设备接收:07 03 0A 09 0F 02 17 00 00 00 00 00 00 5A 77
16:33:25.864 设备发送:07 03 04 98 00 05 05 70
16:33:28.865 设备接收:07 03 0A 09 0E 02 29 00 00 00 00 00 00 88 24
16:33:28.896 设备发送:07 03 04 A3 00 05 74 BD
16:33:31.926 设备接收:07 03 0A 09 0F 02 46 00 00 00 00 00 00 1A B2
16:33:31.951 设备发送:07 03 06 84 00 04 04 CE
16:33:34.901 设备接收:07 03 08 00 00 44 BF 00 0B D3 19 7C F8
16:33:34.917 设备发送:07 03 04 04 00 01 C4 9D
16:33:37.940 设备接收:07 03 02 00 02 B1 85
16:33:37.951 设备发送:07 03 05 84 00 0F 45 4D
16:33:40.958 设备接收:07 03 1E 1B FD 00 5D 00 43 1D 41 00 2F 00 23 1C A2 00 29 00 1E 1D 35 00 29 00 1E 1D 7F 00 27 00 1D AA C8
16:33:40.972 设备发送:07 03 05 93 00 0F F5 49
16:33:43.987 设备接收:07 03 1E 1D 7E 00 2E 00 23 1E 1F 00 35 00 29 1B AD 00 50 00 39 1A 0E 00 40 00 2A 1A 44 00 35 00 24 4B EB
16:33:44.006 设备发送:07 03 05 A2 00 0F A4 86
16:33:47.019 设备接收:07 03 1E 00 00 00 00 00 00 00 00 00 05 00 00 00 00 00 00 00 00 00 00 00 00 00 00 00 00 00 00 00 00 E5 EE
16:33:47.039 设备发送:07 03 05 B1 00 03 55 46
16:33:50.035 设备接收:07 03 06 00 00 00 00 00 00 0A D5
16:33:50.047 设备发送:07 03 04 2B 00 01 F5 54
16:33:53.068 设备接收:07 03 02 02 0C 31 21
16:33:53.079 设备发送:07 03 04 20 00 01 84 96
16:33:53.47900

